name,type,start_time,duration,"data","ack","address","read"
"I2C","start",11.347574958,0.000000042,,,,
"I2C","address",11.482508167,0.0000865,,true,0x09,false
"I2C","data",11.482599875,0.0000865,0x32,true,,
"I2C","data",11.482691583,0.0000865,0x02,true,,
"I2C","data",11.482783292,0.0000865,0x80,true,,
"I2C","stop",11.482880208,0.000000042,,,,
"I2C","start",11.482885333,0.000000042,,,,
"I2C","address",11.482895542,0.0000865,,true,0x09,false
"I2C","data",11.48298725,0.0000865,0x3F,true,,
"I2C","data",11.483078958,0.0000865,0x00,true,,
"I2C","data",11.483170667,0.0000865,0x00,true,,
"I2C","stop",11.483267583,0.000000042,,,,
"I2C","start",11.48327375,0.000000042,,,,
"I2C","address",11.483283958,0.0000865,,true,0x09,false
"I2C","data",11.483375667,0.0000865,0x14,true,,
"I2C","data",11.483467375,0.0000865,0x00,true,,
"I2C","data",11.483559083,0.0000865,0x00,true,,
"I2C","stop",11.483656,0.000000042,,,,
"I2C","start",11.48366075,0.000000042,,,,
"I2C","address",11.483670958,0.0000865,,true,0x09,false
"I2C","data",11.483762667,0.0000865,0x3B,true,,
"I2C","data",11.483854375,0.0000865,0x40,true,,
"I2C","data",11.483946083,0.0000865,0x02,true,,
"I2C","stop",11.484043,0.000000042,,,,
"I2C","start",11.484047792,0.000000042,,,,
"I2C","address",11.484058,0.000086458,,true,0x09,false
"I2C","data",11.484149708,0.000086458,0x3C,true,,
"I2C","data",11.484241375,0.0000865,0x00,true,,
"I2C","data",11.484333083,0.0000865,0x1E,true,,
"I2C","stop",11.48443,0.000000042,,,,
"I2C","start",11.484447542,0.000000042,,,,
"I2C","address",11.48445775,0.000086458,,false,0x6A,false
"I2C","stop",11.484554667,0.000000042,,,,
"I2C","start",11.484559417,0.000000042,,,,
"I2C","address",11.484569625,0.0000865,,false,0x6A,false
"I2C","stop",11.484666542,0.000000042,,,,
"I2C","start",11.484671333,0.000000042,,,,
"I2C","address",11.484681542,0.0000865,,false,0x6A,false
"I2C","stop",11.484778458,0.000000042,,,,
"I2C","start",11.48478325,0.000000042,,,,
"I2C","address",11.484793458,0.000086458,,false,0x6A,false
"I2C","stop",11.484890375,0.000000042,,,,
"I2C","start",11.484904792,0.000000042,,,,
"I2C","address",11.484915,0.0000865,,false,0x6A,false
"I2C","stop",11.485011917,0.000000042,,,,
"I2C","start",11.485016667,0.000000042,,,,
"I2C","address",11.485026917,0.000086458,,false,0x6A,false
"I2C","stop",11.485123833,0.000000042,,,,
"I2C","start",11.485129042,0.000000042,,,,
"I2C","address",11.48513925,0.0000865,,false,0x6A,false
"I2C","stop",11.485236167,0.000000042,,,,
"I2C","start",11.485240958,0.000000042,,,,
"I2C","address",11.485251167,0.000086458,,false,0x6A,false
"I2C","stop",11.485348083,0.000000042,,,,
"I2C","start",11.485352833,0.000000042,,,,
"I2C","address",11.485363042,0.0000865,,false,0x6A,false
"I2C","stop",11.485459958,0.000000042,,,,
"I2C","start",11.485464708,0.000000042,,,,
"I2C","address",11.485474958,0.000086458,,false,0x6A,false
"I2C","stop",11.485571875,0.000000042,,,,
"I2C","start",11.485577,0.000000042,,,,
"I2C","address",11.485587208,0.0000865,,true,0x09,false
"I2C","data",11.485678917,0.0000865,0x32,true,,
"I2C","data",11.485770625,0.000086458,0x02,true,,
"I2C","data",11.485862333,0.000086458,0x80,true,,
"I2C","stop",11.48595925,0.000000042,,,,
"I2C","start",11.485964,0.000000042,,,,
"I2C","address",11.485974208,0.0000865,,true,0x09,false
"I2C","data",11.486065917,0.0000865,0x3F,true,,
"I2C","data",11.486157625,0.0000865,0x00,true,,
"I2C","data",11.486249333,0.0000865,0x00,true,,
"I2C","stop",11.48634625,0.000000042,,,,
"I2C","start",11.486351,0.000000042,,,,
"I2C","address",11.48636125,0.000086458,,true,0x09,false
"I2C","data",11.486452917,0.0000865,0x14,true,,
"I2C","data",11.486544625,0.0000865,0x00,true,,
"I2C","data",11.486636333,0.0000865,0x00,true,,
"I2C","stop",11.48673325,0.000000042,,,,
"I2C","start",11.486739042,0.000000042,,,,
"I2C","address",11.486749292,0.000086458,,true,0x09,false
"I2C","data",11.486840958,0.0000865,0x3B,true,,
"I2C","data",11.486932667,0.0000865,0x40,true,,
"I2C","data",11.487024375,0.0000865,0x02,true,,
"I2C","stop",11.487121292,0.000000042,,,,
"I2C","start",11.487126042,0.000000042,,,,
"I2C","address",11.487136292,0.000086458,,true,0x09,false
"I2C","data",11.487228,0.000086458,0x3C,true,,
"I2C","data",11.487319708,0.000086458,0x00,true,,
"I2C","data",11.487411417,0.000086458,0x1E,true,,
"I2C","stop",11.487508333,0.000000042,,,,
"I2C","start",11.487514083,0.000000042,,,,
"I2C","address",11.487524292,0.0000865,,true,0x0B,false
"I2C","data",11.487616,0.000178792,0xD5,true,,
"I2C","start",11.487805,0.000000042,,,,
"I2C","address",11.487815208,0.0000865,,true,0x0B,true
"I2C","data",11.488000333,0.0000865,0x00,true,,
"I2C","data",11.488143125,0.0000865,0x00,true,,
"I2C","data",11.488285,0.0000865,0x4E,false,,
"I2C","stop",11.488435417,0.000000042,,,,
"I2C","start",16.241193417,0.000000042,,,,
"I2C","address",16.241203625,0.0000865,,true,0x0B,false
"I2C","data",16.241295333,0.000179583,0xD5,true,,
"I2C","start",16.241485083,0.000000042,,,,
"I2C","address",16.241495333,0.000086458,,true,0x0B,true
"I2C","data",16.24168075,0.0000865,0x00,true,,
"I2C","data",16.241888708,0.000086458,0x00,true,,
"I2C","data",16.242087958,0.0000865,0x4E,false,,
"I2C","stop",16.242238417,0.000000042,,,,
"I2C","start",16.242259833,0.000000042,,,,
"I2C","address",16.242270042,0.0000865,,true,0x0B,false
"I2C","data",16.24236175,0.000201792,0xD3,true,,
"I2C","data",16.24256875,0.000131417,0x00,true,,
"I2C","data",16.242705375,0.000133875,0x00,true,,
"I2C","data",16.2428445,0.000132917,0x81,true,,
"I2C","stop",16.242987875,0.000000042,,,,
"I2C","start",16.24299975,0.000000042,,,,
"I2C","address",16.243009958,0.0000865,,true,0x0B,false
"I2C","data",16.243101667,0.0002205,0x18,true,,
"I2C","start",16.243332375,0.000000042,,,,
"I2C","address",16.243342583,0.0000865,,true,0x0B,true
"I2C","data",16.243485833,0.0000865,0xC8,true,,
"I2C","data",16.243629167,0.000086458,0x05,true,,
"I2C","data",16.243771042,0.0000865,0x44,false,,
"I2C","stop",16.243921458,0.000000042,,,,
"I2C","start",16.244391625,0.000000042,,,,
"I2C","address",16.244401833,0.0000865,,true,0x0B,false
"I2C","data",16.244493542,0.000165583,0x17,true,,
"I2C","start",16.244669333,0.000000042,,,,
"I2C","address",16.244679542,0.0000865,,true,0x0B,true
"I2C","data",16.244822917,0.000086458,0x63,true,,
"I2C","data",16.244966333,0.000086458,0x00,true,,
"I2C","data",16.245108333,0.000086458,0x02,false,,
"I2C","stop",16.245258833,0.000000042,,,,
"I2C","start",16.245267917,0.000000042,,,,
"I2C","address",16.245278125,0.0000865,,true,0x0B,false
"I2C","data",16.245369833,0.000222917,0x19,true,,
"I2C","start",16.245602958,0.000000042,,,,
"I2C","address",16.245613167,0.0000865,,true,0x0B,true
"I2C","data",16.245756083,0.0000865,0x88,true,,
"I2C","data",16.245899542,0.0000865,0x2C,true,,
"I2C","data",16.246041542,0.0000865,0xD6,false,,
"I2C","stop",16.246192125,0.000000042,,,,
"I2C","start",16.246204042,0.000000042,,,,
"I2C","address",16.24621425,0.0000865,,true,0x0B,false
"I2C","data",16.246305958,0.0002245,0x1B,true,,
"I2C","start",16.246540625,0.000000042,,,,
"I2C","address",16.246550833,0.0000865,,true,0x0B,true
"I2C","data",16.246694208,0.000086458,0x3E,true,,
"I2C","data",16.246837667,0.0000865,0x4B,true,,
"I2C","data",16.246979708,0.000086458,0xF9,false,,
"I2C","stop",16.24713025,0.000000042,,,,
"I2C","start",16.247145917,0.000000042,,,,
"I2C","address",16.247156167,0.000086458,,true,0x0B,false
"I2C","data",16.247247833,0.000220667,0x1C,true,,
"I2C","start",16.247478708,0.000000042,,,,
"I2C","address",16.247488917,0.0000865,,true,0x0B,true
"I2C","data",16.247632208,0.000086458,0x98,true,,
"I2C","data",16.247775458,0.0000865,0x03,true,,
"I2C","data",16.247917333,0.0000865,0x02,false,,
"I2C","stop",16.24806775,0.000000042,,,,
"I2C","start",16.248088667,0.000000042,,,,
"I2C","address",16.248098917,0.000086458,,true,0x0B,false
"I2C","data",16.248190625,0.00020625,0x20,true,,
"I2C","start",16.248407083,0.000000042,,,,
"I2C","address",16.248417292,0.0000865,,true,0x0B,true
"I2C","data",16.248561625,0.000086458,0x07,true,,
"I2C","data",16.248705958,0.0000865,0x41,true,,
"I2C","data",16.248851292,0.0000865,0x54,true,,
"I2C","data",16.248996583,0.000086458,0x4C,true,,
"I2C","data",16.249141833,0.0000865,0x20,true,,
"I2C","data",16.249287083,0.0000865,0x4E,true,,
"I2C","data",16.249432333,0.0000865,0x56,true,,
"I2C","data",16.249642167,0.000086458,0x54,true,,
"I2C","data",16.249787,0.0000865,0x37,true,,
"I2C","data",16.250027458,0.000086458,0x37,true,,
"I2C","data",16.250171792,0.0000865,0x37,true,,
"I2C","data",16.250311792,0.0000865,0x37,true,,
"I2C","data",16.250451292,0.0000865,0x37,true,,
"I2C","data",16.250590792,0.0000865,0x37,true,,
"I2C","data",16.250730292,0.0000865,0x37,true,,
"I2C","data",16.250869792,0.000086458,0x37,true,,
"I2C","data",16.251009833,0.0000865,0x37,true,,
"I2C","data",16.251249292,0.000086458,0x37,true,,
"I2C","data",16.2513965,0.0000865,0x37,true,,
"I2C","data",16.251621167,0.000086458,0x37,true,,
"I2C","data",16.2518285,0.000086458,0x37,true,,
"I2C","data",16.251965125,0.000086458,0x37,false,,
"I2C","stop",16.252106958,0.000000042,,,,
"I2C","start",16.252124875,0.000000042,,,,
"I2C","address",16.252135125,0.000086458,,true,0x0B,false
"I2C","data",16.252226833,0.000213542,0x21,true,,
"I2C","start",16.252450542,0.000000042,,,,
"I2C","address",16.25246075,0.0000865,,true,0x0B,true
"I2C","data",16.252605583,0.0000865,0x06,true,,
"I2C","data",16.252749958,0.0000865,0x44,true,,
"I2C","data",16.252895292,0.000086458,0x4A,true,,
"I2C","data",16.253040583,0.0000865,0x49,true,,
"I2C","data",16.253185917,0.0000865,0x30,true,,
"I2C","data",16.25333125,0.0000865,0x31,true,,
"I2C","data",16.253476583,0.0000865,0x36,true,,
"I2C","data",16.253618083,0.0000865,0x66,true,,
"I2C","data",16.253763917,0.000086458,0x66,true,,
"I2C","data",16.253905417,0.0000865,0x66,true,,
"I2C","data",16.254042625,0.0000865,0x66,true,,
"I2C","data",16.254179375,0.000086458,0x66,true,,
"I2C","data",16.254316083,0.0000865,0x66,true,,
"I2C","data",16.254452792,0.0000865,0x66,true,,
"I2C","data",16.254589542,0.0000865,0x66,true,,
"I2C","data",16.254726292,0.000086458,0x66,true,,
"I2C","data",16.254863,0.0000865,0x66,true,,
"I2C","data",16.25499975,0.0000865,0x66,true,,
"I2C","data",16.255136458,0.0000865,0x66,true,,
"I2C","data",16.255273167,0.0000865,0x66,true,,
"I2C","data",16.255409875,0.0000865,0x66,true,,
"I2C","data",16.255546583,0.0000865,0x66,false,,
"I2C","stop",16.255688542,0.000000042,,,,
"I2C","start",16.255725667,0.000000042,,,,
"I2C","address",16.255735917,0.000086458,,true,0x0B,false
"I2C","data",16.255827625,0.000191792,0x00,true,,
"I2C","data",16.256024625,0.000131417,0x51,true,,
"I2C","data",16.25616125,0.000133792,0x00,true,,
"I2C","data",16.256300292,0.000132833,0x0A,true,,
"I2C","stop",16.256443542,0.000000042,,,,
"I2C","start",16.258028833,0.000000042,,,,
"I2C","address",16.258039042,0.0000865,,true,0x0B,false
"I2C","data",16.25813075,0.000206208,0x23,true,,
"I2C","start",16.258347167,0.000000042,,,,
"I2C","address",16.258357375,0.0000865,,true,0x0B,true
"I2C","data",16.258502167,0.000086458,0x04,true,,
"I2C","data",16.258646417,0.0000865,0x00,true,,
"I2C","data",16.258791667,0.0000865,0x00,true,,
"I2C","data",16.258936917,0.0000865,0x00,true,,
"I2C","data",16.259082125,0.000086458,0x00,true,,
"I2C","data",16.259223583,0.0000865,0x54,false,,
"I2C","stop",16.259374125,0.000000042,,,,
"I2C","start",16.259450708,0.000000042,,,,
"I2C","address",16.259460917,0.0000865,,true,0x0B,false
"I2C","data",16.259552625,0.000157375,0x00,true,,
"I2C","data",16.25971525,0.0001315,0x53,true,,
"I2C","data",16.259852,0.000133792,0x00,true,,
"I2C","data",16.259991042,0.000132833,0x20,true,,
"I2C","stop",16.260134333,0.000000042,,,,
"I2C","start",16.260142417,0.000000042,,,,
"I2C","address",16.260152625,0.000086458,,true,0x0B,false
"I2C","data",16.260244333,0.001194917,0x23,true,,
"I2C","start",16.261449458,0.000000042,,,,
"I2C","address",16.261459667,0.000086458,,true,0x0B,true
"I2C","data",16.261603958,0.000086458,0x04,true,,
"I2C","data",16.261748333,0.000086458,0x00,true,,
"I2C","data",16.261893625,0.0000865,0x00,true,,
"I2C","data",16.262039,0.0000865,0x00,true,,
"I2C","data",16.262184375,0.0000865,0x00,true,,
"I2C","data",16.262325917,0.0000865,0x54,false,,
"I2C","stop",16.2624765,0.000000042,,,,
"I2C","start",16.262494833,0.000000042,,,,
"I2C","address",16.262505042,0.0000865,,true,0x0B,false
"I2C","data",16.26259675,0.000215167,0x00,true,,
"I2C","data",16.262817125,0.000131042,0x54,true,,
"I2C","data",16.262953375,0.000133917,0x00,true,,
"I2C","data",16.2630925,0.000132958,0x4B,true,,
"I2C","stop",16.263235875,0.000000042,,,,
"I2C","start",16.263244958,0.000000042,,,,
"I2C","address",16.263255167,0.0000865,,true,0x0B,false
"I2C","data",16.263346875,0.001453958,0x23,true,,
"I2C","start",16.264811042,0.000000042,,,,
"I2C","address",16.26482125,0.000086458,,true,0x0B,true
"I2C","data",16.264965625,0.000086458,0x04,true,,
"I2C","data",16.26511,0.000086458,0x86,true,,
"I2C","data",16.265320375,0.0000865,0x03,true,,
"I2C","data",16.26550725,0.0000865,0x06,true,,
"I2C","data",16.265655875,0.0000865,0x00,true,,
"I2C","data",16.265800583,0.0000865,0xD2,false,,
"I2C","stop",16.265954375,0.000000042,,,,
"I2C","start",16.265972708,0.000000042,,,,
"I2C","address",16.265982958,0.000086458,,true,0x0B,false
"I2C","data",16.266074667,0.000172542,0x00,true,,
"I2C","data",16.266252417,0.000134417,0x55,true,,
"I2C","data",16.266392042,0.000137292,0x00,true,,
"I2C","data",16.266534542,0.000136792,0x5E,true,,
"I2C","stop",16.26668175,0.000000042,,,,
"I2C","start",16.267197292,0.000000042,,,,
"I2C","address",16.2672075,0.0000865,,true,0x0B,false
"I2C","data",16.267299208,0.000653167,0x23,true,,
"I2C","start",16.267962542,0.000000042,,,,
"I2C","address",16.267972792,0.000086458,,true,0x0B,true
"I2C","data",16.268120458,0.000086458,0x02,true,,
"I2C","data",16.268267625,0.000086458,0x10,true,,
"I2C","data",16.268415708,0.000086458,0x08,true,,
"I2C","data",16.268559958,0.0000865,0x16,true,,
"I2C","data",16.268709,0.0000865,0x16,true,,
"I2C","data",16.268852875,0.0000865,0x16,false,,
"I2C","stop",16.268998167,0.000000042,,,,
"I2C","start",16.269388208,0.000000042,,,,
"I2C","address",16.269398417,0.0000865,,true,0x0B,false
"I2C","data",16.269490125,0.00017375,0x09,true,,
"I2C","start",16.269674042,0.000000042,,,,
"I2C","address",16.26968425,0.0000865,,true,0x0B,true
"I2C","data",16.26983,0.0000865,0xB8,true,,
"I2C","data",16.269975833,0.0000865,0x30,true,,
"I2C","data",16.270120208,0.0000865,0x1C,false,,
"I2C","stop",16.270273625,0.000000042,,,,
"I2C","start",16.270284583,0.000000042,,,,
"I2C","address",16.270294833,0.000086458,,true,0x0B,false
"I2C","data",16.270386542,0.000185708,0x0A,true,,
"I2C","start",16.270582417,0.000000042,,,,
"I2C","address",16.270592625,0.0000865,,true,0x0B,true
"I2C","data",16.270759458,0.0000865,0xCE,true,,
"I2C","data",16.270956917,0.0000865,0xFD,true,,
"I2C","data",16.271101333,0.0000865,0x97,false,,
"I2C","stop",16.271254792,0.000000042,,,,
"I2C","start",16.272106917,0.000000042,,,,
"I2C","address",16.272117125,0.0000865,,true,0x0B,false
"I2C","data",16.272208833,0.00017425,0x10,true,,
"I2C","start",16.27239325,0.000000042,,,,
"I2C","address",16.2724035,0.000086458,,true,0x0B,true
"I2C","data",16.272549625,0.0000865,0xDA,true,,
"I2C","data",16.272701125,0.000086458,0x04,true,,
"I2C","data",16.272858792,0.0000865,0x8E,false,,
"I2C","stop",16.273013167,0.000000042,,,,
"I2C","start",16.273024542,0.000000042,,,,
"I2C","address",16.27303475,0.0000865,,true,0x0B,false
"I2C","data",16.273126458,0.000186292,0x0F,true,,
"I2C","start",16.273322917,0.000000042,,,,
"I2C","address",16.273333125,0.0000865,,true,0x0B,true
"I2C","data",16.273479375,0.000086458,0x50,true,,
"I2C","data",16.273625625,0.0000865,0x04,true,,
"I2C","data",16.273770417,0.000086458,0x0F,false,,
"I2C","stop",16.273924167,0.000000042,,,,
"I2C","start",16.27437125,0.000000042,,,,
"I2C","address",16.2743815,0.000086458,,true,0x0B,false
"I2C","data",16.274473208,0.000173333,0x08,true,,
"I2C","start",16.274656708,0.000000042,,,,
"I2C","address",16.274666958,0.000086458,,true,0x0B,true
"I2C","data",16.274812667,0.0000865,0xB0,true,,
"I2C","data",16.274958958,0.0000865,0x0B,true,,
"I2C","data",16.27510375,0.0000865,0x03,false,,
"I2C","stop",16.275278125,0.000000042,,,,
"I2C","start",16.275288917,0.000000042,,,,
"I2C","address",16.275299125,0.000086458,,true,0x0B,false
"I2C","data",16.275390833,0.000182292,0x0D,true,,
"I2C","start",16.275583333,0.000000042,,,,
"I2C","address",16.275593542,0.0000865,,true,0x0B,true
"I2C","data",16.275755542,0.0000865,0x59,true,,
"I2C","data",16.275901792,0.0000865,0x00,true,,
"I2C","data",16.276046625,0.0000865,0x82,false,,
"I2C","stop",16.276201,0.000000042,,,,
"I2C","start",16.277960125,0.000000042,,,,
"I2C","address",16.277970375,0.000086458,,true,0x0B,false
"I2C","data",16.278062083,0.000235292,0x51,true,,
"I2C","start",16.278307583,0.000000042,,,,
"I2C","address",16.278317792,0.0000865,,true,0x0B,true
"I2C","data",16.278465458,0.000086458,0x04,true,,
"I2C","data",16.278613125,0.0000865,0x00,true,,
"I2C","data",16.278763208,0.0000865,0x00,true,,
"I2C","data",16.278917125,0.0000865,0x00,true,,
"I2C","data",16.279071542,0.000086458,0x00,true,,
"I2C","data",16.279221625,0.0000865,0xDA,false,,
"I2C","stop",16.279376,0.000000042,,,,
"I2C","start",16.279435292,0.000000042,,,,
"I2C","address",16.2794455,0.0000865,,true,0x0B,false
"I2C","data",16.279537208,0.000186125,0xD2,true,,
"I2C","start",16.279733542,0.000000042,,,,
"I2C","address",16.27974375,0.0000865,,true,0x0B,true
"I2C","data",16.27989,0.000086458,0x00,true,,
"I2C","data",16.28003625,0.0000865,0x00,true,,
"I2C","data",16.280181125,0.0000865,0x2C,false,,
"I2C","stop",16.2803355,0.000000042,,,,
"I2C","start",16.280347,0.000000042,,,,
"I2C","address",16.280357208,0.0000865,,true,0x0B,false
"I2C","data",16.280448917,0.000211333,0x3F,true,,
"I2C","start",16.280670417,0.000000042,,,,
"I2C","address",16.280680625,0.0000865,,true,0x0B,true
"I2C","data",16.28082675,0.0000865,0x3C,true,,
"I2C","data",16.280972458,0.0000865,0x10,true,,
"I2C","data",16.28111725,0.0000865,0xC3,false,,
"I2C","stop",16.281271167,0.000000042,,,,
"I2C","start",16.281984708,0.000000042,,,,
"I2C","address",16.281994917,0.0000865,,true,0x0B,false
"I2C","data",16.282086625,0.000163208,0x3E,true,,
"I2C","start",16.28226,0.000000042,,,,
"I2C","address",16.28227025,0.000086458,,true,0x0B,true
"I2C","data",16.282416375,0.0000865,0x3F,true,,
"I2C","data",16.282562167,0.0000865,0x10,true,,
"I2C","data",16.282707,0.0000865,0xEA,false,,
"I2C","stop",16.282860458,0.000000042,,,,
"I2C","start",16.282872333,0.000000042,,,,
"I2C","address",16.282882542,0.000086458,,true,0x0B,false
"I2C","data",16.28297425,0.00020725,0x3D,true,,
"I2C","start",16.283191708,0.000000042,,,,
"I2C","address",16.283201917,0.0000865,,true,0x0B,true
"I2C","data",16.283348542,0.0000865,0x3C,true,,
"I2C","data",16.28349425,0.000086458,0x10,true,,
"I2C","data",16.283643333,0.000086458,0xEF,false,,
"I2C","stop",16.283797583,0.000000042,,,,
"I2C","start",16.28439725,0.000000042,,,,
"I2C","address",16.284407458,0.0000865,,true,0x0B,false
"I2C","data",16.284499167,0.000162,0x3F,true,,
"I2C","start",16.284671375,0.000000042,,,,
"I2C","address",16.284681583,0.0000865,,true,0x0B,true
"I2C","data",16.284828208,0.0000865,0x3C,true,,
"I2C","data",16.284973958,0.000086458,0x10,true,,
"I2C","data",16.285119208,0.0000865,0xC3,false,,
"I2C","stop",16.285273083,0.000000042,,,,
"I2C","start",16.28528275,0.000000042,,,,
"I2C","address",16.285292958,0.0000865,,true,0x0B,false
"I2C","data",16.285384667,0.0002095,0x3E,true,,
"I2C","start",16.285604333,0.000000042,,,,
"I2C","address",16.285614583,0.000086458,,true,0x0B,true
"I2C","data",16.285761333,0.000086458,0x3F,true,,
"I2C","data",16.285907625,0.0000865,0x10,true,,
"I2C","data",16.2860525,0.000086458,0xEA,false,,
"I2C","stop",16.286206917,0.000000042,,,,
"I2C","start",16.286218083,0.000000042,,,,
"I2C","address",16.286228333,0.000086458,,true,0x0B,false
"I2C","data",16.286320042,0.000208042,0x3D,true,,
"I2C","start",16.28653825,0.000000042,,,,
"I2C","address",16.286548458,0.0000865,,true,0x0B,true
"I2C","data",16.28669525,0.0000865,0x3C,true,,
"I2C","data",16.286842042,0.0000865,0x10,true,,
"I2C","data",16.286987417,0.0000865,0xEF,false,,
"I2C","stop",16.287141292,0.000000042,,,,
"I2C","start",16.287333833,0.000000042,,,,
"I2C","address",16.287344042,0.0000865,,true,0x0B,false
"I2C","data",16.28743575,0.000183083,0xD6,true,,
"I2C","start",16.287629,0.000000042,,,,
"I2C","address",16.287639208,0.0000865,,true,0x0B,true
"I2C","data",16.287786958,0.000086458,0x55,true,,
"I2C","data",16.28793325,0.0000865,0xAA,true,,
"I2C","data",16.288078083,0.000086458,0x66,false,,
"I2C","stop",16.288232458,0.000000042,,,,
"I2C","start",16.288242583,0.000000042,,,,
"I2C","address",16.288252792,0.0000865,,true,0x0B,false
"I2C","data",16.2883445,0.0002335,0xD9,true,,
"I2C","start",16.288588208,0.000000042,,,,
"I2C","address",16.288598417,0.0000865,,true,0x0B,true
"I2C","data",16.288748042,0.000086458,0x04,true,,
"I2C","data",16.288895208,0.000086458,0xE2,true,,
"I2C","data",16.289044292,0.0000865,0x17,true,,
"I2C","data",16.289192417,0.0000865,0x83,true,,
"I2C","data",16.289341,0.0000865,0xD6,true,,
"I2C","data",16.289485875,0.0000865,0xE3,false,,
"I2C","stop",16.289639792,0.000000042,,,,
"I2C","start",16.289656125,0.000000042,,,,
"I2C","address",16.289666333,0.0000865,,true,0x0B,false
"I2C","data",16.289758042,0.000230583,0xD8,true,,
"I2C","start",16.289998792,0.000000042,,,,
"I2C","address",16.290009042,0.000086458,,true,0x0B,true
"I2C","data",16.290156167,0.0000865,0x0E,true,,
"I2C","data",16.290304292,0.000086458,0x30,true,,
"I2C","data",16.290452417,0.0000865,0x43,true,,
"I2C","data",16.290600542,0.0000865,0x30,true,,
"I2C","data",16.290748667,0.0000865,0x41,true,,
"I2C","data",16.290896875,0.0000865,0x45,true,,
"I2C","data",16.291045542,0.0000865,0x39,true,,
"I2C","data",16.291194667,0.0000865,0x56,true,,
"I2C","data",16.291343375,0.000086458,0x42,true,,
"I2C","data",16.291494875,0.0000865,0x33,true,,
"I2C","data",16.291732375,0.0000865,0x33,true,,
"I2C","data",16.292060125,0.0000865,0x30,true,,
"I2C","data",16.292215042,0.000086458,0x31,true,,
"I2C","data",16.292367542,0.0000865,0x53,true,,
"I2C","data",16.292554,0.0000865,0x51,true,,
"I2C","data",16.292753417,0.000086458,0x60,false,,
"I2C","stop",16.292903875,0.000000042,,,,
"I2C","start",17.198637542,0.000000042,,,,
"I2C","address",17.19864775,0.0000865,,true,0x0B,false
"I2C","data",17.198739458,0.000164,0xC2,true,,
"I2C","start",17.198913625,0.000000042,,,,
"I2C","address",17.198923833,0.0000865,,true,0x0B,true
"I2C","data",17.199068583,0.0000865,0x08,true,,
"I2C","data",17.199213,0.0000865,0x01,true,,
"I2C","data",17.199358417,0.000086458,0x00,true,,
"I2C","data",17.199503792,0.000086458,0x00,true,,
"I2C","data",17.199649125,0.0000865,0x00,true,,
"I2C","data",17.199794542,0.000086458,0x55,true,,
"I2C","data",17.199939917,0.000086458,0x00,true,,
"I2C","data",17.20008525,0.0000865,0x00,true,,
"I2C","data",17.200230583,0.0000865,0x01,true,,
"I2C","data",17.200372125,0.0000865,0xAE,false,,
"I2C","stop",17.200522708,0.000000042,,,,
"I2C","start",17.258533708,0.000000042,,,,
"I2C","address",17.258543917,0.0000865,,true,0x0B,false
"I2C","data",17.258635625,0.000179708,0xD5,true,,
"I2C","start",17.258825542,0.000000042,,,,
"I2C","address",17.25883575,0.0000865,,true,0x0B,true
"I2C","data",17.259021167,0.0000865,0x00,true,,
"I2C","data",17.259164083,0.0000865,0x00,true,,
"I2C","data",17.259306083,0.0000865,0x4E,false,,
"I2C","stop",17.259456625,0.000000042,,,,
"I2C","start",17.259752,0.000000042,,,,
"I2C","address",17.259762208,0.0000865,,true,0x0B,false
"I2C","data",17.259853917,0.000177583,0xD3,true,,
"I2C","data",17.26003675,0.000131458,0x00,true,,
"I2C","data",17.260173417,0.000133833,0x00,true,,
"I2C","data",17.260312458,0.000132875,0x81,true,,
"I2C","stop",17.26045575,0.000000042,,,,
"I2C","start",17.260469083,0.000000042,,,,
"I2C","address",17.260479292,0.000086458,,true,0x0B,false
"I2C","data",17.260571,0.00020775,0x00,true,,
"I2C","data",17.260783958,0.000131458,0x51,true,,
"I2C","data",17.260920625,0.000133958,0x00,true,,
"I2C","data",17.261059792,0.000132958,0x0A,true,,
"I2C","stop",17.261203208,0.000000042,,,,
"I2C","start",17.261209792,0.000000042,,,,
"I2C","address",17.26122,0.000086458,,true,0x0B,false
"I2C","data",17.261311708,0.001193875,0x23,true,,
"I2C","start",17.262515792,0.000000042,,,,
"I2C","address",17.262526,0.0000865,,true,0x0B,true
"I2C","data",17.26267075,0.0000865,0x04,true,,
"I2C","data",17.262815125,0.0000865,0x00,true,,
"I2C","data",17.262960375,0.0000865,0x00,true,,
"I2C","data",17.263105583,0.0000865,0x00,true,,
"I2C","data",17.263250833,0.0000865,0x00,true,,
"I2C","data",17.26339225,0.0000865,0x54,false,,
"I2C","stop",17.263542667,0.000000042,,,,
"I2C","start",17.263561708,0.000000042,,,,
"I2C","address",17.263571917,0.0000865,,true,0x0B,false
"I2C","data",17.263663625,0.0002145,0x00,true,,
"I2C","data",17.263883333,0.000131042,0x53,true,,
"I2C","data",17.264019583,0.000133917,0x00,true,,
"I2C","data",17.264158708,0.000132958,0x20,true,,
"I2C","stop",17.264302083,0.000000042,,,,
"I2C","start",17.264659417,0.000000042,,,,
"I2C","address",17.264669625,0.0000865,,true,0x0B,false
"I2C","data",17.264761333,0.000846125,0x23,true,,
"I2C","start",17.265617625,0.000000042,,,,
"I2C","address",17.265627875,0.000086458,,true,0x0B,true
"I2C","data",17.265792375,0.0000865,0x04,true,,
"I2C","data",17.265954542,0.000086458,0x00,true,,
"I2C","data",17.266103292,0.000086458,0x00,true,,
"I2C","data",17.266251083,0.000086458,0x00,true,,
"I2C","data",17.266399833,0.000086458,0x00,true,,
"I2C","data",17.26654475,0.0000865,0x54,false,,
"I2C","stop",17.266698667,0.000000042,,,,
"I2C","start",17.2674265,0.000000042,,,,
"I2C","address",17.267436708,0.0000865,,true,0x0B,false
"I2C","data",17.267528417,0.000159542,0x00,true,,
"I2C","data",17.267693208,0.000134417,0x54,true,,
"I2C","data",17.267832833,0.000136792,0x00,true,,
"I2C","data",17.267974833,0.000135833,0x4B,true,,
"I2C","stop",17.268121083,0.000000042,,,,
"I2C","start",17.268128875,0.000000042,,,,
"I2C","address",17.268139083,0.0000865,,true,0x0B,false
"I2C","data",17.268230792,0.001412708,0x23,true,,
"I2C","start",17.269653708,0.000000042,,,,
"I2C","address",17.269663917,0.000086458,,true,0x0B,true
"I2C","data",17.269811542,0.0000865,0x04,true,,
"I2C","data",17.269959208,0.000086458,0x86,true,,
"I2C","data",17.270131208,0.0000865,0x03,true,,
"I2C","data",17.27035625,0.0000865,0x06,true,,
"I2C","data",17.270504,0.000086458,0x00,true,,
"I2C","data",17.270648875,0.0000865,0xD2,false,,
"I2C","stop",17.2708195,0.000000042,,,,
"I2C","start",17.270845375,0.000000042,,,,
"I2C","address",17.270855583,0.0000865,,true,0x0B,false
"I2C","data",17.270947292,0.000165083,0x00,true,,
"I2C","data",17.271117583,0.000153417,0x55,true,,
"I2C","data",17.271276208,0.00013675,0x00,true,,
"I2C","data",17.271418167,0.00013575,0x5E,true,,
"I2C","stop",17.271564375,0.000000042,,,,
"I2C","start",17.272406417,0.000000042,,,,
"I2C","address",17.272416625,0.0000865,,true,0x0B,false
"I2C","data",17.272508333,0.000326542,0x23,true,,
"I2C","start",17.272845083,0.000000042,,,,
"I2C","address",17.272855292,0.0000865,,true,0x0B,true
"I2C","data",17.273001917,0.000086458,0x02,true,,
"I2C","data",17.273150042,0.000086458,0x10,true,,
"I2C","data",17.273298708,0.0000865,0x08,true,,
"I2C","data",17.273443583,0.0000865,0x16,true,,
"I2C","data",17.273606167,0.0000865,0x16,true,,
"I2C","data",17.2737635,0.000086458,0x16,false,,
"I2C","stop",17.27392075,0.000000042,,,,
"I2C","start",17.273934,0.000000042,,,,
"I2C","address",17.273944208,0.0000865,,true,0x0B,false
"I2C","data",17.274035917,0.000186792,0x09,true,,
"I2C","start",17.274232917,0.000000042,,,,
"I2C","address",17.274243125,0.000086458,,true,0x0B,true
"I2C","data",17.274389375,0.0000865,0xF2,true,,
"I2C","data",17.274535208,0.0000865,0x2F,true,,
"I2C","data",17.274680125,0.000086458,0x98,false,,
"I2C","stop",17.2748345,0.000000042,,,,
"I2C","start",17.274855,0.000000042,,,,
"I2C","address",17.274865208,0.0000865,,true,0x0B,false
"I2C","data",17.274956917,0.00017625,0x0A,true,,
"I2C","start",17.275143333,0.000000042,,,,
"I2C","address",17.275153542,0.0000865,,true,0x0B,true
"I2C","data",17.275300333,0.000086458,0xCC,true,,
"I2C","data",17.275445708,0.000086458,0xFA,true,,
"I2C","data",17.275595375,0.0000865,0xA8,false,,
"I2C","stop",17.275764125,0.000000042,,,,
"I2C","start",17.275780292,0.000000042,,,,
"I2C","address",17.2757905,0.0000865,,true,0x0B,false
"I2C","data",17.275882208,0.000181542,0x10,true,,
"I2C","start",17.276073958,0.000000042,,,,
"I2C","address",17.276084167,0.000086458,,true,0x0B,true
"I2C","data",17.276233792,0.0000865,0xDA,true,,
"I2C","data",17.276379625,0.000086458,0x04,true,,
"I2C","data",17.276524958,0.0000865,0x8E,false,,
"I2C","stop",17.276678833,0.000000042,,,,
"I2C","start",17.278524042,0.000000042,,,,
"I2C","address",17.27853425,0.0000865,,true,0x0B,false
"I2C","data",17.278625958,0.000178083,0x0F,true,,
"I2C","start",17.27881425,0.000000042,,,,
"I2C","address",17.278824458,0.000086458,,true,0x0B,true
"I2C","data",17.27902425,0.000086458,0x50,true,,
"I2C","data",17.2792375,0.0000865,0x04,true,,
"I2C","data",17.279409583,0.0000865,0x0F,false,,
"I2C","stop",17.279565292,0.000000042,,,,
"I2C","start",17.27973575,0.000000042,,,,
"I2C","address",17.279745958,0.0000865,,true,0x0B,false
"I2C","data",17.279837667,0.000174125,0x08,true,,
"I2C","start",17.280021958,0.000000042,,,,
"I2C","address",17.280032208,0.000086458,,true,0x0B,true
"I2C","data",17.280178417,0.0000865,0xB0,true,,
"I2C","data",17.28032425,0.000086458,0x0B,true,,
"I2C","data",17.280468625,0.0000865,0x03,false,,
"I2C","stop",17.280622542,0.000000042,,,,
"I2C","start",17.280633833,0.000000042,,,,
"I2C","address",17.280644042,0.0000865,,true,0x0B,false
"I2C","data",17.28073575,0.000215333,0x0D,true,,
"I2C","start",17.280961292,0.000000042,,,,
"I2C","address",17.2809715,0.0000865,,true,0x0B,true
"I2C","data",17.281117583,0.0000865,0x59,true,,
"I2C","data",17.281263333,0.0000865,0x00,true,,
"I2C","data",17.281408125,0.000086458,0x82,false,,
"I2C","stop",17.281561583,0.000000042,,,,
"I2C","start",17.282340208,0.000000042,,,,
"I2C","address",17.282350417,0.0000865,,true,0x0B,false
"I2C","data",17.282442125,0.000234417,0x51,true,,
"I2C","start",17.28268675,0.000000042,,,,
"I2C","address",17.282696958,0.0000865,,true,0x0B,true
"I2C","data",17.282844667,0.0000865,0x04,true,,
"I2C","data",17.282991958,0.000086458,0x00,true,,
"I2C","data",17.283139708,0.0000865,0x00,true,,
"I2C","data",17.283288417,0.000086458,0x00,true,,
"I2C","data",17.283436625,0.000086458,0x00,true,,
"I2C","data",17.283581458,0.0000865,0xDA,false,,
"I2C","stop",17.283735333,0.000000042,,,,
"I2C","start",17.283749167,0.000000042,,,,
"I2C","address",17.283759375,0.0000865,,true,0x0B,false
"I2C","data",17.283851083,0.000231583,0xD2,true,,
"I2C","start",17.284092875,0.000000042,,,,
"I2C","address",17.284103083,0.0000865,,true,0x0B,true
"I2C","data",17.284248792,0.0000865,0x00,true,,
"I2C","data",17.284395083,0.0000865,0x00,true,,
"I2C","data",17.28454,0.000086458,0x2C,false,,
"I2C","stop",17.284693917,0.000000042,,,,
"I2C","start",17.284709958,0.000000042,,,,
"I2C","address",17.284720167,0.0000865,,true,0x0B,false
"I2C","data",17.284811875,0.000206833,0x3F,true,,
"I2C","start",17.285028917,0.000000042,,,,
"I2C","address",17.285039125,0.0000865,,true,0x0B,true
"I2C","data",17.285184792,0.000086458,0xEE,true,,
"I2C","data",17.285331,0.0000865,0x0F,true,,
"I2C","data",17.285475792,0.000086458,0x0E,false,,
"I2C","stop",17.285629625,0.000000042,,,,
"I2C","start",17.285639375,0.000000042,,,,
"I2C","address",17.285649583,0.0000865,,true,0x0B,false
"I2C","data",17.285741292,0.000209458,0x3E,true,,
"I2C","start",17.285960917,0.000000042,,,,
"I2C","address",17.285971167,0.000086458,,true,0x0B,true
"I2C","data",17.286117,0.000086458,0xE8,true,,
"I2C","data",17.286263292,0.0000865,0x0F,true,,
"I2C","data",17.286408583,0.000086458,0x66,false,,
"I2C","stop",17.286562875,0.000000042,,,,
"I2C","start",17.287400208,0.000000042,,,,
"I2C","address",17.287410417,0.000086458,,true,0x0B,false
"I2C","data",17.287502125,0.000162375,0x3D,true,,
"I2C","start",17.287674708,0.000000042,,,,
"I2C","address",17.287684917,0.0000865,,true,0x0B,true
"I2C","data",17.287831583,0.0000865,0xE0,true,,
"I2C","data",17.287977333,0.0000865,0x0F,true,,
"I2C","data",17.288122125,0.0000865,0xF4,false,,
"I2C","stop",17.288275458,0.000000042,,,,
"I2C","start",17.288289167,0.000000042,,,,
"I2C","address",17.288299375,0.0000865,,true,0x0B,false
"I2C","data",17.288391083,0.000205417,0x3F,true,,
"I2C","start",17.288606708,0.000000042,,,,
"I2C","address",17.288616917,0.0000865,,true,0x0B,true
"I2C","data",17.288763208,0.000086458,0xEE,true,,
"I2C","data",17.2889095,0.000086458,0x0F,true,,
"I2C","data",17.28905475,0.0000865,0x0E,false,,
"I2C","stop",17.289208583,0.000000042,,,,
"I2C","start",17.289676042,0.000000042,,,,
"I2C","address",17.28968625,0.0000865,,true,0x0B,false
"I2C","data",17.289777958,0.000162542,0x3E,true,,
"I2C","start",17.289950708,0.000000042,,,,
"I2C","address",17.289960917,0.0000865,,true,0x0B,true
"I2C","data",17.290107167,0.0000865,0xE8,true,,
"I2C","data",17.290253458,0.0000865,0x0F,true,,
"I2C","data",17.290398333,0.000086458,0x66,false,,
"I2C","stop",17.29055225,0.000000042,,,,
"I2C","start",17.290562417,0.000000042,,,,
"I2C","address",17.290572625,0.0000865,,true,0x0B,false
"I2C","data",17.290664333,0.000209,0x3D,true,,
"I2C","start",17.290883542,0.000000042,,,,
"I2C","address",17.29089375,0.0000865,,true,0x0B,true
"I2C","data",17.291039542,0.0000865,0xE0,true,,
"I2C","data",17.291185875,0.000086458,0x0F,true,,
"I2C","data",17.29133125,0.000086458,0xF4,false,,
"I2C","stop",17.291485625,0.000000042,,,,
"I2C","start",18.25877375,0.000000042,,,,
"I2C","address",18.258783958,0.0000865,,true,0x0B,false
"I2C","data",18.258875667,0.000179333,0xD5,true,,
"I2C","start",18.259065208,0.000000042,,,,
"I2C","address",18.259075417,0.000086458,,true,0x0B,true
"I2C","data",18.25926075,0.0000865,0x00,true,,
"I2C","data",18.259403583,0.0000865,0x00,true,,
"I2C","data",18.2595455,0.0000865,0x4E,false,,
"I2C","stop",18.259696,0.000000042,,,,
"I2C","start",18.259960333,0.000000042,,,,
"I2C","address",18.259970542,0.0000865,,true,0x0B,false
"I2C","data",18.26006225,0.000177042,0xD3,true,,
"I2C","data",18.260244542,0.0001315,0x00,true,,
"I2C","data",18.26038125,0.000133917,0x00,true,,
"I2C","data",18.260520375,0.000132875,0x81,true,,
"I2C","stop",18.260663708,0.000000042,,,,
"I2C","start",18.260675875,0.000000042,,,,
"I2C","address",18.260686083,0.000086458,,true,0x0B,false
"I2C","data",18.260777792,0.000209083,0x00,true,,
"I2C","data",18.260992083,0.000131458,0x51,true,,
"I2C","data",18.26112875,0.000133917,0x00,true,,
"I2C","data",18.261267917,0.000132917,0x0A,true,,
"I2C","stop",18.26141125,0.000000042,,,,
"I2C","start",18.261417583,0.000000042,,,,
"I2C","address",18.261427792,0.0000865,,true,0x0B,false
"I2C","data",18.2615195,0.001194708,0x23,true,,
"I2C","start",18.262724417,0.000000042,,,,
"I2C","address",18.262734625,0.0000865,,true,0x0B,true
"I2C","data",18.262879417,0.0000865,0x04,true,,
"I2C","data",18.263023792,0.0000865,0x00,true,,
"I2C","data",18.263169125,0.000086458,0x00,true,,
"I2C","data",18.263314417,0.0000865,0x00,true,,
"I2C","data",18.263459792,0.0000865,0x00,true,,
"I2C","data",18.263666375,0.000086458,0x54,false,,
"I2C","stop",18.2638585,0.000000042,,,,
"I2C","start",18.26387925,0.000000042,,,,
"I2C","address",18.263889458,0.0000865,,true,0x0B,false
"I2C","data",18.263981167,0.000170208,0x00,true,,
"I2C","data",18.264156625,0.000133917,0x53,true,,
"I2C","data",18.26429575,0.000136792,0x00,true,,
"I2C","data",18.264437792,0.000135833,0x20,true,,
"I2C","stop",18.264584042,0.000000042,,,,
"I2C","start",18.264885792,0.000000042,,,,
"I2C","address",18.264896,0.0000865,,true,0x0B,false
"I2C","data",18.264987708,0.00085875,0x23,true,,
"I2C","start",18.265856625,0.000000042,,,,
"I2C","address",18.265866875,0.000086458,,true,0x0B,true
"I2C","data",18.266014,0.0000865,0x04,true,,
"I2C","data",18.266162125,0.0000865,0x00,true,,
"I2C","data",18.26631075,0.000086458,0x00,true,,
"I2C","data",18.266458833,0.0000865,0x00,true,,
"I2C","data",18.266606958,0.000086458,0x00,true,,
"I2C","data",18.266751333,0.000086458,0x54,false,,
"I2C","stop",18.26690475,0.000000042,,,,
"I2C","start",18.267639083,0.000000042,,,,
"I2C","address",18.267649292,0.0000865,,true,0x0B,false
"I2C","data",18.267741,0.0001925,0x00,true,,
"I2C","data",18.26793875,0.000216083,0x54,true,,
"I2C","data",18.268160083,0.000136792,0x00,true,,
"I2C","data",18.268302083,0.000136792,0x4B,true,,
"I2C","stop",18.268449292,0.000000042,,,,
"I2C","start",18.268456625,0.000000042,,,,
"I2C","address",18.268466833,0.000086458,,true,0x0B,false
"I2C","data",18.268558542,0.00141325,0x23,true,,
"I2C","start",18.269982,0.000000042,,,,
"I2C","address",18.269992208,0.000086458,,true,0x0B,true
"I2C","data",18.270146625,0.000086458,0x04,true,,
"I2C","data",18.27030875,0.000086458,0x86,true,,
"I2C","data",18.270457,0.0000865,0x03,true,,
"I2C","data",18.27060525,0.0000865,0x06,true,,
"I2C","data",18.270753958,0.0000865,0x00,true,,
"I2C","data",18.270898875,0.000086458,0xD2,false,,
"I2C","stop",18.271052792,0.000000042,,,,
"I2C","start",18.271073625,0.000000042,,,,
"I2C","address",18.271083833,0.0000865,,true,0x0B,false
"I2C","data",18.271175542,0.000170167,0x00,true,,
"I2C","data",18.271350958,0.000134375,0x55,true,,
"I2C","data",18.271490583,0.000136292,0x00,true,,
"I2C","data",18.271632083,0.000136375,0x5E,true,,
"I2C","stop",18.271778875,0.000000042,,,,
"I2C","start",18.27261425,0.000000042,,,,
"I2C","address",18.2726245,0.000086458,,true,0x0B,false
"I2C","data",18.272716208,0.000334,0x23,true,,
"I2C","start",18.273060375,0.000000042,,,,
"I2C","address",18.273070583,0.0000865,,true,0x0B,true
"I2C","data",18.273218208,0.0000865,0x02,true,,
"I2C","data",18.273369708,0.0000865,0x10,true,,
"I2C","data",18.273518375,0.000086458,0x08,true,,
"I2C","data",18.27366325,0.000086458,0x16,true,,
"I2C","data",18.273812917,0.000086458,0x16,true,,
"I2C","data",18.273957292,0.000086458,0x16,false,,
"I2C","stop",18.274102583,0.000000042,,,,
"I2C","start",18.274115792,0.000000042,,,,
"I2C","address",18.274126,0.0000865,,true,0x0B,false
"I2C","data",18.274217708,0.00018675,0x09,true,,
"I2C","start",18.274414667,0.000000042,,,,
"I2C","address",18.274424875,0.0000865,,true,0x0B,true
"I2C","data",18.274570542,0.0000865,0x39,true,,
"I2C","data",18.274732542,0.000086458,0x30,true,,
"I2C","data",18.274891667,0.0000865,0xBF,false,,
"I2C","stop",18.2750585,0.000000042,,,,
"I2C","start",18.275077708,0.000000042,,,,
"I2C","address",18.275087917,0.0000865,,true,0x0B,false
"I2C","data",18.275179625,0.0001775,0x0A,true,,
"I2C","start",18.275367333,0.000000042,,,,
"I2C","address",18.275377542,0.000086458,,true,0x0B,true
"I2C","data",18.275524333,0.0000865,0x60,true,,
"I2C","data",18.275670125,0.0000865,0xFB,true,,
"I2C","data",18.275815417,0.0000865,0x4B,false,,
"I2C","stop",18.275969708,0.000000042,,,,
"I2C","start",18.27598875,0.000000042,,,,
"I2C","address",18.275998958,0.0000865,,true,0x0B,false
"I2C","data",18.276090667,0.000178417,0x10,true,,
"I2C","start",18.276279292,0.000000042,,,,
"I2C","address",18.2762895,0.0000865,,true,0x0B,true
"I2C","data",18.27643625,0.0000865,0xDA,true,,
"I2C","data",18.276581583,0.0000865,0x04,true,,
"I2C","data",18.27673075,0.0000865,0x8E,false,,
"I2C","stop",18.27690475,0.000000042,,,,
"I2C","start",18.278733875,0.000000042,,,,
"I2C","address",18.278744083,0.0000865,,true,0x0B,false
"I2C","data",18.278835792,0.00022225,0x0F,true,,
"I2C","start",18.27906825,0.000000042,,,,
"I2C","address",18.279078458,0.0000865,,true,0x0B,true
"I2C","data",18.279225167,0.0000865,0x50,true,,
"I2C","data",18.279371042,0.000086458,0x04,true,,
"I2C","data",18.279516375,0.0000865,0x0F,false,,
"I2C","stop",18.279670792,0.000000042,,,,
"I2C","start",18.279955083,0.000000042,,,,
"I2C","address",18.279965292,0.0000865,,true,0x0B,false
"I2C","data",18.280057,0.000173042,0x08,true,,
"I2C","start",18.28024025,0.000000042,,,,
"I2C","address",18.280250458,0.0000865,,true,0x0B,true
"I2C","data",18.28039625,0.0000865,0xAF,true,,
"I2C","data",18.280542583,0.0000865,0x0B,true,,
"I2C","data",18.280687542,0.000086458,0x97,false,,
"I2C","stop",18.280841458,0.000000042,,,,
"I2C","start",18.280853083,0.000000042,,,,
"I2C","address",18.280863292,0.0000865,,true,0x0B,false
"I2C","data",18.280955,0.000215167,0x0D,true,,
"I2C","start",18.281180375,0.000000042,,,,
"I2C","address",18.281190583,0.0000865,,true,0x0B,true
"I2C","data",18.28133625,0.0000865,0x59,true,,
"I2C","data",18.281482958,0.000086458,0x00,true,,
"I2C","data",18.28162775,0.0000865,0x82,false,,
"I2C","stop",18.281782083,0.000000042,,,,
"I2C","start",18.282515833,0.000000042,,,,
"I2C","address",18.282526042,0.0000865,,true,0x0B,false
"I2C","data",18.28261775,0.000234958,0x51,true,,
"I2C","start",18.282862917,0.000000042,,,,
"I2C","address",18.282873125,0.0000865,,true,0x0B,true
"I2C","data",18.28302025,0.0000865,0x04,true,,
"I2C","data",18.283168,0.000086458,0x00,true,,
"I2C","data",18.283316708,0.0000865,0x00,true,,
"I2C","data",18.283465417,0.0000865,0x00,true,,
"I2C","data",18.283614167,0.0000865,0x00,true,,
"I2C","data",18.283759042,0.0000865,0xDA,false,,
"I2C","stop",18.283913333,0.000000042,,,,
"I2C","start",18.283928083,0.000000042,,,,
"I2C","address",18.283938333,0.000086458,,true,0x0B,false
"I2C","data",18.284030042,0.0002305,0xD2,true,,
"I2C","start",18.284270708,0.000000042,,,,
"I2C","address",18.284280958,0.000086458,,true,0x0B,true
"I2C","data",18.284427083,0.0000865,0x00,true,,
"I2C","data",18.284573375,0.000086458,0x00,true,,
"I2C","data",18.284718708,0.000086458,0x2C,false,,
"I2C","stop",18.284873042,0.000000042,,,,
"I2C","start",18.284912083,0.000000042,,,,
"I2C","address",18.284922292,0.0000865,,true,0x0B,false
"I2C","data",18.285014,0.000183958,0x3F,true,,
"I2C","start",18.285208125,0.000000042,,,,
"I2C","address",18.285218375,0.000086458,,true,0x0B,true
"I2C","data",18.2853645,0.0000865,0x23,true,,
"I2C","data",18.285510208,0.000086458,0x10,true,,
"I2C","data",18.285655458,0.0000865,0x57,false,,
"I2C","stop",18.28580975,0.000000042,,,,
"I2C","start",18.285819667,0.000000042,,,,
"I2C","address",18.285829875,0.000086458,,true,0x0B,false
"I2C","data",18.285921583,0.000209167,0x3E,true,,
"I2C","start",18.286140917,0.000000042,,,,
"I2C","address",18.286151125,0.0000865,,true,0x0B,true
"I2C","data",18.286296917,0.0000865,0x27,true,,
"I2C","data",18.286443208,0.0000865,0x10,true,,
"I2C","data",18.286588542,0.0000865,0x15,false,,
"I2C","stop",18.286742917,0.000000042,,,,
"I2C","start",18.287616958,0.000000042,,,,
"I2C","address",18.287627208,0.000086458,,true,0x0B,false
"I2C","data",18.287718917,0.000161875,0x3D,true,,
"I2C","start",18.287891,0.000000042,,,,
"I2C","address",18.287901208,0.0000865,,true,0x0B,true
"I2C","data",18.2880475,0.000086458,0x22,true,,
"I2C","data",18.288193333,0.0000865,0x10,true,,
"I2C","data",18.28833825,0.000086458,0x6E,false,,
"I2C","stop",18.288492167,0.000000042,,,,
"I2C","start",18.288504,0.000000042,,,,
"I2C","address",18.288514208,0.0000865,,true,0x0B,false
"I2C","data",18.288605917,0.000207375,0x3F,true,,
"I2C","start",18.288823458,0.000000042,,,,
"I2C","address",18.288833667,0.0000865,,true,0x0B,true
"I2C","data",18.2889805,0.000086458,0x23,true,,
"I2C","data",18.289126333,0.0000865,0x10,true,,
"I2C","data",18.28927075,0.0000865,0x57,false,,
"I2C","stop",18.289424583,0.000000042,,,,
"I2C","start",18.289923042,0.000000042,,,,
"I2C","address",18.28993325,0.0000865,,true,0x0B,false
"I2C","data",18.290024958,0.000163292,0x3E,true,,
"I2C","start",18.290198458,0.000000042,,,,
"I2C","address",18.290208667,0.0000865,,true,0x0B,true
"I2C","data",18.290354958,0.0000865,0x27,true,,
"I2C","data",18.290500833,0.0000865,0x10,true,,
"I2C","data",18.29064625,0.0000865,0x15,false,,
"I2C","stop",18.290800125,0.000000042,,,,
"I2C","start",18.290811125,0.000000042,,,,
"I2C","address",18.290821333,0.0000865,,true,0x0B,false
"I2C","data",18.290913042,0.000208083,0x3D,true,,
"I2C","start",18.291131333,0.000000042,,,,
"I2C","address",18.291141542,0.0000865,,true,0x0B,true
"I2C","data",18.291287708,0.000086458,0x22,true,,
"I2C","data",18.291434,0.000086458,0x10,true,,
"I2C","data",18.291581292,0.0000865,0x6E,false,,
"I2C","stop",18.291824208,0.000000042,,,,
"I2C","start",19.2593565,0.000000042,,,,
"I2C","address",19.259366708,0.000086458,,true,0x0B,false
"I2C","data",19.259458417,0.000179167,0xD5,true,,
"I2C","start",19.259647792,0.000000042,,,,
"I2C","address",19.259658,0.0000865,,true,0x0B,true
"I2C","data",19.2598435,0.0000865,0x00,true,,
"I2C","data",19.2599865,0.000086458,0x00,true,,
"I2C","data",19.260128583,0.000086458,0x4E,false,,
"I2C","stop",19.260279125,0.000000042,,,,
"I2C","start",19.260303333,0.000000042,,,,
"I2C","address",19.260313542,0.0000865,,true,0x0B,false
"I2C","data",19.26040525,0.000199333,0xD3,true,,
"I2C","data",19.260609833,0.000131542,0x00,true,,
"I2C","data",19.260746625,0.000133833,0x00,true,,
"I2C","data",19.260885708,0.000132875,0x81,true,,
"I2C","stop",19.261029,0.000000042,,,,
"I2C","start",19.261041542,0.000000042,,,,
"I2C","address",19.26105175,0.0000865,,true,0x0B,false
"I2C","data",19.261143458,0.000208708,0x00,true,,
"I2C","data",19.261357375,0.000131458,0x51,true,,
"I2C","data",19.261494083,0.000133917,0x00,true,,
"I2C","data",19.261633208,0.000133,0x0A,true,,
"I2C","stop",19.261776625,0.000000042,,,,
"I2C","start",19.261784875,0.000000042,,,,
"I2C","address",19.261795125,0.000086458,,true,0x0B,false
"I2C","data",19.261886833,0.00119275,0x23,true,,
"I2C","start",19.263089792,0.000000042,,,,
"I2C","address",19.2631,0.0000865,,true,0x0B,true
"I2C","data",19.2632645,0.0000865,0x04,true,,
"I2C","data",19.263426625,0.0000865,0x00,true,,
"I2C","data",19.263574875,0.000086458,0x00,true,,
"I2C","data",19.263723,0.000086458,0x00,true,,
"I2C","data",19.263871125,0.0000865,0x00,true,,
"I2C","data",19.264015917,0.000086458,0x54,false,,
"I2C","stop",19.264170208,0.000000042,,,,
"I2C","start",19.264189,0.000000042,,,,
"I2C","address",19.264199208,0.000086458,,true,0x0B,false
"I2C","data",19.264290917,0.00017175,0x00,true,,
"I2C","data",19.264467875,0.000134375,0x53,true,,
"I2C","data",19.264607458,0.000136792,0x00,true,,
"I2C","data",19.2647495,0.000136292,0x20,true,,
"I2C","stop",19.26489625,0.000000042,,,,
"I2C","start",19.2651395,0.000000042,,,,
"I2C","address",19.265149708,0.000086458,,true,0x0B,false
"I2C","data",19.265241417,0.000916958,0x23,true,,
"I2C","start",19.266168583,0.000000042,,,,
"I2C","address",19.266178792,0.0000865,,true,0x0B,true
"I2C","data",19.266326542,0.0000865,0x04,true,,
"I2C","data",19.266473833,0.0000865,0x00,true,,
"I2C","data",19.266621583,0.0000865,0x00,true,,
"I2C","data",19.266769833,0.0000865,0x00,true,,
"I2C","data",19.266918542,0.0000865,0x00,true,,
"I2C","data",19.267062917,0.0000865,0x54,false,,
"I2C","stop",19.267216833,0.000000042,,,,
"I2C","start",19.268113083,0.000000042,,,,
"I2C","address",19.268123292,0.0000865,,true,0x0B,false
"I2C","data",19.268215,0.000160292,0x00,true,,
"I2C","data",19.2683805,0.000133917,0x54,true,,
"I2C","data",19.268519625,0.000136792,0x00,true,,
"I2C","data",19.268661667,0.000136333,0x4B,true,,
"I2C","stop",19.268808417,0.000000042,,,,
"I2C","start",19.268816833,0.000000042,,,,
"I2C","address",19.268827083,0.000086458,,true,0x0B,false
"I2C","data",19.268918792,0.001412458,0x23,true,,
"I2C","start",19.270341417,0.000000042,,,,
"I2C","address",19.270351625,0.0000865,,true,0x0B,true
"I2C","data",19.270498833,0.0000865,0x04,true,,
"I2C","data",19.270646542,0.000086458,0x86,true,,
"I2C","data",19.270795208,0.000086458,0x03,true,,
"I2C","data",19.270943375,0.0000865,0x06,true,,
"I2C","data",19.271093958,0.000086458,0x00,true,,
"I2C","data",19.271252292,0.000086458,0xD2,false,,
"I2C","stop",19.27140575,0.000000042,,,,
"I2C","start",19.2714245,0.000000042,,,,
"I2C","address",19.27143475,0.000086458,,true,0x0B,false
"I2C","data",19.271526458,0.000172292,0x00,true,,
"I2C","data",19.271703958,0.000134417,0x55,true,,
"I2C","data",19.271843583,0.00013725,0x00,true,,
"I2C","data",19.271986042,0.00013625,0x5E,true,,
"I2C","stop",19.272132708,0.000000042,,,,
"I2C","start",19.27314575,0.000000042,,,,
"I2C","address",19.273155958,0.0000865,,true,0x0B,false
"I2C","data",19.273247667,0.000219583,0x23,true,,
"I2C","start",19.273477417,0.000000042,,,,
"I2C","address",19.273487667,0.000086458,,true,0x0B,true
"I2C","data",19.273635292,0.0000865,0x02,true,,
"I2C","data",19.2737825,0.0000865,0x10,true,,
"I2C","data",19.273942708,0.000086458,0x08,true,,
"I2C","data",19.274100542,0.000086458,0x16,true,,
"I2C","data",19.27425025,0.0000865,0x16,true,,
"I2C","data",19.27439425,0.000086458,0x16,false,,
"I2C","stop",19.274539583,0.000000042,,,,
"I2C","start",19.275102708,0.000000042,,,,
"I2C","address",19.275112958,0.000086458,,true,0x0B,false
"I2C","data",19.275204667,0.000173458,0x09,true,,
"I2C","start",19.275388292,0.000000042,,,,
"I2C","address",19.2753985,0.0000865,,true,0x0B,true
"I2C","data",19.275544792,0.0000865,0x8F,true,,
"I2C","data",19.275690625,0.0000865,0x30,true,,
"I2C","data",19.275835083,0.0000865,0x8E,false,,
"I2C","stop",19.275989,0.000000042,,,,
"I2C","start",19.276000375,0.000000042,,,,
"I2C","address",19.276010625,0.000086458,,true,0x0B,false
"I2C","data",19.276102333,0.000185333,0x0A,true,,
"I2C","start",19.276297875,0.000000042,,,,
"I2C","address",19.276308083,0.0000865,,true,0x0B,true
"I2C","data",19.27646875,0.0000865,0x36,true,,
"I2C","data",19.276615125,0.0000865,0xFD,true,,
"I2C","data",19.2767605,0.0000865,0x2B,false,,
"I2C","stop",19.276914458,0.000000042,,,,
"I2C","start",19.279342917,0.000000042,,,,
"I2C","address",19.279353125,0.0000865,,true,0x0B,false
"I2C","data",19.279444833,0.000173917,0x10,true,,
"I2C","start",19.279628917,0.000000042,,,,
"I2C","address",19.279639167,0.000086458,,true,0x0B,true
"I2C","data",19.279785458,0.000086458,0xDA,true,,
"I2C","data",19.279931792,0.0000865,0x04,true,,
"I2C","data",19.280076167,0.0000865,0x8E,false,,
"I2C","stop",19.28023,0.000000042,,,,
"I2C","start",19.280256458,0.000000042,,,,
"I2C","address",19.280266708,0.000086458,,true,0x0B,false
"I2C","data",19.280358375,0.000204583,0x0F,true,,
"I2C","start",19.280573125,0.000000042,,,,
"I2C","address",19.280583375,0.000086458,,true,0x0B,true
"I2C","data",19.280730042,0.0000865,0x4F,true,,
"I2C","data",19.280875917,0.0000865,0x04,true,,
"I2C","data",19.281021292,0.0000865,0x9B,false,,
"I2C","stop",19.281175708,0.000000042,,,,
"I2C","start",19.281186292,0.000000042,,,,
"I2C","address",19.2811965,0.0000865,,true,0x0B,false
"I2C","data",19.281288208,0.000219667,0x08,true,,
"I2C","start",19.281518083,0.000000042,,,,
"I2C","address",19.281528292,0.000086458,,true,0x0B,true
"I2C","data",19.2816745,0.0000865,0xAF,true,,
"I2C","data",19.281820792,0.0000865,0x0B,true,,
"I2C","data",19.281966167,0.000086458,0x97,false,,
"I2C","stop",19.282120542,0.000000042,,,,
"I2C","start",19.283015958,0.000000042,,,,
"I2C","address",19.283026208,0.000086458,,true,0x0B,false
"I2C","data",19.283117917,0.000170458,0x0D,true,,
"I2C","start",19.283298542,0.000000042,,,,
"I2C","address",19.28330875,0.0000865,,true,0x0B,true
"I2C","data",19.283455542,0.0000865,0x59,true,,
"I2C","data",19.283601917,0.0000865,0x00,true,,
"I2C","data",19.283747333,0.0000865,0x82,false,,
"I2C","stop",19.28390175,0.000000042,,,,
"I2C","start",19.283913875,0.000000042,,,,
"I2C","address",19.283924083,0.0000865,,true,0x0B,false
"I2C","data",19.284015792,0.000279375,0x51,true,,
"I2C","start",19.284305333,0.000000042,,,,
"I2C","address",19.284315583,0.000086458,,true,0x0B,true
"I2C","data",19.284463333,0.000086458,0x04,true,,
"I2C","data",19.284611583,0.000086458,0x00,true,,
"I2C","data",19.284760333,0.0000865,0x00,true,,
"I2C","data",19.284909583,0.0000865,0x00,true,,
"I2C","data",19.285058375,0.0000865,0x00,true,,
"I2C","data",19.285203792,0.000086458,0xDA,false,,
"I2C","stop",19.285357708,0.000000042,,,,
"I2C","start",19.285372125,0.000000042,,,,
"I2C","address",19.285382333,0.0000865,,true,0x0B,false
"I2C","data",19.285474042,0.000231583,0xD2,true,,
"I2C","start",19.285715833,0.000000042,,,,
"I2C","address",19.285726042,0.000086458,,true,0x0B,true
"I2C","data",19.28587225,0.0000865,0x00,true,,
"I2C","data",19.286018083,0.0000865,0x00,true,,
"I2C","data",19.286163875,0.0000865,0x2C,false,,
"I2C","stop",19.286317833,0.000000042,,,,
"I2C","start",19.286328292,0.000000042,,,,
"I2C","address",19.2863385,0.0000865,,true,0x0B,false
"I2C","data",19.286430208,0.00021275,0x3F,true,,
"I2C","start",19.286653167,0.000000042,,,,
"I2C","address",19.286663375,0.000086458,,true,0x0B,true
"I2C","data",19.28680925,0.000086458,0x2F,true,,
"I2C","data",19.286956042,0.0000865,0x10,true,,
"I2C","data",19.287101375,0.0000865,0xAB,false,,
"I2C","stop",19.28725525,0.000000042,,,,
"I2C","start",19.288093458,0.000000042,,,,
"I2C","address",19.288103667,0.0000865,,true,0x0B,false
"I2C","data",19.288195375,0.000240417,0x3E,true,,
"I2C","start",19.288446,0.000000042,,,,
"I2C","address",19.288456208,0.0000865,,true,0x0B,true
"I2C","data",19.288602917,0.0000865,0x31,true,,
"I2C","data",19.288748708,0.0000865,0x10,true,,
"I2C","data",19.288931833,0.0000865,0x3C,false,,
"I2C","stop",19.289140292,0.000000042,,,,
"I2C","start",19.289150583,0.000000042,,,,
"I2C","address",19.289160792,0.0000865,,true,0x0B,false
"I2C","data",19.2892525,0.000218125,0x3D,true,,
"I2C","start",19.289480833,0.000000042,,,,
"I2C","address",19.289491042,0.0000865,,true,0x0B,true
"I2C","data",19.2896345,0.0000865,0x2E,true,,
"I2C","data",19.289777875,0.0000865,0x10,true,,
"I2C","data",19.289919833,0.0000865,0x92,false,,
"I2C","stop",19.290070375,0.000000042,,,,
"I2C","start",19.290116792,0.000000042,,,,
"I2C","address",19.290127,0.0000865,,true,0x0B,false
"I2C","data",19.290218708,0.00018175,0x3F,true,,
"I2C","start",19.290410625,0.000000042,,,,
"I2C","address",19.290420875,0.000086458,,true,0x0B,true
"I2C","data",19.290563833,0.000086458,0x2F,true,,
"I2C","data",19.29070725,0.0000865,0x10,true,,
"I2C","data",19.290849333,0.000086458,0xAB,false,,
"I2C","stop",19.290999917,0.000000042,,,,
"I2C","start",19.291010458,0.000000042,,,,
"I2C","address",19.291020667,0.0000865,,true,0x0B,false
"I2C","data",19.291112375,0.000217792,0x3E,true,,
"I2C","start",19.291340375,0.000000042,,,,
"I2C","address",19.291350583,0.000086458,,true,0x0B,true
"I2C","data",19.291493542,0.0000865,0x31,true,,
"I2C","data",19.291637042,0.0000865,0x10,true,,
"I2C","data",19.291779125,0.0000865,0x3C,false,,
"I2C","stop",19.29192975,0.000000042,,,,
"I2C","start",19.29313425,0.000000042,,,,
"I2C","address",19.293144458,0.0000865,,true,0x0B,false
"I2C","data",19.293236167,0.000159917,0x3D,true,,
"I2C","start",19.29340625,0.000000042,,,,
"I2C","address",19.293416458,0.0000865,,true,0x0B,true
"I2C","data",19.293559958,0.0000865,0x2E,true,,
"I2C","data",19.293703458,0.0000865,0x10,true,,
"I2C","data",19.293845458,0.0000865,0x92,false,,
"I2C","stop",19.293995958,0.000000042,,,,
"I2C","start",19.294152125,0.000000042,,,,
"I2C","address",19.294162375,0.000086458,,true,0x0B,false
"I2C","data",19.294254083,0.000450208,0x2F,true,,
"I2C","data",19.294709542,0.00013775,0x14,true,,
"I2C","data",19.294852542,0.000133917,0x93,true,,
"I2C","data",19.294991708,0.000133458,0x8D,true,,
"I2C","data",19.295130417,0.000133417,0x0C,true,,
"I2C","data",19.295269042,0.000133375,0x00,true,,
"I2C","data",19.295407667,0.000133375,0x86,true,,
"I2C","data",19.29554625,0.000133417,0x08,true,,
"I2C","data",19.295684875,0.000133417,0x90,true,,
"I2C","data",19.2958235,0.0001335,0xE6,true,,
"I2C","data",19.295962208,0.0001335,0xCD,true,,
"I2C","data",19.296100917,0.000133458,0xC8,true,,
"I2C","data",19.296239625,0.000133458,0xF8,true,,
"I2C","data",19.296378333,0.0001335,0xE2,true,,
"I2C","data",19.296517042,0.000133417,0x98,true,,
"I2C","data",19.296655667,0.000133375,0xA0,true,,
"I2C","data",19.29679425,0.000133417,0x8B,true,,
"I2C","data",19.296932875,0.000133417,0xF2,true,,
"I2C","data",19.2970715,0.000133417,0x57,true,,
"I2C","data",19.297210167,0.0001335,0x4B,true,,
"I2C","data",19.297348875,0.000133542,0x10,true,,
"I2C","data",19.297487625,0.0001335,0xEE,true,,
"I2C","data",19.297626375,0.000132958,0x55,true,,
"I2C","stop",19.297769792,0.000000042,,,,
"I2C","start",20.280938,0.000000042,,,,
"I2C","address",20.280948208,0.0000865,,true,0x0B,false
"I2C","data",20.281039917,0.000182417,0xD5,true,,
"I2C","start",20.2812325,0.000000042,,,,
"I2C","address",20.281242708,0.0000865,,true,0x0B,true
"I2C","data",20.281424,0.000086458,0x00,true,,
"I2C","data",20.281569875,0.000086458,0x00,true,,
"I2C","data",20.281714875,0.000086458,0x4E,false,,
"I2C","stop",20.28186875,0.000000042,,,,
"I2C","start",20.281885042,0.000000042,,,,
"I2C","address",20.281895292,0.000086458,,true,0x0B,false
"I2C","data",20.281987,0.000198,0xD3,true,,
"I2C","data",20.282190208,0.000134333,0x00,true,,
"I2C","data",20.28232975,0.00013725,0x00,true,,
"I2C","data",20.282472208,0.000137292,0x81,true,,
"I2C","stop",20.282619917,0.000000042,,,,
"I2C","start",20.283252125,0.000000042,,,,
"I2C","address",20.283262333,0.0000865,,true,0x0B,false
"I2C","data",20.283354042,0.000160708,0x00,true,,
"I2C","data",20.283519958,0.000133875,0x51,true,,
"I2C","data",20.283659083,0.000137208,0x00,true,,
"I2C","data",20.2838015,0.000136875,0x0A,true,,
"I2C","stop",20.283948792,0.000000042,,,,
"I2C","start",20.283963708,0.000000042,,,,
"I2C","address",20.283973917,0.0000865,,true,0x0B,false
"I2C","data",20.284065625,0.001176708,0x23,true,,
"I2C","start",20.2852525,0.000000042,,,,
"I2C","address",20.28526275,0.000086458,,true,0x0B,true
"I2C","data",20.285410458,0.0000865,0x04,true,,
"I2C","data",20.285558708,0.0000865,0x00,true,,
"I2C","data",20.285707458,0.0000865,0x00,true,,
"I2C","data",20.28585575,0.000086458,0x00,true,,
"I2C","data",20.286003917,0.000086458,0x00,true,,
"I2C","data",20.286148708,0.0000865,0x54,false,,
"I2C","stop",20.286303042,0.000000042,,,,
"I2C","start",20.286319458,0.000000042,,,,
"I2C","address",20.286329708,0.000086458,,true,0x0B,false
"I2C","data",20.286421417,0.000207958,0x00,true,,
"I2C","data",20.286634625,0.000134,0x53,true,,
"I2C","data",20.286773833,0.000137333,0x00,true,,
"I2C","data",20.286916375,0.000136875,0x20,true,,
"I2C","stop",20.287063667,0.000000042,,,,
"I2C","start",20.28707275,0.000000042,,,,
"I2C","address",20.287082958,0.0000865,,true,0x0B,false
"I2C","data",20.287174667,0.001185458,0x23,true,,
"I2C","start",20.288370292,0.000000042,,,,
"I2C","address",20.2883805,0.0000865,,true,0x0B,true
"I2C","data",20.288528292,0.000086458,0x04,true,,
"I2C","data",20.288675583,0.000086458,0x00,true,,
"I2C","data",20.288823833,0.0000865,0x00,true,,
"I2C","data",20.288972625,0.000086458,0x00,true,,
"I2C","data",20.289121375,0.0000865,0x00,true,,
"I2C","data",20.289265833,0.0000865,0x54,false,,
"I2C","stop",20.289420292,0.000000042,,,,
"I2C","start",20.289437458,0.000000042,,,,
"I2C","address",20.289447667,0.000086458,,true,0x0B,false
"I2C","data",20.289539375,0.000206875,0x00,true,,
"I2C","data",20.289751458,0.000134458,0x54,true,,
"I2C","data",20.289891125,0.000136875,0x00,true,,
"I2C","data",20.290033208,0.00013675,0x4B,true,,
"I2C","stop",20.290180417,0.000000042,,,,
"I2C","start",20.290323542,0.000000042,,,,
"I2C","address",20.29033375,0.0000865,,true,0x0B,false
"I2C","data",20.290425458,0.001311625,0x23,true,,
"I2C","start",20.29174725,0.000000042,,,,
"I2C","address",20.2917575,0.000086458,,true,0x0B,true
"I2C","data",20.291905167,0.0000865,0x04,true,,
"I2C","data",20.292053375,0.0000865,0x86,true,,
"I2C","data",20.292202125,0.0000865,0x03,true,,
"I2C","data",20.292350417,0.0000865,0x06,true,,
"I2C","data",20.292498208,0.0000865,0x00,true,,
"I2C","data",20.292643167,0.0000865,0xD2,false,,
"I2C","stop",20.292796625,0.000000042,,,,
"I2C","start",20.293377083,0.000000042,,,,
"I2C","address",20.293387292,0.0000865,,true,0x0B,false
"I2C","data",20.293479,0.000160167,0x00,true,,
"I2C","data",20.293644375,0.000142083,0x55,true,,
"I2C","data",20.293791667,0.000136833,0x00,true,,
"I2C","data",20.29393375,0.000135875,0x5E,true,,
"I2C","stop",20.294080042,0.000000042,,,,
"I2C","start",20.29408975,0.000000042,,,,
"I2C","address",20.2941,0.000086458,,true,0x0B,false
"I2C","data",20.294191667,0.001192958,0x23,true,,
"I2C","start",20.295394792,0.000000042,,,,
"I2C","address",20.295405042,0.000086458,,true,0x0B,true
"I2C","data",20.295552792,0.0000865,0x02,true,,
"I2C","data",20.295700625,0.000086458,0x10,true,,
"I2C","data",20.295856083,0.000086458,0x08,true,,
"I2C","data",20.296012,0.0000865,0x16,true,,
"I2C","data",20.29616125,0.0000865,0x16,true,,
"I2C","data",20.296306208,0.000086458,0x16,false,,
"I2C","stop",20.296451083,0.000000042,,,,
"I2C","start",20.296470208,0.000000042,,,,
"I2C","address",20.296480417,0.0000865,,true,0x0B,false
"I2C","data",20.296572125,0.000214542,0x09,true,,
"I2C","start",20.296796875,0.000000042,,,,
"I2C","address",20.296807083,0.0000865,,true,0x0B,true
"I2C","data",20.296953417,0.0000865,0x86,true,,
"I2C","data",20.297099792,0.000086458,0x30,true,,
"I2C","data",20.297244708,0.0000865,0x33,false,,
"I2C","stop",20.297409208,0.000000042,,,,
"I2C","start",20.301152583,0.000000042,,,,
"I2C","address",20.301162792,0.0000865,,true,0x0B,false
"I2C","data",20.3012545,0.000170708,0x0A,true,,
"I2C","start",20.301435375,0.000000042,,,,
"I2C","address",20.301445583,0.0000865,,true,0x0B,true
"I2C","data",20.301588458,0.0000865,0x42,true,,
"I2C","data",20.301731917,0.000086458,0xFD,true,,
"I2C","data",20.301873958,0.000086458,0xDD,false,,
"I2C","stop",20.302024583,0.000000042,,,,
"I2C","start",20.302034167,0.000000042,,,,
"I2C","address",20.302044375,0.0000865,,true,0x0B,false
"I2C","data",20.302136083,0.000231292,0x10,true,,
"I2C","start",20.302377583,0.000000042,,,,
"I2C","address",20.302387792,0.000086458,,true,0x0B,true
"I2C","data",20.302530667,0.0000865,0xDA,true,,
"I2C","data",20.302674083,0.0000865,0x04,true,,
"I2C","data",20.302816125,0.000086458,0x8E,false,,
"I2C","stop",20.302966667,0.000000042,,,,
"I2C","start",20.303282167,0.000000042,,,,
"I2C","address",20.303292375,0.0000865,,true,0x0B,false
"I2C","data",20.303384083,0.000171208,0x0F,true,,
"I2C","start",20.303565458,0.000000042,,,,
"I2C","address",20.303575667,0.0000865,,true,0x0B,true
"I2C","data",20.303718708,0.000086458,0x4F,true,,
"I2C","data",20.303862208,0.0000865,0x04,true,,
"I2C","data",20.304004292,0.0000865,0x9B,false,,
"I2C","stop",20.304154917,0.000000042,,,,
"I2C","start",20.304166958,0.000000042,,,,
"I2C","address",20.304177167,0.0000865,,true,0x0B,false
"I2C","data",20.304268875,0.000227375,0x08,true,,
"I2C","start",20.304506458,0.000000042,,,,
"I2C","address",20.304516667,0.0000865,,true,0x0B,true
"I2C","data",20.304660125,0.0000865,0xAF,true,,
"I2C","data",20.304803625,0.0000865,0x0B,true,,
"I2C","data",20.304945708,0.000086458,0x97,false,,
"I2C","stop",20.305096292,0.000000042,,,,
"I2C","start",20.305375125,0.000000042,,,,
"I2C","address",20.305385333,0.0000865,,true,0x0B,false
"I2C","data",20.305477042,0.000167125,0x0D,true,,
"I2C","start",20.305654375,0.000000042,,,,
"I2C","address",20.305664583,0.0000865,,true,0x0B,true
"I2C","data",20.305808042,0.0000865,0x59,true,,
"I2C","data",20.3059515,0.0000865,0x00,true,,
"I2C","data",20.306093583,0.0000865,0x82,false,,
"I2C","stop",20.306244208,0.000000042,,,,
"I2C","start",20.306253667,0.000000042,,,,
"I2C","address",20.306263875,0.0000865,,true,0x0B,false
"I2C","data",20.306355583,0.000291083,0x51,true,,
"I2C","start",20.306656833,0.000000042,,,,
"I2C","address",20.306667083,0.000086458,,true,0x0B,true
"I2C","data",20.306811875,0.000086458,0x04,true,,
"I2C","data",20.306997833,0.000086458,0x00,true,,
"I2C","data",20.307146458,0.0000865,0x00,true,,
"I2C","data",20.30729475,0.000086458,0x00,true,,
"I2C","data",20.3074435,0.000086458,0x00,true,,
"I2C","data",20.307588417,0.0000865,0xDA,false,,
"I2C","stop",20.307742375,0.000000042,,,,
"I2C","start",20.308307542,0.000000042,,,,
"I2C","address",20.30831775,0.0000865,,true,0x0B,false
"I2C","data",20.308409458,0.000178375,0xD2,true,,
"I2C","start",20.308598042,0.000000042,,,,
"I2C","address",20.30860825,0.0000865,,true,0x0B,true
"I2C","data",20.308755,0.0000865,0x00,true,,
"I2C","data",20.308900375,0.0000865,0x00,true,,
"I2C","data",20.309059583,0.0000865,0x2C,false,,
"I2C","stop",20.309289542,0.000000042,,,,
"I2C","start",20.309300958,0.000000042,,,,
"I2C","address",20.309311167,0.0000865,,true,0x0B,false
"I2C","data",20.309402875,0.000178,0x3F,true,,
"I2C","start",20.309591083,0.000000042,,,,
"I2C","address",20.309601292,0.0000865,,true,0x0B,true
"I2C","data",20.309804292,0.0000865,0x2D,true,,
"I2C","data",20.309986917,0.0000865,0x10,true,,
"I2C","data",20.310186417,0.000086458,0x81,false,,
"I2C","stop",20.310337,0.000000042,,,,
"I2C","start",20.310356833,0.000000042,,,,
"I2C","address",20.310367042,0.000086458,,true,0x0B,false
"I2C","data",20.31045875,0.0002085,0x3E,true,,
"I2C","start",20.310677417,0.000000042,,,,
"I2C","address",20.310687625,0.0000865,,true,0x0B,true
"I2C","data",20.3108305,0.000086458,0x2F,true,,
"I2C","data",20.310973875,0.0000865,0x10,true,,
"I2C","data",20.311115833,0.0000865,0xBD,false,,
"I2C","stop",20.311266333,0.000000042,,,,
"I2C","start",20.311275667,0.000000042,,,,
"I2C","address",20.311285875,0.000086458,,true,0x0B,false
"I2C","data",20.311377583,0.000218958,0x3D,true,,
"I2C","start",20.31160675,0.000000042,,,,
"I2C","address",20.311616958,0.0000865,,true,0x0B,true
"I2C","data",20.311759917,0.0000865,0x2B,true,,
"I2C","data",20.311903417,0.0000865,0x10,true,,
"I2C","data",20.312045458,0.0000865,0xD3,false,,
"I2C","stop",20.312196083,0.000000042,,,,
"I2C","start",20.313375583,0.000000042,,,,
"I2C","address",20.313385792,0.0000865,,true,0x0B,false
"I2C","data",20.3134775,0.000160042,0x3F,true,,
"I2C","start",20.313647708,0.000000042,,,,
"I2C","address",20.313657917,0.0000865,,true,0x0B,true
"I2C","data",20.313801375,0.0000865,0x2D,true,,
"I2C","data",20.313944875,0.0000865,0x10,true,,
"I2C","data",20.314087,0.0000865,0x81,false,,
"I2C","stop",20.314237625,0.000000042,,,,
"I2C","start",20.314250583,0.000000042,,,,
"I2C","address",20.314260792,0.000086458,,true,0x0B,false
"I2C","data",20.3143525,0.000215542,0x3E,true,,
"I2C","start",20.31457825,0.000000042,,,,
"I2C","address",20.314588458,0.0000865,,true,0x0B,true
"I2C","data",20.314731458,0.0000865,0x2F,true,,
"I2C","data",20.314874875,0.0000865,0x10,true,,
"I2C","data",20.315016917,0.000086458,0xBD,false,,
"I2C","stop",20.315167458,0.000000042,,,,
"I2C","start",20.315330583,0.000000042,,,,
"I2C","address",20.315340833,0.000086458,,true,0x0B,false
"I2C","data",20.3154325,0.000159292,0x3D,true,,
"I2C","start",20.315601958,0.000000042,,,,
"I2C","address",20.315612167,0.0000865,,true,0x0B,true
"I2C","data",20.315755708,0.0000865,0x2B,true,,
"I2C","data",20.315899292,0.0000865,0x10,true,,
"I2C","data",20.316041375,0.000086458,0xD3,false,,
"I2C","stop",20.316191958,0.000000042,,,,
"I2C","start",20.316339125,0.000000042,,,,
"I2C","address",20.316349333,0.0000865,,true,0x0B,false
"I2C","data",20.316441042,0.000382625,0x2F,true,,
"I2C","start",20.316833875,0.000000042,,,,
"I2C","address",20.316844083,0.000086458,,true,0x0B,true
"I2C","data",20.317037792,0.0000865,0x2A,true,,
"I2C","data",20.317240125,0.0000865,0x50,true,,
"I2C","data",20.317386042,0.000086458,0x54,true,,
"I2C","data",20.317531417,0.000086458,0xCB,true,,
"I2C","data",20.317676708,0.0000865,0x07,true,,
"I2C","data",20.317822042,0.0000865,0x0B,true,,
"I2C","data",20.317967417,0.0000865,0x01,true,,
"I2C","data",20.318112792,0.000086458,0xBB,true,,
"I2C","data",20.318258167,0.0000865,0xC3,true,,
"I2C","data",20.318403625,0.000086458,0xA2,true,,
"I2C","data",20.318549,0.0000865,0x70,true,,
"I2C","data",20.318694417,0.0000865,0x4D,true,,
"I2C","data",20.318839833,0.0000865,0x78,true,,
"I2C","data",20.318985167,0.0000865,0x79,true,,
"I2C","data",20.319130458,0.0000865,0xC7,true,,
"I2C","data",20.31927575,0.0000865,0xDD,true,,
"I2C","data",20.319421083,0.0000865,0x1B,true,,
"I2C","data",20.319566417,0.000086458,0x4B,true,,
"I2C","data",20.319711792,0.0000865,0x0B,true,,
"I2C","data",20.31985725,0.000086458,0x7A,true,,
"I2C","data",20.320002625,0.0000865,0x40,true,,
"I2C","data",20.320148042,0.0000865,0x00,true,,
"I2C","data",20.320293458,0.000086458,0x34,true,,
"I2C","data",20.320438833,0.0000865,0xD3,true,,
"I2C","data",20.32058425,0.0000865,0xC9,true,,
"I2C","data",20.320729625,0.0000865,0x23,true,,
"I2C","data",20.320875042,0.000086458,0x98,true,,
"I2C","data",20.321020417,0.0000865,0x02,true,,
"I2C","data",20.321165792,0.0000865,0x0B,true,,
"I2C","data",20.321311167,0.0000865,0x69,true,,
"I2C","data",20.321456542,0.000086458,0x02,true,,
"I2C","data",20.321601917,0.0000865,0x60,true,,
"I2C","data",20.321747333,0.000086458,0x9E,true,,
"I2C","data",20.321892708,0.000086458,0xAB,true,,
"I2C","data",20.322038083,0.0000865,0x2D,true,,
"I2C","data",20.322183542,0.000086458,0x34,true,,
"I2C","data",20.322328917,0.0000865,0x6B,true,,
"I2C","data",20.322474333,0.0000865,0x90,true,,
"I2C","data",20.32261975,0.000086458,0x93,true,,
"I2C","data",20.322765167,0.000086458,0x88,true,,
"I2C","data",20.322910542,0.0000865,0x9F,true,,
"I2C","data",20.323055875,0.0000865,0x87,true,,
"I2C","data",20.323201167,0.0000865,0x02,true,,
"I2C","data",20.323342667,0.0000865,0xAB,false,,
"I2C","stop",20.323493125,0.000000042,,,,
"I2C","start",21.661493917,0.000000042,,,,
"I2C","address",21.661504125,0.000086458,,true,0x0B,false
"I2C","data",21.661595833,0.000178833,0xD5,true,,
"I2C","start",21.661784833,0.000000042,,,,
"I2C","address",21.661795042,0.0000865,,true,0x0B,true
"I2C","data",21.661980667,0.000086458,0x00,true,,
"I2C","data",21.662123708,0.000086458,0x00,true,,
"I2C","data",21.662265792,0.000086458,0x4E,false,,
"I2C","stop",21.662416375,0.000000042,,,,
"I2C","start",21.663614042,0.000000042,,,,
"I2C","address",21.66362425,0.0000865,,true,0x0B,false
"I2C","data",21.663715958,0.00017775,0xD3,true,,
"I2C","data",21.663898958,0.000131542,0x00,true,,
"I2C","data",21.66403575,0.000134,0x00,true,,
"I2C","data",21.664175,0.000133042,0x81,true,,
"I2C","stop",21.664318458,0.000000042,,,,
"I2C","start",21.664334417,0.000000042,,,,
"I2C","address",21.664344667,0.000086458,,true,0x0B,false
"I2C","data",21.664436333,0.000205625,0x00,true,,
"I2C","data",21.664647208,0.000131583,0x51,true,,
"I2C","data",21.664784,0.000133875,0x00,true,,
"I2C","data",21.664923083,0.000132917,0x0A,true,,
"I2C","stop",21.665066417,0.000000042,,,,
"I2C","start",21.665615375,0.000000042,,,,
"I2C","address",21.665625583,0.0000865,,true,0x0B,false
"I2C","data",21.665717292,0.000652167,0x23,true,,
"I2C","start",21.666379667,0.000000042,,,,
"I2C","address",21.666389875,0.0000865,,true,0x0B,true
"I2C","data",21.666534667,0.000086458,0x04,true,,
"I2C","data",21.666679,0.000086458,0x00,true,,
"I2C","data",21.66682425,0.0000865,0x00,true,,
"I2C","data",21.666969667,0.0000865,0x00,true,,
"I2C","data",21.667179625,0.0000865,0x00,true,,
"I2C","data",21.667379083,0.0000865,0x54,false,,
"I2C","stop",21.667529667,0.000000042,,,,
"I2C","start",21.668731208,0.000000042,,,,
"I2C","address",21.668741417,0.0000865,,true,0x0B,false
"I2C","data",21.668833125,0.000156875,0x00,true,,
"I2C","data",21.668995208,0.000131458,0x53,true,,
"I2C","data",21.669131917,0.000133875,0x00,true,,
"I2C","data",21.669271,0.000132958,0x20,true,,
"I2C","stop",21.669414375,0.000000042,,,,
"I2C","start",21.669422625,0.000000042,,,,
"I2C","address",21.669432833,0.0000865,,true,0x0B,false
"I2C","data",21.669524542,0.001195625,0x23,true,,
"I2C","start",21.670730333,0.000000042,,,,
"I2C","address",21.670740542,0.0000865,,true,0x0B,true
"I2C","data",21.670884958,0.0000865,0x04,true,,
"I2C","data",21.671029417,0.0000865,0x00,true,,
"I2C","data",21.671174833,0.0000865,0x00,true,,
"I2C","data",21.67132025,0.0000865,0x00,true,,
"I2C","data",21.671465708,0.000086458,0x00,true,,
"I2C","data",21.671607292,0.0000865,0x54,false,,
"I2C","stop",21.671757958,0.000000042,,,,
"I2C","start",21.671779333,0.000000042,,,,
"I2C","address",21.671789542,0.0000865,,true,0x0B,false
"I2C","data",21.67188125,0.000212375,0x00,true,,
"I2C","data",21.672098875,0.000131083,0x54,true,,
"I2C","data",21.672235167,0.000133958,0x00,true,,
"I2C","data",21.672374375,0.000133,0x4B,true,,
"I2C","stop",21.672517792,0.000000042,,,,
"I2C","start",21.673828542,0.000000042,,,,
"I2C","address",21.67383875,0.0000865,,true,0x0B,false
"I2C","data",21.673930458,0.000468667,0x23,true,,
"I2C","start",21.674409292,0.000000042,,,,
"I2C","address",21.674419542,0.000086458,,true,0x0B,true
"I2C","data",21.674563833,0.000086458,0x04,true,,
"I2C","data",21.674708208,0.0000865,0x86,true,,
"I2C","data",21.6749185,0.0000865,0x03,true,,
"I2C","data",21.67512125,0.000086458,0x06,true,,
"I2C","data",21.675266667,0.0000865,0x00,true,,
"I2C","data",21.675408292,0.0000865,0xD2,false,,
"I2C","stop",21.675558917,0.000000042,,,,
"I2C","start",21.675631667,0.000000042,,,,
"I2C","address",21.675641875,0.0000865,,true,0x0B,false
"I2C","data",21.675733583,0.000160958,0x00,true,,
"I2C","data",21.67589975,0.000177417,0x55,true,,
"I2C","data",21.676082417,0.000136292,0x00,true,,
"I2C","data",21.676223917,0.000135833,0x5E,true,,
"I2C","stop",21.676370208,0.000000042,,,,
"I2C","start",21.676378208,0.000000042,,,,
"I2C","address",21.676388417,0.0000865,,true,0x0B,false
"I2C","data",21.676480125,0.001161208,0x23,true,,
"I2C","start",21.677651542,0.000000042,,,,
"I2C","address",21.67766175,0.000086458,,true,0x0B,true
"I2C","data",21.677822333,0.0000865,0x02,true,,
"I2C","data",21.677970167,0.0000865,0x10,true,,
"I2C","data",21.678178208,0.000086458,0x08,true,,
"I2C","data",21.678390125,0.0000865,0x16,true,,
"I2C","data",21.678570958,0.0000865,0x16,true,,
"I2C","data",21.678712542,0.0000865,0x16,false,,
"I2C","stop",21.678855042,0.000000042,,,,
"I2C","start",21.68157275,0.000000042,,,,
"I2C","address",21.681582958,0.0000865,,true,0x0B,false
"I2C","data",21.681674667,0.000170375,0x09,true,,
"I2C","start",21.681855208,0.000000042,,,,
"I2C","address",21.681865458,0.000086458,,true,0x0B,true
"I2C","data",21.682008292,0.0000865,0x87,true,,
"I2C","data",21.68215175,0.0000865,0x30,true,,
"I2C","data",21.682293833,0.000086458,0x26,false,,
"I2C","stop",21.682444417,0.000000042,,,,
"I2C","start",21.68362475,0.000000042,,,,
"I2C","address",21.683634958,0.0000865,,true,0x0B,false
"I2C","data",21.683726667,0.000170417,0x0A,true,,
"I2C","start",21.683907292,0.000000042,,,,
"I2C","address",21.6839175,0.0000865,,true,0x0B,true
"I2C","data",21.684060458,0.000086458,0x35,true,,
"I2C","data",21.684203833,0.0000865,0xFD,true,,
"I2C","data",21.684345833,0.000086458,0x14,false,,
"I2C","stop",21.684496333,0.000000042,,,,
"I2C","start",21.684508917,0.000000042,,,,
"I2C","address",21.684519125,0.000086458,,true,0x0B,false
"I2C","data",21.684610833,0.000228125,0x10,true,,
"I2C","start",21.684849125,0.000000042,,,,
"I2C","address",21.684859375,0.000086458,,true,0x0B,true
"I2C","data",21.685002333,0.0000865,0xDA,true,,
"I2C","data",21.685145875,0.0000865,0x04,true,,
"I2C","data",21.685287917,0.0000865,0x8E,false,,
"I2C","stop",21.6854385,0.000000042,,,,
"I2C","start",21.685651375,0.000000042,,,,
"I2C","address",21.685661583,0.000086458,,true,0x0B,false
"I2C","data",21.685753292,0.000171208,0x0F,true,,
"I2C","start",21.685934667,0.000000042,,,,
"I2C","address",21.685944875,0.0000865,,true,0x0B,true
"I2C","data",21.686087792,0.000086458,0x4F,true,,
"I2C","data",21.68623125,0.0000865,0x04,true,,
"I2C","data",21.686373333,0.0000865,0x9B,false,,
"I2C","stop",21.686523958,0.000000042,,,,
"I2C","start",21.686534292,0.000000042,,,,
"I2C","address",21.686544542,0.000086458,,true,0x0B,false
"I2C","data",21.68663625,0.000229083,0x08,true,,
"I2C","start",21.6868755,0.000000042,,,,
"I2C","address",21.68688575,0.000086458,,true,0x0B,true
"I2C","data",21.687029208,0.0000865,0xB0,true,,
"I2C","data",21.68717275,0.0000865,0x0B,true,,
"I2C","data",21.687314833,0.0000865,0x03,false,,
"I2C","stop",21.6874655,0.000000042,,,,
"I2C","start",21.688687417,0.000000042,,,,
"I2C","address",21.688697625,0.000086458,,true,0x0B,false
"I2C","data",21.688789333,0.00016725,0x0D,true,,
"I2C","start",21.688966792,0.000000042,,,,
"I2C","address",21.688977,0.000086458,,true,0x0B,true
"I2C","data",21.689120458,0.0000865,0x59,true,,
"I2C","data",21.689264,0.0000865,0x00,true,,
"I2C","data",21.689406083,0.0000865,0x82,false,,
"I2C","stop",21.689556708,0.000000042,,,,
"I2C","start",21.689567375,0.000000042,,,,
"I2C","address",21.689577583,0.000086458,,true,0x0B,false
"I2C","data",21.689669292,0.000289583,0x51,true,,
"I2C","start",21.689969042,0.000000042,,,,
"I2C","address",21.689979292,0.000086458,,true,0x0B,true
"I2C","data",21.690124,0.000086458,0x04,true,,
"I2C","data",21.690268375,0.000086458,0x00,true,,
"I2C","data",21.690413708,0.0000865,0x00,true,,
"I2C","data",21.690623667,0.000086458,0x00,true,,
"I2C","data",21.690826917,0.000086458,0x00,true,,
"I2C","data",21.690968417,0.000086458,0xDA,false,,
"I2C","stop",21.691118875,0.000000042,,,,
"I2C","start",21.691135375,0.000000042,,,,
"I2C","address",21.691145583,0.0000865,,true,0x0B,false
"I2C","data",21.691237292,0.000238458,0xD2,true,,
"I2C","start",21.691485958,0.000000042,,,,
"I2C","address",21.691496167,0.0000865,,true,0x0B,true
"I2C","data",21.691639083,0.000086458,0x00,true,,
"I2C","data",21.691782542,0.0000865,0x00,true,,
"I2C","data",21.691924583,0.0000865,0x2C,false,,
"I2C","stop",21.692075167,0.000000042,,,,
"I2C","start",21.692125458,0.000000042,,,,
"I2C","address",21.692135708,0.000086458,,true,0x0B,false
"I2C","data",21.692227417,0.00018175,0x3F,true,,
"I2C","start",21.692419333,0.000000042,,,,
"I2C","address",21.692429583,0.000086458,,true,0x0B,true
"I2C","data",21.692572375,0.0000865,0x2C,true,,
"I2C","data",21.69271575,0.000086458,0x10,true,,
"I2C","data",21.692857667,0.0000865,0x94,false,,
"I2C","stop",21.69300825,0.000000042,,,,
"I2C","start",21.69383325,0.000000042,,,,
"I2C","address",21.693843458,0.0000865,,true,0x0B,false
"I2C","data",21.693935167,0.00016,0x3E,true,,
"I2C","start",21.694105375,0.000000042,,,,
"I2C","address",21.694115583,0.000086458,,true,0x0B,true
"I2C","data",21.69429,0.000086458,0x2F,true,,
"I2C","data",21.694676958,0.0000865,0x10,true,,
"I2C","data",21.6950385,0.000086458,0xBD,false,,
"I2C","stop",21.695192458,0.000000042,,,,
"I2C","start",21.695621625,0.000000042,,,,
"I2C","address",21.695631833,0.000086458,,true,0x0B,false
"I2C","data",21.695723542,0.000161833,0x3D,true,,
"I2C","start",21.695895542,0.000000042,,,,
"I2C","address",21.69590575,0.0000865,,true,0x0B,true
"I2C","data",21.696051625,0.000086458,0x2C,true,,
"I2C","data",21.696198458,0.0000865,0x10,true,,
"I2C","data",21.696343417,0.000086458,0xB8,false,,
"I2C","stop",21.696497375,0.000000042,,,,
"I2C","start",21.69650875,0.000000042,,,,
"I2C","address",21.696518958,0.000086458,,true,0x0B,false
"I2C","data",21.696610667,0.000174458,0x3F,true,,
"I2C","start",21.696795333,0.000000042,,,,
"I2C","address",21.696805542,0.000086458,,true,0x0B,true
"I2C","data",21.696952292,0.000086458,0x2C,true,,
"I2C","data",21.697098167,0.000086458,0x10,true,,
"I2C","data",21.697243083,0.0000865,0x94,false,,
"I2C","stop",21.697396542,0.000000042,,,,
"I2C","start",21.701848167,0.000000042,,,,
"I2C","address",21.701858417,0.000086458,,true,0x0B,false
"I2C","data",21.701950125,0.0001595,0x3E,true,,
"I2C","start",21.702119833,0.000000042,,,,
"I2C","address",21.702130042,0.000086458,,true,0x0B,true
"I2C","data",21.702273375,0.000086458,0x2F,true,,
"I2C","data",21.70241675,0.0000865,0x10,true,,
"I2C","data",21.702558708,0.0000865,0xBD,false,,
"I2C","stop",21.702709292,0.000000042,,,,
"I2C","start",21.70388375,0.000000042,,,,
"I2C","address",21.703893958,0.0000865,,true,0x0B,false
"I2C","data",21.703985667,0.000159792,0x3D,true,,
"I2C","start",21.704155667,0.000000042,,,,
"I2C","address",21.704165875,0.0000865,,true,0x0B,true
"I2C","data",21.704309292,0.0000865,0x2C,true,,
"I2C","data",21.70445275,0.0000865,0x10,true,,
"I2C","data",21.704594792,0.0000865,0xB8,false,,
"I2C","stop",21.704745375,0.000000042,,,,
"I2C","start",21.705633625,0.000000042,,,,
"I2C","address",21.705643833,0.0000865,,true,0x0B,false
"I2C","data",21.705735542,0.000382208,0x2F,true,,
"I2C","data",21.706122958,0.000210792,0x14,true,,
"I2C","data",21.706338958,0.000198417,0xBC,true,,
"I2C","data",21.706542625,0.000133375,0x6A,true,,
"I2C","data",21.706681208,0.000133458,0x10,true,,
"I2C","data",21.706819875,0.000133458,0x00,true,,
"I2C","data",21.706958583,0.000133417,0x9C,true,,
"I2C","data",21.70709725,0.000133458,0x55,true,,
"I2C","data",21.707235917,0.0001335,0x53,true,,
"I2C","data",21.707374625,0.000133375,0x8A,true,,
"I2C","data",21.70751325,0.000133375,0x1C,true,,
"I2C","data",21.707651833,0.000133458,0x01,true,,
"I2C","data",21.7077905,0.000133417,0x64,true,,
"I2C","data",21.707929125,0.000133417,0xF9,true,,
"I2C","data",21.70806775,0.000133458,0x1C,true,,
"I2C","data",21.708206458,0.000133458,0xAF,true,,
"I2C","data",21.708345125,0.0001335,0xBA,true,,
"I2C","data",21.708483833,0.0001335,0x45,true,,
"I2C","data",21.708622542,0.000133542,0x1C,true,,
"I2C","data",21.708761292,0.000133417,0x67,true,,
"I2C","data",21.708899917,0.000133417,0x65,true,,
"I2C","data",21.709038542,0.000133417,0x97,true,,
"I2C","data",21.709177167,0.000132917,0x6C,true,,
"I2C","stop",21.7093205,0.000000042,,,,
"I2C","start",22.682239833,0.000000042,,,,
"I2C","address",22.682250042,0.0000865,,true,0x0B,false
"I2C","data",22.68234175,0.000179583,0xD5,true,,
"I2C","start",22.682531542,0.000000042,,,,
"I2C","address",22.68254175,0.000086458,,true,0x0B,true
"I2C","data",22.682727333,0.0000865,0x00,true,,
"I2C","data",22.682870333,0.0000865,0x00,true,,
"I2C","data",22.683012458,0.0000865,0x4E,false,,
"I2C","stop",22.683163083,0.000000042,,,,
"I2C","start",22.6840415,0.000000042,,,,
"I2C","address",22.684051708,0.0000865,,true,0x0B,false
"I2C","data",22.684143417,0.0001775,0xD3,true,,
"I2C","data",22.684326125,0.000131625,0x00,true,,
"I2C","data",22.684462958,0.000134,0x00,true,,
"I2C","data",22.684602167,0.000133042,0x81,true,,
"I2C","stop",22.684745667,0.000000042,,,,
"I2C","start",22.684759208,0.000000042,,,,
"I2C","address",22.684769417,0.0000865,,true,0x0B,false
"I2C","data",22.684861125,0.000208083,0x00,true,,
"I2C","data",22.685074458,0.000131625,0x51,true,,
"I2C","data",22.685211292,0.000134042,0x00,true,,
"I2C","data",22.685350542,0.000133083,0x0A,true,,
"I2C","stop",22.685494042,0.000000042,,,,
"I2C","start",22.685964208,0.000000042,,,,
"I2C","address",22.685974417,0.0000865,,true,0x0B,false
"I2C","data",22.686066125,0.000731625,0x23,true,,
"I2C","start",22.686807917,0.000000042,,,,
"I2C","address",22.686818167,0.000086458,,true,0x0B,true
"I2C","data",22.686963083,0.000086458,0x04,true,,
"I2C","data",22.687107542,0.0000865,0x00,true,,
"I2C","data",22.687252917,0.0000865,0x00,true,,
"I2C","data",22.687398292,0.0000865,0x00,true,,
"I2C","data",22.687543667,0.0000865,0x00,true,,
"I2C","data",22.687685167,0.0000865,0x54,false,,
"I2C","stop",22.687835833,0.000000042,,,,
"I2C","start",22.68918325,0.000000042,,,,
"I2C","address",22.6891935,0.000086458,,true,0x0B,false
"I2C","data",22.689285208,0.000156958,0x00,true,,
"I2C","data",22.689447375,0.000131625,0x53,true,,
"I2C","data",22.689584208,0.000203417,0x00,true,,
"I2C","data",22.689792833,0.000194208,0x20,true,,
"I2C","stop",22.689997458,0.000000042,,,,
"I2C","start",22.69001075,0.000000042,,,,
"I2C","address",22.690020958,0.0000865,,true,0x0B,false
"I2C","data",22.690112667,0.001190792,0x23,true,,
"I2C","start",22.691313625,0.000000042,,,,
"I2C","address",22.691323833,0.0000865,,true,0x0B,true
"I2C","data",22.691468792,0.000086458,0x04,true,,
"I2C","data",22.69161325,0.0000865,0x00,true,,
"I2C","data",22.691758708,0.000086458,0x00,true,,
"I2C","data",22.691904125,0.0000865,0x00,true,,
"I2C","data",22.692049583,0.000086458,0x00,true,,
"I2C","data",22.692191208,0.000086458,0x54,false,,
"I2C","stop",22.692341875,0.000000042,,,,
"I2C","start",22.692357,0.000000042,,,,
"I2C","address",22.69236725,0.000086458,,true,0x0B,false
"I2C","data",22.692458958,0.000218625,0x00,true,,
"I2C","data",22.692682792,0.000131125,0x54,true,,
"I2C","data",22.692819167,0.000134,0x00,true,,
"I2C","data",22.692958375,0.000133083,0x4B,true,,
"I2C","stop",22.693101875,0.000000042,,,,
"I2C","start",22.6941445,0.000000042,,,,
"I2C","address",22.69415475,0.000086458,,true,0x0B,false
"I2C","data",22.694246458,0.000469458,0x23,true,,
"I2C","start",22.694726083,0.000000042,,,,
"I2C","address",22.694736292,0.0000865,,true,0x0B,true
"I2C","data",22.694880792,0.0000865,0x04,true,,
"I2C","data",22.695025333,0.000086458,0x86,true,,
"I2C","data",22.695170792,0.0000865,0x03,true,,
"I2C","data",22.69531625,0.0000865,0x06,true,,
"I2C","data",22.695461667,0.000086458,0x00,true,,
"I2C","data",22.695603208,0.0000865,0xD2,false,,
"I2C","stop",22.695753792,0.000000042,,,,
"I2C","start",22.695866083,0.000000042,,,,
"I2C","address",22.695876292,0.0000865,,true,0x0B,false
"I2C","data",22.695968,0.000157208,0x00,true,,
"I2C","data",22.696130417,0.000131625,0x55,true,,
"I2C","data",22.69626725,0.000134,0x00,true,,
"I2C","data",22.696406458,0.000133042,0x5E,true,,
"I2C","stop",22.696549917,0.000000042,,,,
"I2C","start",22.69655725,0.000000042,,,,
"I2C","address",22.6965675,0.000086458,,true,0x0B,false
"I2C","data",22.696659208,0.00120475,0x23,true,,
"I2C","start",22.697874125,0.000000042,,,,
"I2C","address",22.697884333,0.0000865,,true,0x0B,true
"I2C","data",22.69805375,0.000086458,0x02,true,,
"I2C","data",22.698215875,0.000086458,0x10,true,,
"I2C","data",22.698605125,0.000086458,0x08,true,,
"I2C","data",22.698966833,0.0000865,0x16,true,,
"I2C","data",22.699115667,0.000086458,0x16,true,,
"I2C","data",22.699260667,0.000086458,0x16,false,,
"I2C","stop",22.699406083,0.000000042,,,,
"I2C","start",22.702236167,0.000000042,,,,
"I2C","address",22.702246375,0.0000865,,true,0x0B,false
"I2C","data",22.702338083,0.000170917,0x09,true,,
"I2C","start",22.702519167,0.000000042,,,,
"I2C","address",22.702529375,0.0000865,,true,0x0B,true
"I2C","data",22.702672292,0.0000865,0x71,true,,
"I2C","data",22.702815708,0.0000865,0x30,true,,
"I2C","data",22.702957792,0.0000865,0x4C,false,,
"I2C","stop",22.703108458,0.000000042,,,,
"I2C","start",22.704083958,0.000000042,,,,
"I2C","address",22.704094167,0.000086458,,true,0x0B,false
"I2C","data",22.704185875,0.000171,0x0A,true,,
"I2C","start",22.704367083,0.000000042,,,,
"I2C","address",22.704377292,0.0000865,,true,0x0B,true
"I2C","data",22.704520292,0.0000865,0xFC,true,,
"I2C","data",22.704663833,0.0000865,0xFC,true,,
"I2C","data",22.704805958,0.000086458,0x43,false,,
"I2C","stop",22.704956542,0.000000042,,,,
"I2C","start",22.704976875,0.000000042,,,,
"I2C","address",22.704987083,0.0000865,,true,0x0B,false
"I2C","data",22.705078792,0.000220375,0x10,true,,
"I2C","start",22.705309375,0.000000042,,,,
"I2C","address",22.705319583,0.0000865,,true,0x0B,true
"I2C","data",22.705516958,0.0000865,0xDA,true,,
"I2C","data",22.705717875,0.0000865,0x04,true,,
"I2C","data",22.70586,0.0000865,0x8E,false,,
"I2C","stop",22.706010667,0.000000042,,,,
"I2C","start",22.706029792,0.000000042,,,,
"I2C","address",22.70604,0.0000865,,true,0x0B,false
"I2C","data",22.706131708,0.000221708,0x0F,true,,
"I2C","start",22.706363625,0.000000042,,,,
"I2C","address",22.706373833,0.0000865,,true,0x0B,true
"I2C","data",22.70651675,0.000086458,0x4F,true,,
"I2C","data",22.706660208,0.0000865,0x04,true,,
"I2C","data",22.70680225,0.000086458,0x9B,false,,
"I2C","stop",22.706952792,0.000000042,,,,
"I2C","start",22.706966167,0.000000042,,,,
"I2C","address",22.706976375,0.0000865,,true,0x0B,false
"I2C","data",22.707068083,0.000226042,0x08,true,,
"I2C","start",22.707304333,0.000000042,,,,
"I2C","address",22.707314542,0.0000865,,true,0x0B,true
"I2C","data",22.707458042,0.0000865,0xAF,true,,
"I2C","data",22.707601583,0.000086458,0x0B,true,,
"I2C","data",22.707743667,0.000086458,0x97,false,,
"I2C","stop",22.707894292,0.000000042,,,,
"I2C","start",22.709148167,0.000000042,,,,
"I2C","address",22.709158417,0.000086458,,true,0x0B,false
"I2C","data",22.709250125,0.000167333,0x0D,true,,
"I2C","start",22.709427667,0.000000042,,,,
"I2C","address",22.709437875,0.0000865,,true,0x0B,true
"I2C","data",22.709581375,0.0000865,0x59,true,,
"I2C","data",22.709724917,0.000086458,0x00,true,,
"I2C","data",22.709866958,0.0000865,0x82,false,,
"I2C","stop",22.710017625,0.000000042,,,,
"I2C","start",22.710027875,0.000000042,,,,
"I2C","address",22.710038125,0.000086458,,true,0x0B,false
"I2C","data",22.710129833,0.000290417,0x51,true,,
"I2C","start",22.710430417,0.000000042,,,,
"I2C","address",22.710440625,0.0000865,,true,0x0B,true
"I2C","data",22.7105855,0.000086458,0x04,true,,
"I2C","data",22.710729875,0.0000865,0x00,true,,
"I2C","data",22.710875208,0.0000865,0x00,true,,
"I2C","data",22.711020542,0.000086458,0x00,true,,
"I2C","data",22.711165958,0.000086458,0x00,true,,
"I2C","data",22.711307542,0.0000865,0xDA,false,,
"I2C","stop",22.711458167,0.000000042,,,,
"I2C","start",22.711484333,0.000000042,,,,
"I2C","address",22.711494583,0.000086458,,true,0x0B,false
"I2C","data",22.711586292,0.000229042,0xD2,true,,
"I2C","start",22.7118255,0.000000042,,,,
"I2C","address",22.711835708,0.0000865,,true,0x0B,true
"I2C","data",22.711978625,0.0000865,0x00,true,,
"I2C","data",22.712122083,0.000086458,0x00,true,,
"I2C","data",22.712264042,0.0000865,0x2C,false,,
"I2C","stop",22.712414542,0.000000042,,,,
"I2C","start",22.712424583,0.000000042,,,,
"I2C","address",22.712434792,0.0000865,,true,0x0B,false
"I2C","data",22.7125265,0.000222167,0x3F,true,,
"I2C","start",22.712758833,0.000000042,,,,
"I2C","address",22.712769083,0.000086458,,true,0x0B,true
"I2C","data",22.712912083,0.000086458,0x26,true,,
"I2C","data",22.713122625,0.000086458,0x10,true,,
"I2C","data",22.713322,0.0000865,0x16,false,,
"I2C","stop",22.713472583,0.000000042,,,,
"I2C","start",22.714166042,0.000000042,,,,
"I2C","address",22.71417625,0.0000865,,true,0x0B,false
"I2C","data",22.714267958,0.000159833,0x3E,true,,
"I2C","start",22.714438,0.000000042,,,,
"I2C","address",22.714448208,0.0000865,,true,0x0B,true
"I2C","data",22.714591625,0.0000865,0x26,true,,
"I2C","data",22.714735,0.0000865,0x10,true,,
"I2C","data",22.714877,0.0000865,0x00,false,,
"I2C","stop",22.715027542,0.000000042,,,,
"I2C","start",22.715038083,0.000000042,,,,
"I2C","address",22.715048292,0.0000865,,true,0x0B,false
"I2C","data",22.71514,0.000217792,0x3D,true,,
"I2C","start",22.715368,0.000000042,,,,
"I2C","address",22.715378208,0.0000865,,true,0x0B,true
"I2C","data",22.715521208,0.000086458,0x25,true,,
"I2C","data",22.715664708,0.000086458,0x10,true,,
"I2C","data",22.715806792,0.0000865,0x05,false,,
"I2C","stop",22.715957417,0.000000042,,,,
"I2C","start",22.715973958,0.000000042,,,,
"I2C","address",22.715984167,0.0000865,,true,0x0B,false
"I2C","data",22.716075875,0.000211917,0x3F,true,,
"I2C","start",22.716297958,0.000000042,,,,
"I2C","address",22.716308167,0.0000865,,true,0x0B,true
"I2C","data",22.716451167,0.0000865,0x26,true,,
"I2C","data",22.716594625,0.0000865,0x10,true,,
"I2C","data",22.716736708,0.0000865,0x16,false,,
"I2C","stop",22.716887375,0.000000042,,,,
"I2C","start",22.716898042,0.000000042,,,,
"I2C","address",22.71690825,0.0000865,,true,0x0B,false
"I2C","data",22.716999958,0.000217792,0x3E,true,,
"I2C","start",22.717227917,0.000000042,,,,
"I2C","address",22.717238125,0.0000865,,true,0x0B,true
"I2C","data",22.717412708,0.0000865,0x26,true,,
"I2C","data",22.717799708,0.0000865,0x10,true,,
"I2C","data",22.718161833,0.0000865,0x00,false,,
"I2C","stop",22.718315833,0.000000042,,,,
"I2C","start",22.72220225,0.000000042,,,,
"I2C","address",22.722212458,0.0000865,,true,0x0B,false
"I2C","data",22.722304167,0.00015975,0x3D,true,,
"I2C","start",22.722474125,0.000000042,,,,
"I2C","address",22.722484333,0.0000865,,true,0x0B,true
"I2C","data",22.722627792,0.0000865,0x25,true,,
"I2C","data",22.722771333,0.0000865,0x10,true,,
"I2C","data",22.722913333,0.000086458,0x05,false,,
"I2C","stop",22.723063875,0.000000042,,,,
"I2C","start",22.724161542,0.000000042,,,,
"I2C","address",22.72417175,0.0000865,,true,0x0B,false
"I2C","data",22.724263458,0.000382583,0x2F,true,,
"I2C","start",22.72465625,0.000000042,,,,
"I2C","address",22.724666458,0.0000865,,true,0x0B,true
"I2C","data",22.724812833,0.000086458,0x2A,true,,
"I2C","data",22.724957792,0.0000865,0xC6,true,,
"I2C","data",22.725103208,0.0000865,0x8C,true,,
"I2C","data",22.725248625,0.0000865,0xF9,true,,
"I2C","data",22.725394042,0.000086458,0x6D,true,,
"I2C","data",22.725539458,0.0000865,0x65,true,,
"I2C","data",22.725684875,0.0000865,0x67,true,,
"I2C","data",22.725830333,0.0000865,0x3E,true,,
"I2C","data",22.72597575,0.0000865,0xA2,true,,
"I2C","data",22.726121208,0.000086458,0x45,true,,
"I2C","data",22.726266625,0.000086458,0x62,true,,
"I2C","data",22.726412042,0.0000865,0x1C,true,,
"I2C","data",22.7265575,0.0000865,0x1E,true,,
"I2C","data",22.726702958,0.0000865,0x07,true,,
"I2C","data",22.726848417,0.0000865,0x7D,true,,
"I2C","data",22.726993792,0.000086458,0xC8,true,,
"I2C","data",22.727139083,0.0000865,0x32,true,,
"I2C","data",22.727284417,0.0000865,0x3D,true,,
"I2C","data",22.72742975,0.0000865,0xF3,true,,
"I2C","data",22.727575083,0.0000865,0x21,true,,
"I2C","data",22.727720542,0.000086458,0xE0,true,,
"I2C","data",22.727865958,0.0000865,0x00,true,,
"I2C","data",22.728011375,0.0000865,0xBD,true,,
"I2C","data",22.728156792,0.000086458,0xF8,true,,
"I2C","data",22.728302167,0.0000865,0xF1,true,,
"I2C","data",22.7284475,0.0000865,0x89,true,,
"I2C","data",22.728592833,0.000086458,0xBE,true,,
"I2C","data",22.728802667,0.0000865,0x9A,true,,
"I2C","data",22.729005917,0.0000865,0x06,true,,
"I2C","data",22.729151375,0.0000865,0x9E,true,,
"I2C","data",22.729296833,0.0000865,0xC3,true,,
"I2C","data",22.72944225,0.0000865,0xF4,true,,
"I2C","data",22.729587667,0.0000865,0xA7,true,,
"I2C","data",22.729733042,0.0000865,0x49,true,,
"I2C","data",22.729878375,0.000086458,0x51,true,,
"I2C","data",22.730023667,0.0000865,0xF7,true,,
"I2C","data",22.730168958,0.0000865,0xEF,true,,
"I2C","data",22.730314292,0.0000865,0x65,true,,
"I2C","data",22.730459708,0.0000865,0x11,true,,
"I2C","data",22.730605125,0.0000865,0xE4,true,,
"I2C","data",22.730750542,0.0000865,0xD0,true,,
"I2C","data",22.730895958,0.000086458,0x38,true,,
"I2C","data",22.731041375,0.000086458,0x01,true,,
"I2C","data",22.731182875,0.000086458,0xC8,false,,
"I2C","stop",22.731333417,0.000000042,,,,
"I2C","start",23.686431,0.000000042,,,,
"I2C","address",23.686441208,0.0000865,,true,0x0B,false
"I2C","data",23.686532917,0.000162708,0xC1,true,,
"I2C","start",23.686705792,0.000000042,,,,
"I2C","address",23.686716042,0.000086458,,true,0x0B,true
"I2C","data",23.686861958,0.0000865,0x04,true,,
"I2C","data",23.687006917,0.0000865,0x46,true,,
"I2C","data",23.687152375,0.0000865,0x66,true,,
"I2C","data",23.687297833,0.0000865,0xFA,true,,
"I2C","data",23.687443292,0.0000865,0x63,true,,
"I2C","data",23.687584917,0.0000865,0x6C,false,,
"I2C","stop",23.687735583,0.000000042,,,,
"I2C","start",24.102295542,0.000000042,,,,
"I2C","address",24.10230575,0.0000865,,true,0x0B,false
"I2C","data",24.102397458,0.0002295,0xC2,true,,
"I2C","start",24.102637125,0.000000042,,,,
"I2C","address",24.102647375,0.000086458,,true,0x0B,true
"I2C","data",24.102791792,0.0000865,0x08,true,,
"I2C","data",24.10293625,0.0000865,0x01,true,,
"I2C","data",24.103081583,0.000086458,0x00,true,,
"I2C","data",24.103226833,0.0000865,0x00,true,,
"I2C","data",24.103372167,0.000086458,0x00,true,,
"I2C","data",24.103517458,0.000086458,0x55,true,,
"I2C","data",24.103662833,0.000086458,0x00,true,,
"I2C","data",24.103808208,0.0000865,0x00,true,,
"I2C","data",24.103953625,0.000086458,0x01,true,,
"I2C","data",24.104095208,0.0000865,0xAE,false,,
"I2C","stop",24.104245875,0.000000042,,,,
"I2C","start",24.702794292,0.000000042,,,,
"I2C","address",24.7028045,0.0000865,,true,0x0B,false
"I2C","data",24.702896208,0.000179542,0xD5,true,,
"I2C","start",24.703085917,0.000000042,,,,
"I2C","address",24.703096125,0.0000865,,true,0x0B,true
"I2C","data",24.703281583,0.000086458,0x00,true,,
"I2C","data",24.703489625,0.000086458,0x00,true,,
"I2C","data",24.703689042,0.000086458,0x4E,false,,
"I2C","stop",24.703839667,0.000000042,,,,
"I2C","start",24.704643708,0.000000042,,,,
"I2C","address",24.704653917,0.0000865,,true,0x0B,false
"I2C","data",24.704745625,0.000177542,0xD3,true,,
"I2C","data",24.704928375,0.000131583,0x00,true,,
"I2C","data",24.705065167,0.000134,0x00,true,,
"I2C","data",24.705204375,0.000133042,0x81,true,,
"I2C","stop",24.705347833,0.000000042,,,,
"I2C","start",24.705360875,0.000000042,,,,
"I2C","address",24.705371083,0.0000865,,true,0x0B,false
"I2C","data",24.705462792,0.00020825,0x00,true,,
"I2C","data",24.705676292,0.000131458,0x51,true,,
"I2C","data",24.705812958,0.000133875,0x00,true,,
"I2C","data",24.705952083,0.000132958,0x0A,true,,
"I2C","stop",24.7060955,0.000000042,,,,
"I2C","start",24.706350333,0.000000042,,,,
"I2C","address",24.706360542,0.0000865,,true,0x0B,false
"I2C","data",24.70645225,0.000946208,0x23,true,,
"I2C","start",24.707408667,0.000000042,,,,
"I2C","address",24.707418875,0.0000865,,true,0x0B,true
"I2C","data",24.707563792,0.000086458,0x04,true,,
"I2C","data",24.707708208,0.000086458,0x00,true,,
"I2C","data",24.707853583,0.0000865,0x00,true,,
"I2C","data",24.707999,0.000086458,0x00,true,,
"I2C","data",24.708144375,0.0000865,0x00,true,,
"I2C","data",24.708285958,0.0000865,0x54,false,,
"I2C","stop",24.708436583,0.000000042,,,,
"I2C","start",24.7095495,0.000000042,,,,
"I2C","address",24.70955975,0.000086458,,true,0x0B,false
"I2C","data",24.709651417,0.000157083,0x00,true,,
"I2C","data",24.709813708,0.000131542,0x53,true,,
"I2C","data",24.7099505,0.000133958,0x00,true,,
"I2C","data",24.710089667,0.000133042,0x20,true,,
"I2C","stop",24.710233125,0.000000042,,,,
"I2C","start",24.710240208,0.000000042,,,,
"I2C","address",24.710250417,0.0000865,,true,0x0B,false
"I2C","data",24.710342125,0.001196583,0x23,true,,
"I2C","start",24.711548875,0.000000042,,,,
"I2C","address",24.711559083,0.0000865,,true,0x0B,true
"I2C","data",24.711751375,0.0000865,0x04,true,,
"I2C","data",24.711953708,0.000086458,0x00,true,,
"I2C","data",24.712099625,0.000086458,0x00,true,,
"I2C","data",24.712244917,0.0000865,0x00,true,,
"I2C","data",24.71239025,0.000086458,0x00,true,,
"I2C","data",24.71253175,0.0000865,0x54,false,,
"I2C","stop",24.712682292,0.000000042,,,,
"I2C","start",24.712701875,0.000000042,,,,
"I2C","address",24.712712083,0.0000865,,true,0x0B,false
"I2C","data",24.712803792,0.000214,0x00,true,,
"I2C","data",24.713023,0.000131083,0x54,true,,
"I2C","data",24.713159292,0.000134,0x00,true,,
"I2C","data",24.7132985,0.000133,0x4B,true,,
"I2C","stop",24.713441917,0.000000042,,,,
"I2C","start",24.714625375,0.000000042,,,,
"I2C","address",24.714635583,0.0000865,,true,0x0B,false
"I2C","data",24.714727292,0.00075575,0x23,true,,
"I2C","start",24.715493208,0.000000042,,,,
"I2C","address",24.715503417,0.0000865,,true,0x0B,true
"I2C","data",24.71564825,0.0000865,0x04,true,,
"I2C","data",24.715792708,0.0000865,0x86,true,,
"I2C","data",24.715938083,0.000086458,0x03,true,,
"I2C","data",24.7160835,0.000086458,0x06,true,,
"I2C","data",24.716228917,0.0000865,0x00,true,,
"I2C","data",24.716370542,0.0000865,0xD2,false,,
"I2C","stop",24.716521167,0.000000042,,,,
"I2C","start",24.716537,0.000000042,,,,
"I2C","address",24.71654725,0.000086458,,true,0x0B,false
"I2C","data",24.716638958,0.00021775,0x00,true,,
"I2C","data",24.716861958,0.000131083,0x55,true,,
"I2C","data",24.71699825,0.000134,0x00,true,,
"I2C","data",24.717137458,0.000133,0x5E,true,,
"I2C","stop",24.717280875,0.000000042,,,,
"I2C","start",24.717288333,0.000000042,,,,
"I2C","address",24.717298542,0.0000865,,true,0x0B,false
"I2C","data",24.71739025,0.001204667,0x23,true,,
"I2C","start",24.718605125,0.000000042,,,,
"I2C","address",24.718615333,0.0000865,,true,0x0B,true
"I2C","data",24.718760167,0.0000865,0x02,true,,
"I2C","data",24.718904625,0.0000865,0x10,true,,
"I2C","data",24.719115,0.0000865,0x08,true,,
"I2C","data",24.719314375,0.000086458,0x16,true,,
"I2C","data",24.719460625,0.0000865,0x16,true,,
"I2C","data",24.719602083,0.0000865,0x16,false,,
"I2C","stop",24.719744583,0.000000042,,,,
"I2C","start",24.7226055,0.000000042,,,,
"I2C","address",24.72261575,0.000086458,,true,0x0B,false
"I2C","data",24.722707458,0.000170833,0x09,true,,
"I2C","start",24.722888458,0.000000042,,,,
"I2C","address",24.722898708,0.000086458,,true,0x0B,true
"I2C","data",24.723041667,0.0000865,0x3D,true,,
"I2C","data",24.723185083,0.000086458,0x30,true,,
"I2C","data",24.723327042,0.0000865,0xEB,false,,
"I2C","stop",24.723477583,0.000000042,,,,
"I2C","start",24.724522458,0.000000042,,,,
"I2C","address",24.724532667,0.0000865,,true,0x0B,false
"I2C","data",24.724624375,0.000170375,0x0A,true,,
"I2C","start",24.724804917,0.000000042,,,,
"I2C","address",24.724815167,0.000086458,,true,0x0B,true
"I2C","data",24.724958042,0.0000865,0x01,true,,
"I2C","data",24.7251015,0.0000865,0xFC,true,,
"I2C","data",24.725243542,0.000086458,0xBE,false,,
"I2C","stop",24.725394125,0.000000042,,,,
"I2C","start",24.725412458,0.000000042,,,,
"I2C","address",24.725422667,0.0000865,,true,0x0B,false
"I2C","data",24.725514375,0.000222458,0x10,true,,
"I2C","start",24.725747,0.000000042,,,,
"I2C","address",24.72575725,0.000086458,,true,0x0B,true
"I2C","data",24.725900167,0.0000865,0xDA,true,,
"I2C","data",24.726043625,0.0000865,0x04,true,,
"I2C","data",24.726185667,0.000086458,0x8E,false,,
"I2C","stop",24.726336208,0.000000042,,,,
"I2C","start",24.726466,0.000000042,,,,
"I2C","address",24.72647625,0.000086458,,true,0x0B,false
"I2C","data",24.726567958,0.000171208,0x0F,true,,
"I2C","start",24.726749333,0.000000042,,,,
"I2C","address",24.726759542,0.0000865,,true,0x0B,true
"I2C","data",24.7269575,0.0000865,0x4E,true,,
"I2C","data",24.727157917,0.0000865,0x04,true,,
"I2C","data",24.727299875,0.0000865,0x8E,false,,
"I2C","stop",24.727450375,0.000000042,,,,
"I2C","start",24.72746175,0.000000042,,,,
"I2C","address",24.727471958,0.0000865,,true,0x0B,false
"I2C","data",24.727563667,0.000227792,0x08,true,,
"I2C","start",24.727801667,0.000000042,,,,
"I2C","address",24.727811875,0.0000865,,true,0x0B,true
"I2C","data",24.72795525,0.000086458,0xB0,true,,
"I2C","data",24.728098708,0.0000865,0x0B,true,,
"I2C","data",24.728240792,0.000086458,0x03,false,,
"I2C","stop",24.728391375,0.000000042,,,,
"I2C","start",24.729580875,0.000000042,,,,
"I2C","address",24.729591083,0.0000865,,true,0x0B,false
"I2C","data",24.729682792,0.000167625,0x0D,true,,
"I2C","start",24.729860625,0.000000042,,,,
"I2C","address",24.729870833,0.000086458,,true,0x0B,true
"I2C","data",24.73001425,0.000086458,0x59,true,,
"I2C","data",24.730157667,0.000086458,0x00,true,,
"I2C","data",24.730299583,0.0000865,0x82,false,,
"I2C","stop",24.730450083,0.000000042,,,,
"I2C","start",24.730461958,0.000000042,,,,
"I2C","address",24.730472167,0.0000865,,true,0x0B,false
"I2C","data",24.730563875,0.000288625,0x51,true,,
"I2C","start",24.730862667,0.000000042,,,,
"I2C","address",24.730872875,0.0000865,,true,0x0B,true
"I2C","data",24.73101775,0.0000865,0x04,true,,
"I2C","data",24.731162208,0.000086458,0x00,true,,
"I2C","data",24.731307625,0.0000865,0x00,true,,
"I2C","data",24.731452958,0.0000865,0x00,true,,
"I2C","data",24.731598292,0.0000865,0x00,true,,
"I2C","data",24.731739792,0.000086458,0xDA,false,,
"I2C","stop",24.731890292,0.000000042,,,,
"I2C","start",24.731916833,0.000000042,,,,
"I2C","address",24.731927042,0.0000865,,true,0x0B,false
"I2C","data",24.73201875,0.000228542,0xD2,true,,
"I2C","start",24.7322575,0.000000042,,,,
"I2C","address",24.732267708,0.0000865,,true,0x0B,true
"I2C","data",24.732410667,0.0000865,0x00,true,,
"I2C","data",24.732554125,0.0000865,0x00,true,,
"I2C","data",24.732696167,0.0000865,0x2C,false,,
"I2C","stop",24.73284675,0.000000042,,,,
"I2C","start",24.732857375,0.000000042,,,,
"I2C","address",24.732867583,0.0000865,,true,0x0B,false
"I2C","data",24.732959292,0.000221583,0x3F,true,,
"I2C","start",24.733191083,0.000000042,,,,
"I2C","address",24.733201292,0.0000865,,true,0x0B,true
"I2C","data",24.73334425,0.0000865,0x19,true,,
"I2C","data",24.73348775,0.0000865,0x10,true,,
"I2C","data",24.733629792,0.0000865,0x2C,false,,
"I2C","stop",24.733780417,0.000000042,,,,
"I2C","start",24.734618125,0.000000042,,,,
"I2C","address",24.734628333,0.0000865,,true,0x0B,false
"I2C","data",24.734720042,0.000160625,0x3E,true,,
"I2C","start",24.734890875,0.000000042,,,,
"I2C","address",24.734901083,0.0000865,,true,0x0B,true
"I2C","data",24.735044,0.0000865,0x18,true,,
"I2C","data",24.735187458,0.0000865,0x10,true,,
"I2C","data",24.7353295,0.0000865,0x2F,false,,
"I2C","stop",24.735480083,0.000000042,,,,
"I2C","start",24.735491125,0.000000042,,,,
"I2C","address",24.735501333,0.0000865,,true,0x0B,false
"I2C","data",24.735593042,0.000217125,0x3D,true,,
"I2C","start",24.735820333,0.000000042,,,,
"I2C","address",24.735830583,0.000086458,,true,0x0B,true
"I2C","data",24.735973417,0.0000865,0x0C,true,,
"I2C","data",24.736116833,0.000086458,0x10,true,,
"I2C","data",24.736258875,0.0000865,0x16,false,,
"I2C","stop",24.7364095,0.000000042,,,,
"I2C","start",24.736434417,0.000000042,,,,
"I2C","address",24.736444625,0.0000865,,true,0x0B,false
"I2C","data",24.736536333,0.0002035,0x3F,true,,
"I2C","start",24.73675,0.000000042,,,,
"I2C","address",24.736760208,0.0000865,,true,0x0B,true
"I2C","data",24.736903167,0.0000865,0x19,true,,
"I2C","data",24.737046583,0.000086458,0x10,true,,
"I2C","data",24.737188542,0.0000865,0x2C,false,,
"I2C","stop",24.737339083,0.000000042,,,,
"I2C","start",24.737352875,0.000000042,,,,
"I2C","address",24.737363083,0.0000865,,true,0x0B,false
"I2C","data",24.737454792,0.000214458,0x3E,true,,
"I2C","start",24.737679417,0.000000042,,,,
"I2C","address",24.737689625,0.0000865,,true,0x0B,true
"I2C","data",24.737832625,0.0000865,0x18,true,,
"I2C","data",24.737976167,0.000086458,0x10,true,,
"I2C","data",24.738118208,0.0000865,0x2F,false,,
"I2C","stop",24.738268792,0.000000042,,,,
"I2C","start",24.742620417,0.000000042,,,,
"I2C","address",24.742630667,0.000086458,,true,0x0B,false
"I2C","data",24.742722375,0.000159417,0x3D,true,,
"I2C","start",24.742891958,0.000000042,,,,
"I2C","address",24.742902167,0.0000865,,true,0x0B,true
"I2C","data",24.743045583,0.0000865,0x0C,true,,
"I2C","data",24.743189083,0.0000865,0x10,true,,
"I2C","data",24.743331167,0.0000865,0x16,false,,
"I2C","stop",24.743481792,0.000000042,,,,
"I2C","start",25.72279375,0.000000042,,,,
"I2C","address",25.722803958,0.0000865,,true,0x0B,false
"I2C","data",25.722895667,0.000179292,0xD5,true,,
"I2C","start",25.723085167,0.000000042,,,,
"I2C","address",25.723095375,0.0000865,,true,0x0B,true
"I2C","data",25.723281,0.0000865,0x00,true,,
"I2C","data",25.723423958,0.0000865,0x00,true,,
"I2C","data",25.723565958,0.0000865,0x4E,false,,
"I2C","stop",25.723716542,0.000000042,,,,
"I2C","start",25.7247365,0.000000042,,,,
"I2C","address",25.724746708,0.0000865,,true,0x0B,false
"I2C","data",25.724838417,0.000177458,0xD3,true,,
"I2C","data",25.725021125,0.0001315,0x00,true,,
"I2C","data",25.725157875,0.000133917,0x00,true,,
"I2C","data",25.725297,0.000133083,0x81,true,,
"I2C","stop",25.7254405,0.000000042,,,,
"I2C","start",25.725458333,0.000000042,,,,
"I2C","address",25.725468542,0.000086458,,true,0x0B,false
"I2C","data",25.72556025,0.000203833,0x00,true,,
"I2C","data",25.725769292,0.000200958,0x51,true,,
"I2C","data",25.7259755,0.000196083,0x00,true,,
"I2C","data",25.726176792,0.000133458,0x0A,true,,
"I2C","stop",25.726320667,0.000000042,,,,
"I2C","start",25.726576875,0.000000042,,,,
"I2C","address",25.726587083,0.0000865,,true,0x0B,false
"I2C","data",25.726678792,0.000945417,0x23,true,,
"I2C","start",25.727634417,0.000000042,,,,
"I2C","address",25.727644625,0.0000865,,true,0x0B,true
"I2C","data",25.727789458,0.000086458,0x04,true,,
"I2C","data",25.727933833,0.0000865,0x00,true,,
"I2C","data",25.728079167,0.0000865,0x00,true,,
"I2C","data",25.728224625,0.0000865,0x00,true,,
"I2C","data",25.728370083,0.000086458,0x00,true,,
"I2C","data",25.728511667,0.0000865,0x54,false,,
"I2C","stop",25.728662333,0.000000042,,,,
"I2C","start",25.729806875,0.000000042,,,,
"I2C","address",25.729817083,0.0000865,,true,0x0B,false
"I2C","data",25.729908792,0.000157292,0x00,true,,
"I2C","data",25.730071292,0.000131583,0x53,true,,
"I2C","data",25.730208083,0.000134,0x00,true,,
"I2C","data",25.730347292,0.000133042,0x20,true,,
"I2C","stop",25.73049075,0.000000042,,,,
"I2C","start",25.730498667,0.000000042,,,,
"I2C","address",25.730508875,0.0000865,,true,0x0B,false
"I2C","data",25.730600583,0.001196375,0x23,true,,
"I2C","start",25.731807125,0.000000042,,,,
"I2C","address",25.731817333,0.0000865,,true,0x0B,true
"I2C","data",25.731961708,0.000086458,0x04,true,,
"I2C","data",25.732106042,0.0000865,0x00,true,,
"I2C","data",25.732251417,0.0000865,0x00,true,,
"I2C","data",25.732396875,0.0000865,0x00,true,,
"I2C","data",25.732542333,0.0000865,0x00,true,,
"I2C","data",25.732683958,0.000086458,0x54,false,,
"I2C","stop",25.732834625,0.000000042,,,,
"I2C","start",25.732853042,0.000000042,,,,
"I2C","address",25.732863292,0.000086458,,true,0x0B,false
"I2C","data",25.732955,0.000215042,0x00,true,,
"I2C","data",25.733175292,0.000131042,0x54,true,,
"I2C","data",25.733311542,0.000133917,0x00,true,,
"I2C","data",25.733450708,0.000214792,0x4B,true,,
"I2C","stop",25.733675958,0.000000042,,,,
"I2C","start",25.7348745,0.000000042,,,,
"I2C","address",25.73488475,0.000086458,,true,0x0B,false
"I2C","data",25.734976458,0.000468958,0x23,true,,
"I2C","start",25.735455625,0.000000042,,,,
"I2C","address",25.735465833,0.000086458,,true,0x0B,true
"I2C","data",25.735610292,0.0000865,0x04,true,,
"I2C","data",25.735754708,0.000086458,0x86,true,,
"I2C","data",25.735900083,0.000086458,0x03,true,,
"I2C","data",25.736045458,0.000086458,0x06,true,,
"I2C","data",25.736190792,0.0000865,0x00,true,,
"I2C","data",25.736332375,0.0000865,0xD2,false,,
"I2C","stop",25.736483042,0.000000042,,,,
"I2C","start",25.736523417,0.000000042,,,,
"I2C","address",25.736533667,0.000086458,,true,0x0B,false
"I2C","data",25.736625375,0.000193375,0x00,true,,
"I2C","data",25.736823958,0.000131125,0x55,true,,
"I2C","data",25.736960333,0.000134,0x00,true,,
"I2C","data",25.737099542,0.000133042,0x5E,true,,
"I2C","stop",25.737243042,0.000000042,,,,
"I2C","start",25.737250542,0.000000042,,,,
"I2C","address",25.73726075,0.0000865,,true,0x0B,false
"I2C","data",25.737352458,0.001205,0x23,true,,
"I2C","start",25.738567625,0.000000042,,,,
"I2C","address",25.738577875,0.000086458,,true,0x0B,true
"I2C","data",25.738722792,0.000086458,0x02,true,,
"I2C","data",25.73886725,0.000086458,0x10,true,,
"I2C","data",25.739012667,0.0000865,0x08,true,,
"I2C","data",25.739154292,0.000086458,0x16,true,,
"I2C","data",25.739300167,0.0000865,0x16,true,,
"I2C","data",25.73944175,0.0000865,0x16,false,,
"I2C","stop",25.73958425,0.000000042,,,,
"I2C","start",25.742794042,0.000000042,,,,
"I2C","address",25.74280425,0.0000865,,true,0x0B,false
"I2C","data",25.742895958,0.0001705,0x09,true,,
"I2C","start",25.743076667,0.000000042,,,,
"I2C","address",25.743086875,0.0000865,,true,0x0B,true
"I2C","data",25.743229792,0.0000865,0x37,true,,
"I2C","data",25.743373333,0.000086458,0x30,true,,
"I2C","data",25.743515417,0.0000865,0x69,false,,
"I2C","stop",25.743666042,0.000000042,,,,
"I2C","start",25.744613542,0.000000042,,,,
"I2C","address",25.74462375,0.0000865,,true,0x0B,false
"I2C","data",25.744715458,0.000171083,0x0A,true,,
"I2C","start",25.74489675,0.000000042,,,,
"I2C","address",25.744906958,0.0000865,,true,0x0B,true
"I2C","data",25.745049958,0.0000865,0xF9,true,,
"I2C","data",25.745193417,0.0000865,0xFB,true,,
"I2C","data",25.7453355,0.0000865,0x17,false,,
"I2C","stop",25.745486125,0.000000042,,,,
"I2C","start",25.745503167,0.000000042,,,,
"I2C","address",25.745513417,0.000086458,,true,0x0B,false
"I2C","data",25.745605125,0.00022375,0x10,true,,
"I2C","start",25.745839083,0.000000042,,,,
"I2C","address",25.745849292,0.000086458,,true,0x0B,true
"I2C","data",25.745992292,0.000086458,0xDA,true,,
"I2C","data",25.74613575,0.0000865,0x04,true,,
"I2C","data",25.746277792,0.0000865,0x8E,false,,
"I2C","stop",25.746428458,0.000000042,,,,
"I2C","start",25.746510833,0.000000042,,,,
"I2C","address",25.746521042,0.0000865,,true,0x0B,false
"I2C","data",25.74661275,0.000171875,0x0F,true,,
"I2C","start",25.746794792,0.000000042,,,,
"I2C","address",25.746805042,0.000086458,,true,0x0B,true
"I2C","data",25.746948,0.000086458,0x4E,true,,
"I2C","data",25.7470915,0.0000865,0x04,true,,
"I2C","data",25.747233583,0.000086458,0x8E,false,,
"I2C","stop",25.747384167,0.000000042,,,,
"I2C","start",25.747394125,0.000000042,,,,
"I2C","address",25.747404333,0.000086458,,true,0x0B,false
"I2C","data",25.747496042,0.0002295,0x08,true,,
"I2C","start",25.747735708,0.000000042,,,,
"I2C","address",25.747745917,0.0000865,,true,0x0B,true
"I2C","data",25.747889417,0.0000865,0xB0,true,,
"I2C","data",25.748032875,0.0000865,0x0B,true,,
"I2C","data",25.748174875,0.0000865,0x03,false,,
"I2C","stop",25.748325417,0.000000042,,,,
"I2C","start",25.749747125,0.000000042,,,,
"I2C","address",25.749757333,0.0000865,,true,0x0B,false
"I2C","data",25.749849042,0.000167583,0x0D,true,,
"I2C","start",25.750026833,0.000000042,,,,
"I2C","address",25.750037042,0.000086458,,true,0x0B,true
"I2C","data",25.750180458,0.0000865,0x59,true,,
"I2C","data",25.750324,0.0000865,0x00,true,,
"I2C","data",25.750466083,0.000086458,0x82,false,,
"I2C","stop",25.750616708,0.000000042,,,,
"I2C","start",25.750636083,0.000000042,,,,
"I2C","address",25.750646333,0.000086458,,true,0x0B,false
"I2C","data",25.750738042,0.000281042,0x51,true,,
"I2C","start",25.751029292,0.000000042,,,,
"I2C","address",25.7510395,0.0000865,,true,0x0B,true
"I2C","data",25.751184292,0.0000865,0x04,true,,
"I2C","data",25.751328667,0.000086458,0x00,true,,
"I2C","data",25.751474,0.0000865,0x00,true,,
"I2C","data",25.751619375,0.0000865,0x00,true,,
"I2C","data",25.751764792,0.0000865,0x00,true,,
"I2C","data",25.751906375,0.0000865,0xDA,false,,
"I2C","stop",25.752057042,0.000000042,,,,
"I2C","start",25.752073083,0.000000042,,,,
"I2C","address",25.752083292,0.0000865,,true,0x0B,false
"I2C","data",25.752175,0.000238917,0xD2,true,,
"I2C","start",25.752424125,0.000000042,,,,
"I2C","address",25.752434333,0.0000865,,true,0x0B,true
"I2C","data",25.752577208,0.0000865,0x00,true,,
"I2C","data",25.752720625,0.0000865,0x00,true,,
"I2C","data",25.752862625,0.0000865,0x2C,false,,
"I2C","stop",25.753013208,0.000000042,,,,
"I2C","start",25.753024208,0.000000042,,,,
"I2C","address",25.753034417,0.0000865,,true,0x0B,false
"I2C","data",25.753126125,0.00022125,0x3F,true,,
"I2C","start",25.753357542,0.000000042,,,,
"I2C","address",25.75336775,0.0000865,,true,0x0B,true
"I2C","data",25.753510708,0.0000865,0x16,true,,
"I2C","data",25.753654208,0.000086458,0x10,true,,
"I2C","data",25.75379625,0.0000865,0xEF,false,,
"I2C","stop",25.753946833,0.000000042,,,,
"I2C","start",25.754879083,0.000000042,,,,
"I2C","address",25.754889333,0.000086458,,true,0x0B,false
"I2C","data",25.754981042,0.000159292,0x3E,true,,
"I2C","start",25.7551505,0.000000042,,,,
"I2C","address",25.755160708,0.0000865,,true,0x0B,true
"I2C","data",25.755304167,0.000086458,0x16,true,,
"I2C","data",25.755447667,0.000086458,0x10,true,,
"I2C","data",25.755589708,0.000086458,0xF9,false,,
"I2C","stop",25.755740292,0.000000042,,,,
"I2C","start",25.755750167,0.000000042,,,,
"I2C","address",25.755760417,0.0000865,,true,0x0B,false
"I2C","data",25.755852125,0.0002185,0x3D,true,,
"I2C","start",25.756080833,0.000000042,,,,
"I2C","address",25.756091042,0.000086458,,true,0x0B,true
"I2C","data",25.756234,0.000086458,0x0B,true,,
"I2C","data",25.756377417,0.0000865,0x10,true,,
"I2C","data",25.756519458,0.0000865,0x7D,false,,
"I2C","stop",25.756670042,0.000000042,,,,
"I2C","start",25.756691208,0.000000042,,,,
"I2C","address",25.756701417,0.0000865,,true,0x0B,false
"I2C","data",25.756793125,0.000207167,0x3F,true,,
"I2C","start",25.757010458,0.000000042,,,,
"I2C","address",25.757020708,0.000086458,,true,0x0B,true
"I2C","data",25.75721875,0.0000865,0x16,true,,
"I2C","data",25.757403417,0.0000865,0x10,true,,
"I2C","data",25.757547958,0.000086458,0xEF,false,,
"I2C","stop",25.757701375,0.000000042,,,,
"I2C","start",25.757711667,0.000000042,,,,
"I2C","address",25.757721875,0.0000865,,true,0x0B,false
"I2C","data",25.757813583,0.000175375,0x3E,true,,
"I2C","start",25.757999167,0.000000042,,,,
"I2C","address",25.758009375,0.0000865,,true,0x0B,true
"I2C","data",25.758155583,0.0000865,0x16,true,,
"I2C","data",25.758301917,0.0000865,0x10,true,,
"I2C","data",25.758446875,0.0000865,0xF9,false,,
"I2C","stop",25.758600875,0.000000042,,,,
"I2C","start",25.762835625,0.000000042,,,,
"I2C","address",25.762845833,0.0000865,,true,0x0B,false
"I2C","data",25.762937542,0.000242333,0x3D,true,,
"I2C","start",25.763190083,0.000000042,,,,
"I2C","address",25.763200292,0.0000865,,true,0x0B,true
"I2C","data",25.763363875,0.000086458,0x13,true,,
"I2C","data",25.763511708,0.000086458,0x10,true,,
"I2C","data",25.763657125,0.0000865,0x82,false,,
"I2C","stop",25.763811625,0.000000042,,,,
"I2C","start",26.743047583,0.000000042,,,,
"I2C","address",26.743057792,0.0000865,,true,0x0B,false
"I2C","data",26.743149542,0.00017925,0xD5,true,,
"I2C","start",26.743339,0.000000042,,,,
"I2C","address",26.743349208,0.000086458,,true,0x0B,true
"I2C","data",26.743534708,0.000086458,0x00,true,,
"I2C","data",26.743677708,0.0000865,0x00,true,,
"I2C","data",26.74381975,0.000086458,0x4E,false,,
"I2C","stop",26.743970333,0.000000042,,,,
"I2C","start",26.744832083,0.000000042,,,,
"I2C","address",26.744842292,0.0000865,,true,0x0B,false
"I2C","data",26.744934,0.000177167,0xD3,true,,
"I2C","data",26.745116375,0.0001315,0x00,true,,
"I2C","data",26.745253125,0.000133917,0x00,true,,
"I2C","data",26.745392292,0.000132917,0x81,true,,
"I2C","stop",26.745535625,0.000000042,,,,
"I2C","start",26.745556417,0.000000042,,,,
"I2C","address",26.745566625,0.0000865,,true,0x0B,false
"I2C","data",26.745658333,0.0002005,0x00,true,,
"I2C","data",26.745864042,0.000131458,0x51,true,,
"I2C","data",26.746000708,0.000133917,0x00,true,,
"I2C","data",26.746139833,0.000133,0x0A,true,,
"I2C","stop",26.74628325,0.000000042,,,,
"I2C","start",26.746720542,0.000000042,,,,
"I2C","address",26.74673075,0.0000865,,true,0x0B,false
"I2C","data",26.746822458,0.000763708,0x23,true,,
"I2C","start",26.747596375,0.000000042,,,,
"I2C","address",26.747606583,0.0000865,,true,0x0B,true
"I2C","data",26.747751417,0.0000865,0x04,true,,
"I2C","data",26.747895875,0.000086458,0x00,true,,
"I2C","data",26.748041208,0.0000865,0x00,true,,
"I2C","data",26.748186542,0.0000865,0x00,true,,
"I2C","data",26.748396375,0.000086458,0x00,true,,
"I2C","data",26.748595583,0.0000865,0x54,false,,
"I2C","stop",26.748746083,0.000000042,,,,
"I2C","start",26.749983333,0.000000042,,,,
"I2C","address",26.749993542,0.0000865,,true,0x0B,false
"I2C","data",26.75008525,0.000157667,0x00,true,,
"I2C","data",26.750248125,0.000131542,0x53,true,,
"I2C","data",26.750384875,0.000133917,0x00,true,,
"I2C","data",26.750524042,0.000132958,0x20,true,,
"I2C","stop",26.750667458,0.000000042,,,,
"I2C","start",26.75067575,0.000000042,,,,
"I2C","address",26.750685958,0.0000865,,true,0x0B,false
"I2C","data",26.750777667,0.0011955,0x23,true,,
"I2C","start",26.751983375,0.000000042,,,,
"I2C","address",26.751993583,0.0000865,,true,0x0B,true
"I2C","data",26.752137958,0.0000865,0x04,true,,
"I2C","data",26.752282375,0.0000865,0x00,true,,
"I2C","data",26.752427667,0.0000865,0x00,true,,
"I2C","data",26.752573,0.0000865,0x00,true,,
"I2C","data",26.752718292,0.000086458,0x00,true,,
"I2C","data",26.752859708,0.0000865,0x54,false,,
"I2C","stop",26.75301025,0.000000042,,,,
"I2C","start",26.753035708,0.000000042,,,,
"I2C","address",26.753045958,0.000086458,,true,0x0B,false
"I2C","data",26.753137667,0.000208042,0x00,true,,
"I2C","data",26.753350958,0.000131042,0x54,true,,
"I2C","data",26.753487208,0.000133958,0x00,true,,
"I2C","data",26.753626375,0.000132875,0x4B,true,,
"I2C","stop",26.753769667,0.000000042,,,,
"I2C","start",26.755074208,0.000000042,,,,
"I2C","address",26.755084417,0.0000865,,true,0x0B,false
"I2C","data",26.755176125,0.0004685,0x23,true,,
"I2C","start",26.755654792,0.000000042,,,,
"I2C","address",26.755665,0.0000865,,true,0x0B,true
"I2C","data",26.755809375,0.0000865,0x04,true,,
"I2C","data",26.755953792,0.0000865,0x86,true,,
"I2C","data",26.75616425,0.000086458,0x03,true,,
"I2C","data",26.75635125,0.0000865,0x06,true,,
"I2C","data",26.756499917,0.0000865,0x00,true,,
"I2C","data",26.75664425,0.0000865,0xD2,false,,
"I2C","stop",26.756798083,0.000000042,,,,
"I2C","start",26.7568325,0.000000042,,,,
"I2C","address",26.756842708,0.0000865,,true,0x0B,false
"I2C","data",26.756934417,0.00016025,0x00,true,,
"I2C","data",26.757099917,0.000133917,0x55,true,,
"I2C","data",26.757239083,0.000136792,0x00,true,,
"I2C","data",26.757381125,0.000135875,0x5E,true,,
"I2C","stop",26.757527417,0.000000042,,,,
"I2C","start",26.757535292,0.000000042,,,,
"I2C","address",26.7575455,0.0000865,,true,0x0B,false
"I2C","data",26.757637208,0.001161708,0x23,true,,
"I2C","start",26.758809125,0.000000042,,,,
"I2C","address",26.758819333,0.0000865,,true,0x0B,true
"I2C","data",26.758966625,0.0000865,0x02,true,,
"I2C","data",26.759113958,0.0000865,0x10,true,,
"I2C","data",26.75926175,0.0000865,0x08,true,,
"I2C","data",26.759406667,0.0000865,0x16,true,,
"I2C","data",26.759555875,0.0000865,0x16,true,,
"I2C","data",26.759700333,0.000086458,0x16,false,,
"I2C","stop",26.759845167,0.000000042,,,,
"I2C","start",26.763059708,0.000000042,,,,
"I2C","address",26.763069917,0.0000865,,true,0x0B,false
"I2C","data",26.763161625,0.000173625,0x09,true,,
"I2C","start",26.763345458,0.000000042,,,,
"I2C","address",26.763355667,0.0000865,,true,0x0B,true
"I2C","data",26.763501417,0.0000865,0x38,true,,
"I2C","data",26.76364725,0.0000865,0x30,true,,
"I2C","data",26.763983333,0.0000865,0xAA,false,,
"I2C","stop",26.764200917,0.000000042,,,,
"I2C","start",26.764952625,0.000000042,,,,
"I2C","address",26.764962875,0.000086458,,true,0x0B,false
"I2C","data",26.765054542,0.000173292,0x0A,true,,
"I2C","start",26.765238,0.000000042,,,,
"I2C","address",26.765248208,0.0000865,,true,0x0B,true
"I2C","data",26.7653945,0.000086458,0xFA,true,,
"I2C","data",26.765540333,0.0000865,0xFB,true,,
"I2C","data",26.76568575,0.000086458,0x28,false,,
"I2C","stop",26.765840125,0.000000042,,,,
"I2C","start",26.7658575,0.000000042,,,,
"I2C","address",26.765867708,0.0000865,,true,0x0B,false
"I2C","data",26.765959417,0.000213833,0x10,true,,
"I2C","start",26.766183458,0.000000042,,,,
"I2C","address",26.766193667,0.0000865,,true,0x0B,true
"I2C","data",26.766340458,0.000086458,0xDA,true,,
"I2C","data",26.766486292,0.0000865,0x04,true,,
"I2C","data",26.766631708,0.0000865,0x8E,false,,
"I2C","stop",26.766786125,0.000000042,,,,
"I2C","start",26.766863917,0.000000042,,,,
"I2C","address",26.766874125,0.0000865,,true,0x0B,false
"I2C","data",26.766965833,0.000174375,0x0F,true,,
"I2C","start",26.767150375,0.000000042,,,,
"I2C","address",26.767160583,0.0000865,,true,0x0B,true
"I2C","data",26.767307375,0.0000865,0x4E,true,,
"I2C","data",26.767453708,0.0000865,0x04,true,,
"I2C","data",26.767608167,0.0000865,0x8E,false,,
"I2C","stop",26.767767833,0.000000042,,,,
"I2C","start",26.767777625,0.000000042,,,,
"I2C","address",26.767787833,0.0000865,,true,0x0B,false
"I2C","data",26.767879542,0.000220458,0x08,true,,
"I2C","start",26.768110167,0.000000042,,,,
"I2C","address",26.768120375,0.0000865,,true,0x0B,true
"I2C","data",26.768266667,0.000086458,0xB0,true,,
"I2C","data",26.768413917,0.0000865,0x0B,true,,
"I2C","data",26.768558833,0.000086458,0x03,false,,
"I2C","stop",26.768713708,0.000000042,,,,
"I2C","start",26.770026167,0.000000042,,,,
"I2C","address",26.770036417,0.000086458,,true,0x0B,false
"I2C","data",26.770128083,0.000182958,0x0D,true,,
"I2C","start",26.77032125,0.000000042,,,,
"I2C","address",26.770331458,0.0000865,,true,0x0B,true
"I2C","data",26.770478083,0.0000865,0x59,true,,
"I2C","data",26.770623833,0.000086458,0x00,true,,
"I2C","data",26.770769042,0.0000865,0x82,false,,
"I2C","stop",26.770922958,0.000000042,,,,
"I2C","start",26.770934,0.000000042,,,,
"I2C","address",26.770944208,0.0000865,,true,0x0B,false
"I2C","data",26.771035917,0.000280375,0x51,true,,
"I2C","start",26.771326458,0.000000042,,,,
"I2C","address",26.771336708,0.000086458,,true,0x0B,true
"I2C","data",26.771484417,0.0000865,0x04,true,,
"I2C","data",26.771633083,0.0000865,0x00,true,,
"I2C","data",26.77178175,0.0000865,0x00,true,,
"I2C","data",26.771930417,0.0000865,0x00,true,,
"I2C","data",26.772078583,0.0000865,0x00,true,,
"I2C","data",26.772223417,0.0000865,0xDA,false,,
"I2C","stop",26.772377875,0.000000042,,,,
"I2C","start",26.772407292,0.000000042,,,,
"I2C","address",26.7724175,0.0000865,,true,0x0B,false
"I2C","data",26.772509208,0.000216125,0xD2,true,,
"I2C","start",26.7727355,0.000000042,,,,
"I2C","address",26.77274575,0.000086458,,true,0x0B,true
"I2C","data",26.772892458,0.0000865,0x00,true,,
"I2C","data",26.773038708,0.000086458,0x00,true,,
"I2C","data",26.773183042,0.0000865,0x2C,false,,
"I2C","stop",26.773337333,0.000000042,,,,
"I2C","start",26.77335825,0.000000042,,,,
"I2C","address",26.773368458,0.000086458,,true,0x0B,false
"I2C","data",26.773460167,0.000201958,0x3F,true,,
"I2C","start",26.773672292,0.000000042,,,,
"I2C","address",26.773682542,0.000086458,,true,0x0B,true
"I2C","data",26.773829292,0.000086458,0x14,true,,
"I2C","data",26.773975125,0.0000865,0x10,true,,
"I2C","data",26.7741205,0.0000865,0xC5,false,,
"I2C","stop",26.774274958,0.000000042,,,,
"I2C","start",26.775151708,0.000000042,,,,
"I2C","address",26.775161917,0.0000865,,true,0x0B,false
"I2C","data",26.775253625,0.000162583,0x3E,true,,
"I2C","start",26.775426375,0.000000042,,,,
"I2C","address",26.775436583,0.0000865,,true,0x0B,true
"I2C","data",26.775583375,0.000086458,0x13,true,,
"I2C","data",26.775732583,0.000086458,0x10,true,,
"I2C","data",26.775966875,0.0000865,0xB8,false,,
"I2C","stop",26.776300583,0.000000042,,,,
"I2C","start",26.776907917,0.000000042,,,,
"I2C","address",26.776918167,0.000086458,,true,0x0B,false
"I2C","data",26.777009875,0.000159292,0x3D,true,,
"I2C","start",26.777179333,0.000000042,,,,
"I2C","address",26.777189583,0.000086458,,true,0x0B,true
"I2C","data",26.777332875,0.0000865,0x11,true,,
"I2C","data",26.777476292,0.0000865,0x10,true,,
"I2C","data",26.777618208,0.0000865,0xA8,false,,
"I2C","stop",26.777768708,0.000000042,,,,
"I2C","start",26.777779625,0.000000042,,,,
"I2C","address",26.777789875,0.000086458,,true,0x0B,false
"I2C","data",26.777881542,0.000217375,0x3F,true,,
"I2C","start",26.778109125,0.000000042,,,,
"I2C","address",26.778119333,0.0000865,,true,0x0B,true
"I2C","data",26.77826225,0.0000865,0x14,true,,
"I2C","data",26.778405708,0.000086458,0x10,true,,
"I2C","data",26.778547625,0.0000865,0xC5,false,,
"I2C","stop",26.778698083,0.000000042,,,,
"I2C","start",26.783116542,0.000000042,,,,
"I2C","address",26.78312675,0.0000865,,true,0x0B,false
"I2C","data",26.783218458,0.000159625,0x3E,true,,
"I2C","start",26.78338825,0.000000042,,,,
"I2C","address",26.783398458,0.0000865,,true,0x0B,true
"I2C","data",26.783541875,0.0000865,0x13,true,,
"I2C","data",26.783685333,0.0000865,0x10,true,,
"I2C","data",26.783827375,0.0000865,0xB8,false,,
"I2C","stop",26.783977958,0.000000042,,,,
"I2C","start",26.784964708,0.000000042,,,,
"I2C","address",26.784974917,0.0000865,,true,0x0B,false
"I2C","data",26.785066625,0.000160125,0x3D,true,,
"I2C","start",26.785236917,0.000000042,,,,
"I2C","address",26.785247125,0.0000865,,true,0x0B,true
"I2C","data",26.785390458,0.0000865,0x11,true,,
"I2C","data",26.785533833,0.0000865,0x10,true,,
"I2C","data",26.78567575,0.0000865,0xA8,false,,
"I2C","stop",26.785826208,0.000000042,,,,
"I2C","start",27.763228083,0.000000042,,,,
"I2C","address",27.763238292,0.0000865,,true,0x0B,false
"I2C","data",27.76333,0.000182625,0xD5,true,,
"I2C","start",27.763522792,0.000000042,,,,
"I2C","address",27.763533,0.0000865,,true,0x0B,true
"I2C","data",27.763714208,0.0000865,0x00,true,,
"I2C","data",27.763860083,0.000086458,0x00,true,,
"I2C","data",27.764005,0.0000865,0x4E,false,,
"I2C","stop",27.764158958,0.000000042,,,,
"I2C","start",27.765166292,0.000000042,,,,
"I2C","address",27.7651765,0.000086458,,true,0x0B,false
"I2C","data",27.765268208,0.000177417,0xD3,true,,
"I2C","data",27.765450833,0.000131458,0x00,true,,
"I2C","data",27.7655875,0.000133917,0x00,true,,
"I2C","data",27.765726625,0.000132958,0x81,true,,
"I2C","stop",27.76587,0.000000042,,,,
"I2C","start",27.765884875,0.000000042,,,,
"I2C","address",27.765895083,0.0000865,,true,0x0B,false
"I2C","data",27.765986792,0.0002065,0x00,true,,
"I2C","data",27.7661985,0.0001315,0x51,true,,
"I2C","data",27.766335208,0.000133833,0x00,true,,
"I2C","data",27.76647425,0.000132917,0x0A,true,,
"I2C","stop",27.766617583,0.000000042,,,,
"I2C","start",27.767066792,0.000000042,,,,
"I2C","address",27.767077,0.0000865,,true,0x0B,false
"I2C","data",27.767168708,0.000751833,0x23,true,,
"I2C","start",27.76793075,0.000000042,,,,
"I2C","address",27.767940958,0.0000865,,true,0x0B,true
"I2C","data",27.768085708,0.0000865,0x04,true,,
"I2C","data",27.768230042,0.0000865,0x00,true,,
"I2C","data",27.768375375,0.000086458,0x00,true,,
"I2C","data",27.76852075,0.000086458,0x00,true,,
"I2C","data",27.768666125,0.0000865,0x00,true,,
"I2C","data",27.768807667,0.000086458,0x54,false,,
"I2C","stop",27.76895825,0.000000042,,,,
"I2C","start",27.77023775,0.000000042,,,,
"I2C","address",27.770247958,0.0000865,,true,0x0B,false
"I2C","data",27.770339667,0.000157167,0x00,true,,
"I2C","data",27.770502042,0.000131542,0x53,true,,
"I2C","data",27.770638792,0.000133958,0x00,true,,
"I2C","data",27.770778,0.000201875,0x20,true,,
"I2C","stop",27.770990292,0.000000042,,,,
"I2C","start",27.770998667,0.000000042,,,,
"I2C","address",27.771008875,0.0000865,,true,0x0B,false
"I2C","data",27.771100583,0.001204125,0x23,true,,
"I2C","start",27.772314875,0.000000042,,,,
"I2C","address",27.772325083,0.0000865,,true,0x0B,true
"I2C","data",27.772510625,0.0000865,0x04,true,,
"I2C","data",27.772655083,0.000086458,0x00,true,,
"I2C","data",27.772800458,0.0000865,0x00,true,,
"I2C","data",27.772945875,0.000086458,0x00,true,,
"I2C","data",27.773091292,0.0000865,0x00,true,,
"I2C","data",27.773232833,0.000086458,0x54,false,,
"I2C","stop",27.773383292,0.000000042,,,,
"I2C","start",27.773446125,0.000000042,,,,
"I2C","address",27.773456333,0.000086458,,true,0x0B,false
"I2C","data",27.773548042,0.000170583,0x00,true,,
"I2C","data",27.773723833,0.000131,0x54,true,,
"I2C","data",27.773860042,0.000133958,0x00,true,,
"I2C","data",27.77399925,0.000133,0x4B,true,,
"I2C","stop",27.774142667,0.000000042,,,,
"I2C","start",27.775310125,0.000000042,,,,
"I2C","address",27.775320333,0.0000865,,true,0x0B,false
"I2C","data",27.775412042,0.000469042,0x23,true,,
"I2C","start",27.77589125,0.000000042,,,,
"I2C","address",27.775901458,0.0000865,,true,0x0B,true
"I2C","data",27.776045708,0.0000865,0x04,true,,
"I2C","data",27.776190042,0.000086458,0x86,true,,
"I2C","data",27.776335292,0.000086458,0x03,true,,
"I2C","data",27.776480542,0.0000865,0x06,true,,
"I2C","data",27.776625875,0.000086458,0x00,true,,
"I2C","data",27.776767375,0.0000865,0xD2,false,,
"I2C","stop",27.776917917,0.000000042,,,,
"I2C","start",27.77704325,0.000000042,,,,
"I2C","address",27.777053458,0.0000865,,true,0x0B,false
"I2C","data",27.777145208,0.000157417,0x00,true,,
"I2C","data",27.777307875,0.000131458,0x55,true,,
"I2C","data",27.777444542,0.000133833,0x00,true,,
"I2C","data",27.777583625,0.000132875,0x5E,true,,
"I2C","stop",27.777726917,0.000000042,,,,
"I2C","start",27.777734667,0.000000042,,,,
"I2C","address",27.777744875,0.000086458,,true,0x0B,false
"I2C","data",27.777836583,0.001203875,0x23,true,,
"I2C","start",27.779050667,0.000000042,,,,
"I2C","address",27.779060875,0.000086458,,true,0x0B,true
"I2C","data",27.779253542,0.0000865,0x02,true,,
"I2C","data",27.779455833,0.000086458,0x10,true,,
"I2C","data",27.779601708,0.000086458,0x08,true,,
"I2C","data",27.77974325,0.0000865,0x16,true,,
"I2C","data",27.779889125,0.000086458,0x16,true,,
"I2C","data",27.780030625,0.0000865,0x16,false,,
"I2C","stop",27.780173125,0.000000042,,,,
"I2C","start",27.783315625,0.000000042,,,,
"I2C","address",27.783325833,0.0000865,,true,0x0B,false
"I2C","data",27.783417542,0.000170708,0x09,true,,
"I2C","start",27.783598417,0.000000042,,,,
"I2C","address",27.783608667,0.000086458,,true,0x0B,true
"I2C","data",27.783751583,0.000086458,0x42,true,,
"I2C","data",27.783895042,0.0000865,0x30,true,,
"I2C","data",27.784037083,0.000086458,0x8A,false,,
"I2C","stop",27.784187583,0.000000042,,,,
"I2C","start",27.785239292,0.000000042,,,,
"I2C","address",27.7852495,0.0000865,,true,0x0B,false
"I2C","data",27.785341208,0.000170875,0x0A,true,,
"I2C","start",27.78552225,0.000000042,,,,
"I2C","address",27.785532458,0.0000865,,true,0x0B,true
"I2C","data",27.785675333,0.000086458,0x1F,true,,
"I2C","data",27.785818708,0.0000865,0xFC,true,,
"I2C","data",27.785960708,0.000086458,0x3F,false,,
"I2C","stop",27.786111208,0.000000042,,,,
"I2C","start",27.786127875,0.000000042,,,,
"I2C","address",27.786138125,0.000086458,,true,0x0B,false
"I2C","data",27.786229833,0.000223958,0x10,true,,
"I2C","start",27.786464,0.000000042,,,,
"I2C","address",27.786474208,0.000086458,,true,0x0B,true
"I2C","data",27.786671667,0.0000865,0xDA,true,,
"I2C","data",27.786872542,0.0000865,0x04,true,,
"I2C","data",27.787014583,0.0000865,0x8E,false,,
"I2C","stop",27.787165167,0.000000042,,,,
"I2C","start",27.787178583,0.000000042,,,,
"I2C","address",27.787188792,0.0000865,,true,0x0B,false
"I2C","data",27.7872805,0.000227333,0x0F,true,,
"I2C","start",27.787518042,0.000000042,,,,
"I2C","address",27.78752825,0.0000865,,true,0x0B,true
"I2C","data",27.78767125,0.000086458,0x4D,true,,
"I2C","data",27.787814708,0.0000865,0x04,true,,
"I2C","data",27.78795675,0.0000865,0xB1,false,,
"I2C","stop",27.788107375,0.000000042,,,,
"I2C","start",27.788117458,0.000000042,,,,
"I2C","address",27.788127667,0.000086458,,true,0x0B,false
"I2C","data",27.788219375,0.00022925,0x08,true,,
"I2C","start",27.788458792,0.000000042,,,,
"I2C","address",27.788469,0.0000865,,true,0x0B,true
"I2C","data",27.788612458,0.0000865,0xB0,true,,
"I2C","data",27.788755958,0.0000865,0x0B,true,,
"I2C","data",27.788898,0.0000865,0x03,false,,
"I2C","stop",27.789048625,0.000000042,,,,
"I2C","start",27.790211125,0.000000042,,,,
"I2C","address",27.790221375,0.000086458,,true,0x0B,false
"I2C","data",27.790313083,0.000167625,0x0D,true,,
"I2C","start",27.790490875,0.000000042,,,,
"I2C","address",27.790501125,0.000086458,,true,0x0B,true
"I2C","data",27.790644542,0.000086458,0x59,true,,
"I2C","data",27.790788,0.0000865,0x00,true,,
"I2C","data",27.790930042,0.0000865,0x82,false,,
"I2C","stop",27.791080625,0.000000042,,,,
"I2C","start",27.791091625,0.000000042,,,,
"I2C","address",27.791101833,0.000086458,,true,0x0B,false
"I2C","data",27.791193542,0.000289333,0x51,true,,
"I2C","start",27.791493083,0.000000042,,,,
"I2C","address",27.791503292,0.000086458,,true,0x0B,true
"I2C","data",27.791672458,0.000086458,0x04,true,,
"I2C","data",27.791820708,0.000086458,0x00,true,,
"I2C","data",27.791969458,0.0000865,0x00,true,,
"I2C","data",27.79211775,0.0000865,0x00,true,,
"I2C","data",27.792266042,0.0000865,0x00,true,,
"I2C","data",27.7924105,0.000086458,0xDA,false,,
"I2C","stop",27.792563875,0.000000042,,,,
"I2C","start",27.792588208,0.000000042,,,,
"I2C","address",27.792598417,0.000086458,,true,0x0B,false
"I2C","data",27.792690125,0.000188083,0xD2,true,,
"I2C","start",27.792888417,0.000000042,,,,
"I2C","address",27.792898625,0.0000865,,true,0x0B,true
"I2C","data",27.793045333,0.000086458,0x00,true,,
"I2C","data",27.793191208,0.000086458,0x00,true,,
"I2C","data",27.793336083,0.0000865,0x2C,false,,
"I2C","stop",27.793489542,0.000000042,,,,
"I2C","start",27.793500167,0.000000042,,,,
"I2C","address",27.793510375,0.0000865,,true,0x0B,false
"I2C","data",27.793602083,0.000178958,0x3F,true,,
"I2C","start",27.79379125,0.000000042,,,,
"I2C","address",27.793801458,0.0000865,,true,0x0B,true
"I2C","data",27.793948125,0.0000865,0x16,true,,
"I2C","data",27.794093917,0.000086458,0x10,true,,
"I2C","data",27.79423875,0.000086458,0xEF,false,,
"I2C","stop",27.794406417,0.000000042,,,,
"I2C","start",27.795322833,0.000000042,,,,
"I2C","address",27.795333083,0.000086458,,true,0x0B,false
"I2C","data",27.795424792,0.000159708,0x3E,true,,
"I2C","start",27.795594708,0.000000042,,,,
"I2C","address",27.795604917,0.0000865,,true,0x0B,true
"I2C","data",27.795748333,0.000086458,0x18,true,,
"I2C","data",27.795891792,0.0000865,0x10,true,,
"I2C","data",27.796033792,0.0000865,0x2F,false,,
"I2C","stop",27.796184375,0.000000042,,,,
"I2C","start",27.796194458,0.000000042,,,,
"I2C","address",27.796204667,0.0000865,,true,0x0B,false
"I2C","data",27.796296375,0.000218292,0x3D,true,,
"I2C","start",27.796524833,0.000000042,,,,
"I2C","address",27.796535083,0.000086458,,true,0x0B,true
"I2C","data",27.796678042,0.0000865,0x14,true,,
"I2C","data",27.796821542,0.0000865,0x10,true,,
"I2C","data",27.796963583,0.0000865,0xE9,false,,
"I2C","stop",27.797114208,0.000000042,,,,
"I2C","start",27.797131792,0.000000042,,,,
"I2C","address",27.797142,0.000086458,,true,0x0B,false
"I2C","data",27.797233708,0.000210708,0x3F,true,,
"I2C","start",27.797454625,0.000000042,,,,
"I2C","address",27.797464833,0.000086458,,true,0x0B,true
"I2C","data",27.797607792,0.000086458,0x16,true,,
"I2C","data",27.797751208,0.0000865,0x10,true,,
"I2C","data",27.79789325,0.000086458,0xEF,false,,
"I2C","stop",27.798043708,0.000000042,,,,
"I2C","start",27.798054042,0.000000042,,,,
"I2C","address",27.79806425,0.0000865,,true,0x0B,false
"I2C","data",27.798155958,0.000217708,0x3E,true,,
"I2C","start",27.798383833,0.000000042,,,,
"I2C","address",27.798394083,0.000086458,,true,0x0B,true
"I2C","data",27.798536875,0.0000865,0x18,true,,
"I2C","data",27.798680333,0.0000865,0x10,true,,
"I2C","data",27.798822375,0.0000865,0x2F,false,,
"I2C","stop",27.798973,0.000000042,,,,
"I2C","start",27.803635708,0.000000042,,,,
"I2C","address",27.803645917,0.0000865,,true,0x0B,false
"I2C","data",27.803737625,0.000159708,0x3D,true,,
"I2C","start",27.803907542,0.000000042,,,,
"I2C","address",27.80391775,0.0000865,,true,0x0B,true
"I2C","data",27.804061167,0.0000865,0x14,true,,
"I2C","data",27.804204667,0.0000865,0x10,true,,
"I2C","data",27.804346667,0.0000865,0xE9,false,,
"I2C","stop",27.80449725,0.000000042,,,,
"I2C","start",28.783443708,0.000000042,,,,
"I2C","address",28.783453917,0.000086458,,true,0x0B,false
"I2C","data",28.783545625,0.000179292,0xD5,true,,
"I2C","start",28.783735083,0.000000042,,,,
"I2C","address",28.783745333,0.000086458,,true,0x0B,true
"I2C","data",28.783930875,0.0000865,0x00,true,,
"I2C","data",28.784073917,0.000086458,0x00,true,,
"I2C","data",28.784215958,0.0000865,0x4E,false,,
"I2C","stop",28.784366583,0.000000042,,,,
"I2C","start",28.785474667,0.000000042,,,,
"I2C","address",28.785484875,0.0000865,,true,0x0B,false
"I2C","data",28.785576583,0.000183958,0xD3,true,,
"I2C","data",28.78576575,0.000196542,0x00,true,,
"I2C","data",28.7859675,0.000133917,0x00,true,,
"I2C","data",28.786106625,0.000133,0x81,true,,
"I2C","stop",28.786250042,0.000000042,,,,
"I2C","start",28.786264417,0.000000042,,,,
"I2C","address",28.786274667,0.000086458,,true,0x0B,false
"I2C","data",28.786366333,0.000207083,0x00,true,,
"I2C","data",28.786578667,0.000131583,0x51,true,,
"I2C","data",28.786715458,0.000133958,0x00,true,,
"I2C","data",28.786854625,0.000133042,0x0A,true,,
"I2C","stop",28.786998083,0.000000042,,,,
"I2C","start",28.787319125,0.000000042,,,,
"I2C","address",28.787329333,0.0000865,,true,0x0B,false
"I2C","data",28.787421042,0.000880333,0x23,true,,
"I2C","start",28.788311542,0.000000042,,,,
"I2C","address",28.78832175,0.0000865,,true,0x0B,true
"I2C","data",28.788466667,0.000086458,0x04,true,,
"I2C","data",28.788611083,0.000086458,0x00,true,,
"I2C","data",28.788756417,0.000086458,0x00,true,,
"I2C","data",28.78890175,0.000086458,0x00,true,,
"I2C","data",28.789047042,0.0000865,0x00,true,,
"I2C","data",28.789188542,0.000086458,0x54,false,,
"I2C","stop",28.789339125,0.000000042,,,,
"I2C","start",28.790459958,0.000000042,,,,
"I2C","address",28.790470167,0.0000865,,true,0x0B,false
"I2C","data",28.790561875,0.000160833,0x00,true,,
"I2C","data",28.790727917,0.000134,0x53,true,,
"I2C","data",28.790867125,0.000136833,0x00,true,,
"I2C","data",28.791009167,0.000136375,0x20,true,,
"I2C","stop",28.791155958,0.000000042,,,,
"I2C","start",28.791163625,0.000000042,,,,
"I2C","address",28.791173875,0.000086458,,true,0x0B,false
"I2C","data",28.791265583,0.001153333,0x23,true,,
"I2C","start",28.792429083,0.000000042,,,,
"I2C","address",28.792439292,0.0000865,,true,0x0B,true
"I2C","data",28.792587542,0.0000865,0x04,true,,
"I2C","data",28.792735375,0.0000865,0x00,true,,
"I2C","data",28.792883667,0.0000865,0x00,true,,
"I2C","data",28.793031917,0.000086458,0x00,true,,
"I2C","data",28.793180167,0.000086458,0x00,true,,
"I2C","data",28.793324583,0.0000865,0x54,false,,
"I2C","stop",28.79351825,0.000000042,,,,
"I2C","start",28.793537333,0.000000042,,,,
"I2C","address",28.793547583,0.000086458,,true,0x0B,false
"I2C","data",28.793639292,0.000171417,0x00,true,,
"I2C","data",28.793815917,0.000133958,0x54,true,,
"I2C","data",28.793955083,0.000136833,0x00,true,,
"I2C","data",28.794097125,0.0001425,0x4B,true,,
"I2C","stop",28.794250042,0.000000042,,,,
"I2C","start",28.795525542,0.000000042,,,,
"I2C","address",28.79553575,0.0000865,,true,0x0B,false
"I2C","data",28.795627458,0.000492458,0x23,true,,
"I2C","start",28.796130083,0.000000042,,,,
"I2C","address",28.796140292,0.0000865,,true,0x0B,true
"I2C","data",28.796307167,0.0000865,0x04,true,,
"I2C","data",28.796509458,0.0000865,0x86,true,,
"I2C","data",28.796655333,0.0000865,0x03,true,,
"I2C","data",28.79680075,0.000086458,0x06,true,,
"I2C","data",28.796946042,0.0000865,0x00,true,,
"I2C","data",28.797087542,0.0000865,0xD2,false,,
"I2C","stop",28.797238042,0.000000042,,,,
"I2C","start",28.797271458,0.000000042,,,,
"I2C","address",28.797281667,0.0000865,,true,0x0B,false
"I2C","data",28.797373375,0.000200167,0x00,true,,
"I2C","data",28.79757875,0.000131083,0x55,true,,
"I2C","data",28.797715083,0.000133917,0x00,true,,
"I2C","data",28.79785425,0.000132958,0x5E,true,,
"I2C","stop",28.797997625,0.000000042,,,,
"I2C","start",28.798005125,0.000000042,,,,
"I2C","address",28.798015333,0.0000865,,true,0x0B,false
"I2C","data",28.798107042,0.001203875,0x23,true,,
"I2C","start",28.799321125,0.000000042,,,,
"I2C","address",28.799331333,0.0000865,,true,0x0B,true
"I2C","data",28.799476167,0.0000865,0x02,true,,
"I2C","data",28.799620583,0.0000865,0x10,true,,
"I2C","data",28.799766,0.000086458,0x08,true,,
"I2C","data",28.799907542,0.0000865,0x16,true,,
"I2C","data",28.800053417,0.0000865,0x16,true,,
"I2C","data",28.800195,0.000086458,0x16,false,,
"I2C","stop",28.800337458,0.000000042,,,,
"I2C","start",28.803851042,0.000000042,,,,
"I2C","address",28.80386125,0.0000865,,true,0x0B,false
"I2C","data",28.803952958,0.000170333,0x09,true,,
"I2C","start",28.804133458,0.000000042,,,,
"I2C","address",28.804143667,0.0000865,,true,0x0B,true
"I2C","data",28.8042865,0.000086458,0x4D,true,,
"I2C","data",28.804429917,0.000086458,0x30,true,,
"I2C","data",28.804571958,0.0000865,0x49,false,,
"I2C","stop",28.804722542,0.000000042,,,,
"I2C","start",28.805459958,0.000000042,,,,
"I2C","address",28.805470208,0.000086458,,true,0x0B,false
"I2C","data",28.805561917,0.000170583,0x0A,true,,
"I2C","start",28.805742667,0.000000042,,,,
"I2C","address",28.805752875,0.0000865,,true,0x0B,true
"I2C","data",28.805895875,0.0000865,0x86,true,,
"I2C","data",28.806039375,0.000086458,0xFC,true,,
"I2C","data",28.806181417,0.0000865,0x63,false,,
"I2C","stop",28.806332042,0.000000042,,,,
"I2C","start",28.80634325,0.000000042,,,,
"I2C","address",28.806353458,0.000086458,,true,0x0B,false
"I2C","data",28.806445167,0.000229458,0x10,true,,
"I2C","start",28.806684792,0.000000042,,,,
"I2C","address",28.806695,0.0000865,,true,0x0B,true
"I2C","data",28.806837792,0.0000865,0xDA,true,,
"I2C","data",28.80698125,0.0000865,0x04,true,,
"I2C","data",28.80712325,0.000086458,0x8E,false,,
"I2C","stop",28.807273833,0.000000042,,,,
"I2C","start",28.807287917,0.000000042,,,,
"I2C","address",28.807298125,0.0000865,,true,0x0B,false
"I2C","data",28.807389833,0.00022675,0x0F,true,,
"I2C","start",28.80762675,0.000000042,,,,
"I2C","address",28.807636958,0.0000865,,true,0x0B,true
"I2C","data",28.807779958,0.000086458,0x4D,true,,
"I2C","data",28.807923458,0.000086458,0x04,true,,
"I2C","data",28.8080655,0.0000865,0xB1,false,,
"I2C","stop",28.808216125,0.000000042,,,,
"I2C","start",28.808225917,0.000000042,,,,
"I2C","address",28.808236125,0.0000865,,true,0x0B,false
"I2C","data",28.808327833,0.000229667,0x08,true,,
"I2C","start",28.808567708,0.000000042,,,,
"I2C","address",28.808577917,0.000086458,,true,0x0B,true
"I2C","data",28.808721417,0.000086458,0xB0,true,,
"I2C","data",28.808864875,0.0000865,0x0B,true,,
"I2C","data",28.809006958,0.0000865,0x03,false,,
"I2C","stop",28.809222667,0.000000042,,,,
"I2C","start",28.81045025,0.000000042,,,,
"I2C","address",28.810460458,0.0000865,,true,0x0B,false
"I2C","data",28.810552167,0.000166958,0x0D,true,,
"I2C","start",28.810729292,0.000000042,,,,
"I2C","address",28.810739542,0.000086458,,true,0x0B,true
"I2C","data",28.810882875,0.0000865,0x59,true,,
"I2C","data",28.81102625,0.0000865,0x00,true,,
"I2C","data",28.811168208,0.0000865,0x82,false,,
"I2C","stop",28.811318792,0.000000042,,,,
"I2C","start",28.811335417,0.000000042,,,,
"I2C","address",28.811345667,0.000086458,,true,0x0B,false
"I2C","data",28.811437375,0.000283833,0x51,true,,
"I2C","start",28.811731417,0.000000042,,,,
"I2C","address",28.811741625,0.0000865,,true,0x0B,true
"I2C","data",28.811886458,0.0000865,0x04,true,,
"I2C","data",28.812030792,0.0000865,0x00,true,,
"I2C","data",28.812176083,0.000086458,0x00,true,,
"I2C","data",28.812321333,0.0000865,0x00,true,,
"I2C","data",28.812466625,0.0000865,0x00,true,,
"I2C","data",28.812608125,0.000086458,0xDA,false,,
"I2C","stop",28.812758708,0.000000042,,,,
"I2C","start",28.8127755,0.000000042,,,,
"I2C","address",28.812785708,0.0000865,,true,0x0B,false
"I2C","data",28.812877417,0.000238333,0xD2,true,,
"I2C","start",28.813125958,0.000000042,,,,
"I2C","address",28.813136167,0.0000865,,true,0x0B,true
"I2C","data",28.813279125,0.0000865,0x00,true,,
"I2C","data",28.8134225,0.0000865,0x00,true,,
"I2C","data",28.8135645,0.000086458,0x2C,false,,
"I2C","stop",28.813715,0.000000042,,,,
"I2C","start",28.813725458,0.000000042,,,,
"I2C","address",28.813735667,0.0000865,,true,0x0B,false
"I2C","data",28.813827375,0.000221458,0x3F,true,,
"I2C","start",28.814059042,0.000000042,,,,
"I2C","address",28.81406925,0.0000865,,true,0x0B,true
"I2C","data",28.814212167,0.0000865,0x19,true,,
"I2C","data",28.814355625,0.0000865,0x10,true,,
"I2C","data",28.814497708,0.0000865,0x2C,false,,
"I2C","stop",28.814648333,0.000000042,,,,
"I2C","start",28.815496958,0.000000042,,,,
"I2C","address",28.815507167,0.0000865,,true,0x0B,false
"I2C","data",28.815598875,0.000160083,0x3E,true,,
"I2C","start",28.815769167,0.000000042,,,,
"I2C","address",28.815779375,0.0000865,,true,0x0B,true
"I2C","data",28.815922833,0.000086458,0x1C,true,,
"I2C","data",28.816066333,0.000086458,0x10,true,,
"I2C","data",28.816208375,0.0000865,0x7B,false,,
"I2C","stop",28.816358958,0.000000042,,,,
"I2C","start",28.816369833,0.000000042,,,,
"I2C","address",28.816380042,0.0000865,,true,0x0B,false
"I2C","data",28.81647175,0.000217583,0x3D,true,,
"I2C","start",28.8166995,0.000000042,,,,
"I2C","address",28.81670975,0.000086458,,true,0x0B,true
"I2C","data",28.816852708,0.000086458,0x18,true,,
"I2C","data",28.817060792,0.000086458,0x10,true,,
"I2C","data",28.817260208,0.0000865,0x15,false,,
"I2C","stop",28.817411292,0.000000042,,,,
"I2C","start",28.817426167,0.000000042,,,,
"I2C","address",28.817436417,0.000086458,,true,0x0B,false
"I2C","data",28.817528125,0.000213542,0x3F,true,,
"I2C","start",28.817751833,0.000000042,,,,
"I2C","address",28.817762042,0.0000865,,true,0x0B,true
"I2C","data",28.817905,0.0000865,0x19,true,,
"I2C","data",28.8180485,0.0000865,0x10,true,,
"I2C","data",28.818190583,0.0000865,0x2C,false,,
"I2C","stop",28.818341167,0.000000042,,,,
"I2C","start",28.818351625,0.000000042,,,,
"I2C","address",28.818361875,0.000086458,,true,0x0B,false
"I2C","data",28.818453583,0.000217833,0x3E,true,,
"I2C","start",28.818681583,0.000000042,,,,
"I2C","address",28.818691792,0.0000865,,true,0x0B,true
"I2C","data",28.81883475,0.000086458,0x1C,true,,
"I2C","data",28.818978167,0.000086458,0x10,true,,
"I2C","data",28.819120167,0.000086458,0x7B,false,,
"I2C","stop",28.819270667,0.000000042,,,,
"I2C","start",28.82353275,0.000000042,,,,
"I2C","address",28.823542958,0.0000865,,true,0x0B,false
"I2C","data",28.823634667,0.000159792,0x3D,true,,
"I2C","start",28.823804667,0.000000042,,,,
"I2C","address",28.823814875,0.000086458,,true,0x0B,true
"I2C","data",28.823958292,0.0000865,0x18,true,,
"I2C","data",28.824101792,0.000086458,0x10,true,,
"I2C","data",28.824243833,0.0000865,0x15,false,,
"I2C","stop",28.824394458,0.000000042,,,,
"I2C","start",29.8039515,0.000000042,,,,
"I2C","address",29.803961708,0.000086458,,true,0x0B,false
"I2C","data",29.804053417,0.0001795,0xD5,true,,
"I2C","start",29.804243083,0.000000042,,,,
"I2C","address",29.804253333,0.000086458,,true,0x0B,true
"I2C","data",29.804438917,0.0000865,0x00,true,,
"I2C","data",29.804581958,0.0000865,0x00,true,,
"I2C","data",29.804724042,0.0000865,0x4E,false,,
"I2C","stop",29.804874708,0.000000042,,,,
"I2C","start",29.80574825,0.000000042,,,,
"I2C","address",29.805758458,0.000086458,,true,0x0B,false
"I2C","data",29.805850167,0.000177625,0xD3,true,,
"I2C","data",29.806033,0.000131625,0x00,true,,
"I2C","data",29.806169833,0.000134,0x00,true,,
"I2C","data",29.806309042,0.000133042,0x81,true,,
"I2C","stop",29.8064525,0.000000042,,,,
"I2C","start",29.806479792,0.000000042,,,,
"I2C","address",29.80649,0.0000865,,true,0x0B,false
"I2C","data",29.806581708,0.000194292,0x00,true,,
"I2C","data",29.806781208,0.000131542,0x51,true,,
"I2C","data",29.806917958,0.000133875,0x00,true,,
"I2C","data",29.807057083,0.000132917,0x0A,true,,
"I2C","stop",29.807200458,0.000000042,,,,
"I2C","start",29.807396875,0.000000042,,,,
"I2C","address",29.807407083,0.0000865,,true,0x0B,false
"I2C","data",29.807498792,0.001005125,0x23,true,,
"I2C","start",29.808514083,0.000000042,,,,
"I2C","address",29.808524333,0.000086458,,true,0x0B,true
"I2C","data",29.8087165,0.0000865,0x04,true,,
"I2C","data",29.808864292,0.0000865,0x00,true,,
"I2C","data",29.809104417,0.0000865,0x00,true,,
"I2C","data",29.80925225,0.000086458,0x00,true,,
"I2C","data",29.809463667,0.0000865,0x00,true,,
"I2C","data",29.809605667,0.0000865,0x54,false,,
"I2C","stop",29.809756208,0.000000042,,,,
"I2C","start",29.810669833,0.000000042,,,,
"I2C","address",29.810680042,0.0000865,,true,0x0B,false
"I2C","data",29.81077175,0.000157375,0x00,true,,
"I2C","data",29.810934375,0.0001315,0x53,true,,
"I2C","data",29.811071083,0.000133917,0x00,true,,
"I2C","data",29.811210208,0.000132958,0x20,true,,
"I2C","stop",29.811353625,0.000000042,,,,
"I2C","start",29.811361333,0.000000042,,,,
"I2C","address",29.811371542,0.0000865,,true,0x0B,false
"I2C","data",29.81146325,0.001196292,0x23,true,,
"I2C","start",29.812669708,0.000000042,,,,
"I2C","address",29.812679917,0.0000865,,true,0x0B,true
"I2C","data",29.812824375,0.000086458,0x04,true,,
"I2C","data",29.812968875,0.000086458,0x00,true,,
"I2C","data",29.813114292,0.0000865,0x00,true,,
"I2C","data",29.81325975,0.000086458,0x00,true,,
"I2C","data",29.813405167,0.0000865,0x00,true,,
"I2C","data",29.813546792,0.000086458,0x54,false,,
"I2C","stop",29.813697417,0.000000042,,,,
"I2C","start",29.813716125,0.000000042,,,,
"I2C","address",29.813726333,0.000086458,,true,0x0B,false
"I2C","data",29.813818042,0.000214958,0x00,true,,
"I2C","data",29.814038208,0.000131083,0x54,true,,
"I2C","data",29.8141745,0.000134,0x00,true,,
"I2C","data",29.814313708,0.000133042,0x4B,true,,
"I2C","stop",29.814457167,0.000000042,,,,
"I2C","start",29.815706667,0.000000042,,,,
"I2C","address",29.815716917,0.000086458,,true,0x0B,false
"I2C","data",29.815808625,0.000468958,0x23,true,,
"I2C","start",29.81628775,0.000000042,,,,
"I2C","address",29.816297958,0.0000865,,true,0x0B,true
"I2C","data",29.816490625,0.0000865,0x04,true,,
"I2C","data",29.816692875,0.000086458,0x86,true,,
"I2C","data",29.816838167,0.0000865,0x03,true,,
"I2C","data",29.8169835,0.0000865,0x06,true,,
"I2C","data",29.817128875,0.0000865,0x00,true,,
"I2C","data",29.8172705,0.000086458,0xD2,false,,
"I2C","stop",29.817421083,0.000000042,,,,
"I2C","start",29.817440042,0.000000042,,,,
"I2C","address",29.81745025,0.0000865,,true,0x0B,false
"I2C","data",29.817541958,0.000214625,0x00,true,,
"I2C","data",29.817761833,0.000131,0x55,true,,
"I2C","data",29.817898042,0.000133917,0x00,true,,
"I2C","data",29.818037167,0.000132917,0x5E,true,,
"I2C","stop",29.8181805,0.000000042,,,,
"I2C","start",29.818188292,0.000000042,,,,
"I2C","address",29.8181985,0.0000865,,true,0x0B,false
"I2C","data",29.818290208,0.001203875,0x23,true,,
"I2C","start",29.819504292,0.000000042,,,,
"I2C","address",29.8195145,0.0000865,,true,0x0B,true
"I2C","data",29.819659292,0.0000865,0x02,true,,
"I2C","data",29.81980375,0.0000865,0x10,true,,
"I2C","data",29.819949167,0.0000865,0x08,true,,
"I2C","data",29.82009075,0.0000865,0x16,true,,
"I2C","data",29.820236625,0.0000865,0x16,true,,
"I2C","data",29.820378208,0.000086458,0x16,false,,
"I2C","stop",29.820520667,0.000000042,,,,
"I2C","start",29.823685375,0.000000042,,,,
"I2C","address",29.823695583,0.0000865,,true,0x0B,false
"I2C","data",29.823787292,0.000237833,0x09,true,,
"I2C","start",29.824035292,0.000000042,,,,
"I2C","address",29.8240455,0.0000865,,true,0x0B,true
"I2C","data",29.8241885,0.0000865,0x52,true,,
"I2C","data",29.824332042,0.000086458,0x30,true,,
"I2C","data",29.824474125,0.000086458,0xDD,false,,
"I2C","stop",29.824624625,0.000000042,,,,
"I2C","start",29.825611333,0.000000042,,,,
"I2C","address",29.825621583,0.000086458,,true,0x0B,false
"I2C","data",29.825713292,0.000171042,0x0A,true,,
"I2C","start",29.825894542,0.000000042,,,,
"I2C","address",29.82590475,0.0000865,,true,0x0B,true
"I2C","data",29.826047667,0.000086458,0xA6,true,,
"I2C","data",29.826191083,0.000086458,0xFC,true,,
"I2C","data",29.826333042,0.0000865,0xCD,false,,
"I2C","stop",29.826483583,0.000000042,,,,
"I2C","start",29.826493375,0.000000042,,,,
"I2C","address",29.826503583,0.000086458,,true,0x0B,false
"I2C","data",29.826595292,0.000231042,0x10,true,,
"I2C","start",29.8268365,0.000000042,,,,
"I2C","address",29.826846708,0.0000865,,true,0x0B,true
"I2C","data",29.826989708,0.0000865,0xDA,true,,
"I2C","data",29.827133208,0.0000865,0x04,true,,
"I2C","data",29.827275292,0.000086458,0x8E,false,,
"I2C","stop",29.827425792,0.000000042,,,,
"I2C","start",29.82744075,0.000000042,,,,
"I2C","address",29.827451,0.000086458,,true,0x0B,false
"I2C","data",29.827542708,0.000225667,0x0F,true,,
"I2C","start",29.827778542,0.000000042,,,,
"I2C","address",29.827788792,0.000086458,,true,0x0B,true
"I2C","data",29.827931625,0.0000865,0x4D,true,,
"I2C","data",29.828075167,0.000086458,0x04,true,,
"I2C","data",29.828217208,0.0000865,0xB1,false,,
"I2C","stop",29.828367833,0.000000042,,,,
"I2C","start",29.8283775,0.000000042,,,,
"I2C","address",29.828387708,0.0000865,,true,0x0B,false
"I2C","data",29.828479417,0.00022975,0x08,true,,
"I2C","start",29.828719375,0.000000042,,,,
"I2C","address",29.828729583,0.0000865,,true,0x0B,true
"I2C","data",29.828873083,0.0000865,0xB0,true,,
"I2C","data",29.829016583,0.0000865,0x0B,true,,
"I2C","data",29.829158667,0.0000865,0x03,false,,
"I2C","stop",29.829309292,0.000000042,,,,
"I2C","start",29.830663833,0.000000042,,,,
"I2C","address",29.830674042,0.0000865,,true,0x0B,false
"I2C","data",29.83076575,0.000167583,0x0D,true,,
"I2C","start",29.830943542,0.000000042,,,,
"I2C","address",29.83095375,0.0000865,,true,0x0B,true
"I2C","data",29.831097208,0.0000865,0x59,true,,
"I2C","data",29.831240708,0.0000865,0x00,true,,
"I2C","data",29.831382792,0.0000865,0x82,false,,
"I2C","stop",29.831533333,0.000000042,,,,
"I2C","start",29.83155075,0.000000042,,,,
"I2C","address",29.831560958,0.0000865,,true,0x0B,false
"I2C","data",29.831652667,0.000283,0x51,true,,
"I2C","start",29.831945833,0.000000042,,,,
"I2C","address",29.831956083,0.000086458,,true,0x0B,true
"I2C","data",29.832148292,0.0000865,0x04,true,,
"I2C","data",29.832350667,0.0000865,0x00,true,,
"I2C","data",29.832496083,0.000086458,0x00,true,,
"I2C","data",29.8326415,0.000086458,0x00,true,,
"I2C","data",29.832786875,0.000086458,0x00,true,,
"I2C","data",29.832928375,0.0000865,0xDA,false,,
"I2C","stop",29.833078917,0.000000042,,,,
"I2C","start",29.833095208,0.000000042,,,,
"I2C","address",29.833105417,0.000086458,,true,0x0B,false
"I2C","data",29.833197125,0.000238667,0xD2,true,,
"I2C","start",29.833446,0.000000042,,,,
"I2C","address",29.833456208,0.0000865,,true,0x0B,true
"I2C","data",29.833599208,0.000086458,0x00,true,,
"I2C","data",29.833742708,0.0000865,0x00,true,,
"I2C","data",29.833884833,0.000086458,0x2C,false,,
"I2C","stop",29.8340355,0.000000042,,,,
"I2C","start",29.834054083,0.000000042,,,,
"I2C","address",29.834064292,0.0000865,,true,0x0B,false
"I2C","data",29.834156,0.000213583,0x3F,true,,
"I2C","start",29.83437975,0.000000042,,,,
"I2C","address",29.834389958,0.0000865,,true,0x0B,true
"I2C","data",29.834532875,0.000086458,0x1B,true,,
"I2C","data",29.834676292,0.0000865,0x10,true,,
"I2C","data",29.834818292,0.000086458,0x06,false,,
"I2C","stop",29.834968917,0.000000042,,,,
"I2C","start",29.835737417,0.000000042,,,,
"I2C","address",29.835747625,0.000086458,,true,0x0B,false
"I2C","data",29.835839333,0.000159375,0x3E,true,,
"I2C","start",29.836008917,0.000000042,,,,
"I2C","address",29.836019125,0.0000865,,true,0x0B,true
"I2C","data",29.836162458,0.0000865,0x1D,true,,
"I2C","data",29.836305958,0.0000865,0x10,true,,
"I2C","data",29.836448042,0.0000865,0x6E,false,,
"I2C","stop",29.83659875,0.000000042,,,,
"I2C","start",29.836610208,0.000000042,,,,
"I2C","address",29.836620417,0.0000865,,true,0x0B,false
"I2C","data",29.836712125,0.000217042,0x3D,true,,
"I2C","start",29.836939333,0.000000042,,,,
"I2C","address",29.836949542,0.0000865,,true,0x0B,true
"I2C","data",29.837092583,0.000086458,0x19,true,,
"I2C","data",29.837236083,0.000086458,0x10,true,,
"I2C","data",29.837378208,0.0000865,0x00,false,,
"I2C","stop",29.837528833,0.000000042,,,,
"I2C","start",29.837542958,0.000000042,,,,
"I2C","address",29.837553167,0.0000865,,true,0x0B,false
"I2C","data",29.837644875,0.000214417,0x3F,true,,
"I2C","start",29.837869458,0.000000042,,,,
"I2C","address",29.837879667,0.0000865,,true,0x0B,true
"I2C","data",29.838022667,0.0000865,0x1B,true,,
"I2C","data",29.838166208,0.0000865,0x10,true,,
"I2C","data",29.838308333,0.0000865,0x06,false,,
"I2C","stop",29.838458958,0.000000042,,,,
"I2C","start",29.838484,0.000000042,,,,
"I2C","address",29.83849425,0.000086458,,true,0x0B,false
"I2C","data",29.838585958,0.000203458,0x3E,true,,
"I2C","start",29.838799625,0.000000042,,,,
"I2C","address",29.838809833,0.000086458,,true,0x0B,true
"I2C","data",29.838952833,0.0000865,0x1D,true,,
"I2C","data",29.839096375,0.0000865,0x10,true,,
"I2C","data",29.839238458,0.0000865,0x6E,false,,
"I2C","stop",29.839389125,0.000000042,,,,
"I2C","start",29.843813542,0.000000042,,,,
"I2C","address",29.84382375,0.0000865,,true,0x0B,false
"I2C","data",29.843915458,0.000159875,0x3D,true,,
"I2C","start",29.8440855,0.000000042,,,,
"I2C","address",29.84409575,0.000086458,,true,0x0B,true
"I2C","data",29.844239125,0.0000865,0x19,true,,
"I2C","data",29.844382583,0.0000865,0x10,true,,
"I2C","data",29.844524708,0.000086458,0x00,false,,
"I2C","stop",29.844675292,0.000000042,,,,
"I2C","start",30.823948458,0.000000042,,,,
"I2C","address",30.823958708,0.000086458,,true,0x0B,false
"I2C","data",30.824050375,0.000178917,0xD5,true,,
"I2C","start",30.824239458,0.000000042,,,,
"I2C","address",30.824249667,0.0000865,,true,0x0B,true
"I2C","data",30.824435333,0.0000865,0x00,true,,
"I2C","data",30.824578375,0.0000865,0x00,true,,
"I2C","data",30.8247205,0.0000865,0x4E,false,,
"I2C","stop",30.824871167,0.000000042,,,,
"I2C","start",30.825830792,0.000000042,,,,
"I2C","address",30.825841,0.0000865,,true,0x0B,false
"I2C","data",30.825932708,0.000177083,0xD3,true,,
"I2C","data",30.826115,0.000131625,0x00,true,,
"I2C","data",30.826251833,0.000134042,0x00,true,,
"I2C","data",30.826391083,0.000133083,0x81,true,,
"I2C","stop",30.826534625,0.000000042,,,,
"I2C","start",30.826547875,0.000000042,,,,
"I2C","address",30.826558083,0.0000865,,true,0x0B,false
"I2C","data",30.826649792,0.000208375,0x00,true,,
"I2C","data",30.826863375,0.000131625,0x51,true,,
"I2C","data",30.827000208,0.000134,0x00,true,,
"I2C","data",30.827139458,0.000133042,0x0A,true,,
"I2C","stop",30.827282917,0.000000042,,,,
"I2C","start",30.827587917,0.000000042,,,,
"I2C","address",30.827598125,0.0000865,,true,0x0B,false
"I2C","data",30.827689833,0.000896708,0x23,true,,
"I2C","start",30.828596708,0.000000042,,,,
"I2C","address",30.828606958,0.000086458,,true,0x0B,true
"I2C","data",30.828751917,0.0000865,0x04,true,,
"I2C","data",30.828896458,0.000086458,0x00,true,,
"I2C","data",30.829041833,0.000086458,0x00,true,,
"I2C","data",30.829187167,0.0000865,0x00,true,,
"I2C","data",30.8293325,0.0000865,0x00,true,,
"I2C","data",30.829474042,0.000086458,0x54,false,,
"I2C","stop",30.829624583,0.000000042,,,,
"I2C","start",30.8308445,0.000000042,,,,
"I2C","address",30.830854708,0.0000865,,true,0x0B,false
"I2C","data",30.830946417,0.000157292,0x00,true,,
"I2C","data",30.831108917,0.000131583,0x53,true,,
"I2C","data",30.83124575,0.000134,0x00,true,,
"I2C","data",30.831384958,0.000133083,0x20,true,,
"I2C","stop",30.831528458,0.000000042,,,,
"I2C","start",30.831536042,0.000000042,,,,
"I2C","address",30.83154625,0.000086458,,true,0x0B,false
"I2C","data",30.831637958,0.001196458,0x23,true,,
"I2C","start",30.832844625,0.000000042,,,,
"I2C","address",30.832854833,0.0000865,,true,0x0B,true
"I2C","data",30.832999333,0.000086458,0x04,true,,
"I2C","data",30.833143875,0.000086458,0x00,true,,
"I2C","data",30.833289292,0.0000865,0x00,true,,
"I2C","data",30.83343475,0.0000865,0x00,true,,
"I2C","data",30.83358025,0.0000865,0x00,true,,
"I2C","data",30.833721875,0.000086458,0x54,false,,
"I2C","stop",30.8338725,0.000000042,,,,
"I2C","start",30.833895417,0.000000042,,,,
"I2C","address",30.833905625,0.0000865,,true,0x0B,false
"I2C","data",30.833997333,0.000210833,0x00,true,,
"I2C","data",30.834213375,0.000131125,0x54,true,,
"I2C","data",30.83434975,0.000134,0x00,true,,
"I2C","data",30.834488958,0.000133083,0x4B,true,,
"I2C","stop",30.834632458,0.000000042,,,,
"I2C","start",30.83593275,0.000000042,,,,
"I2C","address",30.835942958,0.0000865,,true,0x0B,false
"I2C","data",30.836034667,0.000469333,0x23,true,,
"I2C","start",30.836514208,0.000000042,,,,
"I2C","address",30.836524417,0.0000865,,true,0x0B,true
"I2C","data",30.836668875,0.0000865,0x04,true,,
"I2C","data",30.836813375,0.0000865,0x86,true,,
"I2C","data",30.836958792,0.0000865,0x03,true,,
"I2C","data",30.837104208,0.0000865,0x06,true,,
"I2C","data",30.837249583,0.0000865,0x00,true,,
"I2C","data",30.837391125,0.0000865,0xD2,false,,
"I2C","stop",30.837541667,0.000000042,,,,
"I2C","start",30.837664042,0.000000042,,,,
"I2C","address",30.83767425,0.0000865,,true,0x0B,false
"I2C","data",30.837765958,0.000157417,0x00,true,,
"I2C","data",30.837928583,0.000131583,0x55,true,,
"I2C","data",30.838065375,0.000134,0x00,true,,
"I2C","data",30.838204583,0.000133042,0x5E,true,,
"I2C","stop",30.838348042,0.000000042,,,,
"I2C","start",30.838355042,0.000000042,,,,
"I2C","address",30.83836525,0.000086458,,true,0x0B,false
"I2C","data",30.838456958,0.001205042,0x23,true,,
"I2C","start",30.839672208,0.000000042,,,,
"I2C","address",30.839682417,0.000086458,,true,0x0B,true
"I2C","data",30.839875208,0.0000865,0x02,true,,
"I2C","data",30.8400775,0.000086458,0x10,true,,
"I2C","data",30.840223333,0.000086458,0x08,true,,
"I2C","data",30.840364875,0.0000865,0x16,true,,
"I2C","data",30.840510708,0.0000865,0x16,true,,
"I2C","data",30.84065225,0.0000865,0x16,false,,
"I2C","stop",30.840794792,0.000000042,,,,
"I2C","start",30.843989,0.000000042,,,,
"I2C","address",30.843999208,0.0000865,,true,0x0B,false
"I2C","data",30.844090917,0.000170167,0x09,true,,
"I2C","start",30.844271292,0.000000042,,,,
"I2C","address",30.8442815,0.0000865,,true,0x0B,true
"I2C","data",30.844424417,0.0000865,0x4E,true,,
"I2C","data",30.844567875,0.0000865,0x30,true,,
"I2C","data",30.844709875,0.0000865,0x76,false,,
"I2C","stop",30.8448605,0.000000042,,,,
"I2C","start",30.845711458,0.000000042,,,,
"I2C","address",30.845721667,0.0000865,,true,0x0B,false
"I2C","data",30.845813375,0.000170375,0x0A,true,,
"I2C","start",30.845993917,0.000000042,,,,
"I2C","address",30.846004125,0.0000865,,true,0x0B,true
"I2C","data",30.846147042,0.0000865,0xA7,true,,
"I2C","data",30.846290583,0.0000865,0xFC,true,,
"I2C","data",30.846432667,0.0000865,0xD8,false,,
"I2C","stop",30.846648375,0.000000042,,,,
"I2C","start",30.846661,0.000000042,,,,
"I2C","address",30.846671208,0.000086458,,true,0x0B,false
"I2C","data",30.846762917,0.000237292,0x10,true,,
"I2C","start",30.847010417,0.000000042,,,,
"I2C","address",30.847020625,0.0000865,,true,0x0B,true
"I2C","data",30.847210875,0.0000865,0xDA,true,,
"I2C","data",30.847354333,0.0000865,0x04,true,,
"I2C","data",30.847496375,0.0000865,0x8E,false,,
"I2C","stop",30.847647042,0.000000042,,,,
"I2C","start",30.84766475,0.000000042,,,,
"I2C","address",30.847674958,0.000086458,,true,0x0B,false
"I2C","data",30.847766667,0.00022325,0x0F,true,,
"I2C","start",30.848000083,0.000000042,,,,
"I2C","address",30.848010292,0.0000865,,true,0x0B,true
"I2C","data",30.848153375,0.000086458,0x4D,true,,
"I2C","data",30.848296833,0.0000865,0x04,true,,
"I2C","data",30.848438875,0.000086458,0xB1,false,,
"I2C","stop",30.848589458,0.000000042,,,,
"I2C","start",30.848599875,0.000000042,,,,
"I2C","address",30.848610125,0.000086458,,true,0x0B,false
"I2C","data",30.848701833,0.000228875,0x08,true,,
"I2C","start",30.848940917,0.000000042,,,,
"I2C","address",30.848951125,0.000086458,,true,0x0B,true
"I2C","data",30.849094583,0.0000865,0xB0,true,,
"I2C","data",30.849238167,0.000086458,0x0B,true,,
"I2C","data",30.849380292,0.000086458,0x03,false,,
"I2C","stop",30.849530958,0.000000042,,,,
"I2C","start",30.850865333,0.000000042,,,,
"I2C","address",30.850875542,0.0000865,,true,0x0B,false
"I2C","data",30.85096725,0.000167167,0x0D,true,,
"I2C","start",30.851144583,0.000000042,,,,
"I2C","address",30.851154833,0.000086458,,true,0x0B,true
"I2C","data",30.851298375,0.0000865,0x59,true,,
"I2C","data",30.851441917,0.000086458,0x00,true,,
"I2C","data",30.851584042,0.000086458,0x82,false,,
"I2C","stop",30.851734667,0.000000042,,,,
"I2C","start",30.851745083,0.000000042,,,,
"I2C","address",30.851755292,0.0000865,,true,0x0B,false
"I2C","data",30.851847,0.000290333,0x51,true,,
"I2C","start",30.852147542,0.000000042,,,,
"I2C","address",30.85215775,0.0000865,,true,0x0B,true
"I2C","data",30.852302708,0.0000865,0x04,true,,
"I2C","data",30.852447125,0.000086458,0x00,true,,
"I2C","data",30.8525925,0.000086458,0x00,true,,
"I2C","data",30.852737875,0.000086458,0x00,true,,
"I2C","data",30.852883208,0.0000865,0x00,true,,
"I2C","data",30.853024792,0.0000865,0xDA,false,,
"I2C","stop",30.853175417,0.000000042,,,,
"I2C","start",30.853203,0.000000042,,,,
"I2C","address",30.85321325,0.000086458,,true,0x0B,false
"I2C","data",30.853304958,0.000227667,0xD2,true,,
"I2C","start",30.853542833,0.000000042,,,,
"I2C","address",30.853553042,0.000086458,,true,0x0B,true
"I2C","data",30.853722833,0.0000865,0x00,true,,
"I2C","data",30.853869167,0.000086458,0x00,true,,
"I2C","data",30.854014042,0.0000865,0x2C,false,,
"I2C","stop",30.854167458,0.000000042,,,,
"I2C","start",30.854177375,0.000000042,,,,
"I2C","address",30.854187583,0.0000865,,true,0x0B,false
"I2C","data",30.854279292,0.000179667,0x3F,true,,
"I2C","start",30.854469125,0.000000042,,,,
"I2C","address",30.854479375,0.000086458,,true,0x0B,true
"I2C","data",30.854629542,0.0000865,0x1A,true,,
"I2C","data",30.854775958,0.000086458,0x10,true,,
"I2C","data",30.854921458,0.000086458,0x13,false,,
"I2C","stop",30.855075417,0.000000042,,,,
"I2C","start",30.855932917,0.000000042,,,,
"I2C","address",30.855943125,0.000086458,,true,0x0B,false
"I2C","data",30.856034833,0.000162417,0x3E,true,,
"I2C","start",30.856207417,0.000000042,,,,
"I2C","address",30.856217667,0.000086458,,true,0x0B,true
"I2C","data",30.85638225,0.0000865,0x1C,true,,
"I2C","data",30.856583125,0.0000865,0x10,true,,
"I2C","data",30.856725167,0.000086458,0x7B,false,,
"I2C","stop",30.856875708,0.000000042,,,,
"I2C","start",30.85760975,0.000000042,,,,
"I2C","address",30.857619958,0.0000865,,true,0x0B,false
"I2C","data",30.857711667,0.000159792,0x3D,true,,
"I2C","start",30.857881625,0.000000042,,,,
"I2C","address",30.857891833,0.0000865,,true,0x0B,true
"I2C","data",30.858035375,0.0000865,0x18,true,,
"I2C","data",30.858178958,0.0000865,0x10,true,,
"I2C","data",30.858321083,0.0000865,0x15,false,,
"I2C","stop",30.858471708,0.000000042,,,,
"I2C","start",30.858483083,0.000000042,,,,
"I2C","address",30.858493292,0.0000865,,true,0x0B,false
"I2C","data",30.858585,0.000217083,0x3F,true,,
"I2C","start",30.858812292,0.000000042,,,,
"I2C","address",30.8588225,0.0000865,,true,0x0B,true
"I2C","data",30.858965542,0.0000865,0x1A,true,,
"I2C","data",30.859109083,0.000086458,0x10,true,,
"I2C","data",30.859251167,0.0000865,0x13,false,,
"I2C","stop",30.859401875,0.000000042,,,,
"I2C","start",30.863887833,0.000000042,,,,
"I2C","address",30.863898042,0.0000865,,true,0x0B,false
"I2C","data",30.86398975,0.000160167,0x3E,true,,
"I2C","start",30.864160125,0.000000042,,,,
"I2C","address",30.864170333,0.000086458,,true,0x0B,true
"I2C","data",30.864313833,0.0000865,0x1C,true,,
"I2C","data",30.864457375,0.000086458,0x10,true,,
"I2C","data",30.864599417,0.0000865,0x7B,false,,
"I2C","stop",30.864749958,0.000000042,,,,
"I2C","start",30.865713208,0.000000042,,,,
"I2C","address",30.865723417,0.0000865,,true,0x0B,false
"I2C","data",30.865815125,0.000160042,0x3D,true,,
"I2C","start",30.865985333,0.000000042,,,,
"I2C","address",30.865995542,0.0000865,,true,0x0B,true
"I2C","data",30.866139042,0.0000865,0x18,true,,
"I2C","data",30.866282583,0.0000865,0x10,true,,
"I2C","data",30.866424667,0.000086458,0x15,false,,
"I2C","stop",30.866575292,0.000000042,,,,
"I2C","start",31.844198083,0.000000042,,,,
"I2C","address",31.844208292,0.000086458,,true,0x0B,false
"I2C","data",31.8443,0.000178958,0xD5,true,,
"I2C","start",31.844489167,0.000000042,,,,
"I2C","address",31.844499375,0.0000865,,true,0x0B,true
"I2C","data",31.844684792,0.0000865,0x00,true,,
"I2C","data",31.84482775,0.000086458,0x00,true,,
"I2C","data",31.84496975,0.000086458,0x4E,false,,
"I2C","stop",31.845120375,0.000000042,,,,
"I2C","start",31.846069583,0.000000042,,,,
"I2C","address",31.846079792,0.0000865,,true,0x0B,false
"I2C","data",31.8461715,0.000177625,0xD3,true,,
"I2C","data",31.846354375,0.000131542,0x00,true,,
"I2C","data",31.846491125,0.000134,0x00,true,,
"I2C","data",31.846630333,0.000133042,0x81,true,,
"I2C","stop",31.846773792,0.000000042,,,,
"I2C","start",31.846787625,0.000000042,,,,
"I2C","address",31.846797833,0.0000865,,true,0x0B,false
"I2C","data",31.846889542,0.000207792,0x00,true,,
"I2C","data",31.847102542,0.000131542,0x51,true,,
"I2C","data",31.847239292,0.000134,0x00,true,,
"I2C","data",31.8473785,0.000133,0x0A,true,,
"I2C","stop",31.847521958,0.000000042,,,,
"I2C","start",31.847845792,0.000000042,,,,
"I2C","address",31.847856,0.0000865,,true,0x0B,false
"I2C","data",31.847947708,0.000877583,0x23,true,,
"I2C","start",31.8488355,0.000000042,,,,
"I2C","address",31.848845708,0.0000865,,true,0x0B,true
"I2C","data",31.848990542,0.000086458,0x04,true,,
"I2C","data",31.849134958,0.000086458,0x00,true,,
"I2C","data",31.849280375,0.0000865,0x00,true,,
"I2C","data",31.849425833,0.000086458,0x00,true,,
"I2C","data",31.84957125,0.0000865,0x00,true,,
"I2C","data",31.849712833,0.0000865,0x54,false,,
"I2C","stop",31.849863458,0.000000042,,,,
"I2C","start",31.851082792,0.000000042,,,,
"I2C","address",31.851093042,0.000086458,,true,0x0B,false
"I2C","data",31.85118475,0.000157667,0x00,true,,
"I2C","data",31.851347625,0.000131542,0x53,true,,
"I2C","data",31.851484375,0.000133917,0x00,true,,
"I2C","data",31.851623542,0.000132958,0x20,true,,
"I2C","stop",31.851766917,0.000000042,,,,
"I2C","start",31.851774583,0.000000042,,,,
"I2C","address",31.851784833,0.000086458,,true,0x0B,false
"I2C","data",31.851876542,0.001196167,0x23,true,,
"I2C","start",31.853082917,0.000000042,,,,
"I2C","address",31.853093125,0.0000865,,true,0x0B,true
"I2C","data",31.853262417,0.0000865,0x04,true,,
"I2C","data",31.85345,0.0000865,0x00,true,,
"I2C","data",31.853598292,0.0000865,0x00,true,,
"I2C","data",31.853761917,0.000086458,0x00,true,,
"I2C","data",31.853909708,0.0000865,0x00,true,,
"I2C","data",31.854055125,0.000086458,0x54,false,,
"I2C","stop",31.854209083,0.000000042,,,,
"I2C","start",31.85422875,0.000000042,,,,
"I2C","address",31.854238958,0.0000865,,true,0x0B,false
"I2C","data",31.854330667,0.000170958,0x00,true,,
"I2C","data",31.854506833,0.000134,0x54,true,,
"I2C","data",31.854646042,0.000136875,0x00,true,,
"I2C","data",31.854788125,0.000136417,0x4B,true,,
"I2C","stop",31.854934958,0.000000042,,,,
"I2C","start",31.856151583,0.000000042,,,,
"I2C","address",31.856161792,0.000086458,,true,0x0B,false
"I2C","data",31.8562535,0.000472583,0x23,true,,
"I2C","start",31.85673625,0.000000042,,,,
"I2C","address",31.8567465,0.000086458,,true,0x0B,true
"I2C","data",31.856894125,0.0000865,0x04,true,,
"I2C","data",31.857041375,0.0000865,0x86,true,,
"I2C","data",31.857189083,0.0000865,0x03,true,,
"I2C","data",31.85733725,0.0000865,0x06,true,,
"I2C","data",31.857486,0.0000865,0x00,true,,
"I2C","data",31.857693583,0.000086458,0xD2,false,,
"I2C","stop",31.857915,0.000000042,,,,
"I2C","start",31.857938333,0.000000042,,,,
"I2C","address",31.857948542,0.000086458,,true,0x0B,false
"I2C","data",31.858040208,0.000167208,0x00,true,,
"I2C","data",31.858212625,0.000175458,0x55,true,,
"I2C","data",31.858393292,0.000196042,0x00,true,,
"I2C","data",31.858594583,0.000133375,0x5E,true,,
"I2C","stop",31.858738375,0.000000042,,,,
"I2C","start",31.858746458,0.000000042,,,,
"I2C","address",31.858756667,0.0000865,,true,0x0B,false
"I2C","data",31.858848375,0.001203792,0x23,true,,
"I2C","start",31.860062375,0.000000042,,,,
"I2C","address",31.860072583,0.000086458,,true,0x0B,true
"I2C","data",31.8602175,0.000086458,0x02,true,,
"I2C","data",31.860361958,0.000086458,0x10,true,,
"I2C","data",31.860507417,0.000086458,0x08,true,,
"I2C","data",31.860649042,0.000086458,0x16,true,,
"I2C","data",31.860794958,0.0000865,0x16,true,,
"I2C","data",31.8609365,0.000086458,0x16,false,,
"I2C","stop",31.861078917,0.000000042,,,,
"I2C","start",31.864108125,0.000000042,,,,
"I2C","address",31.864118333,0.0000865,,true,0x0B,false
"I2C","data",31.864210042,0.000170458,0x09,true,,
"I2C","start",31.864390667,0.000000042,,,,
"I2C","address",31.864400875,0.0000865,,true,0x0B,true
"I2C","data",31.864543875,0.0000865,0x4A,true,,
"I2C","data",31.864687375,0.000086458,0x30,true,,
"I2C","data",31.864829375,0.0000865,0x22,false,,
"I2C","stop",31.864979917,0.000000042,,,,
"I2C","start",31.865903083,0.000000042,,,,
"I2C","address",31.865913292,0.000086458,,true,0x0B,false
"I2C","data",31.866005,0.000170417,0x0A,true,,
"I2C","start",31.866185583,0.000000042,,,,
"I2C","address",31.866195833,0.000086458,,true,0x0B,true
"I2C","data",31.866338792,0.0000865,0x8D,true,,
"I2C","data",31.866482208,0.000086458,0xFC,true,,
"I2C","data",31.866624167,0.0000865,0xF4,false,,
"I2C","stop",31.866774708,0.000000042,,,,
"I2C","start",31.866786917,0.000000042,,,,
"I2C","address",31.866797167,0.000086458,,true,0x0B,false
"I2C","data",31.866888875,0.000228458,0x10,true,,
"I2C","start",31.8671275,0.000000042,,,,
"I2C","address",31.86713775,0.000086458,,true,0x0B,true
"I2C","data",31.867280708,0.0000865,0xDA,true,,
"I2C","data",31.86742425,0.0000865,0x04,true,,
"I2C","data",31.867566333,0.000086458,0x8E,false,,
"I2C","stop",31.867716958,0.000000042,,,,
"I2C","start",31.867826167,0.000000042,,,,
"I2C","address",31.867836375,0.0000865,,true,0x0B,false
"I2C","data",31.867928083,0.000171625,0x0F,true,,
"I2C","start",31.868109875,0.000000042,,,,
"I2C","address",31.868120083,0.0000865,,true,0x0B,true
"I2C","data",31.868262958,0.0000865,0x4C,true,,
"I2C","data",31.868406458,0.000086458,0x04,true,,
"I2C","data",31.8685485,0.0000865,0xA4,false,,
"I2C","stop",31.868699125,0.000000042,,,,
"I2C","start",31.868710125,0.000000042,,,,
"I2C","address",31.868720333,0.000086458,,true,0x0B,false
"I2C","data",31.868812042,0.000228417,0x08,true,,
"I2C","start",31.869050625,0.000000042,,,,
"I2C","address",31.869060833,0.0000865,,true,0x0B,true
"I2C","data",31.86925875,0.0000865,0xB1,true,,
"I2C","data",31.869459125,0.0000865,0x0B,true,,
"I2C","data",31.869600667,0.000086458,0x16,false,,
"I2C","stop",31.86975125,0.000000042,,,,
"I2C","start",31.871103875,0.000000042,,,,
"I2C","address",31.871114083,0.000086458,,true,0x0B,false
"I2C","data",31.871205792,0.000166875,0x0D,true,,
"I2C","start",31.871382833,0.000000042,,,,
"I2C","address",31.871393083,0.000086458,,true,0x0B,true
"I2C","data",31.871536583,0.000086458,0x59,true,,
"I2C","data",31.871680125,0.000086458,0x00,true,,
"I2C","data",31.871822208,0.0000865,0x82,false,,
"I2C","stop",31.871972833,0.000000042,,,,
"I2C","start",31.871989667,0.000000042,,,,
"I2C","address",31.871999875,0.0000865,,true,0x0B,false
"I2C","data",31.872091583,0.000283917,0x51,true,,
"I2C","start",31.872385667,0.000000042,,,,
"I2C","address",31.872395917,0.000086458,,true,0x0B,true
"I2C","data",31.872540875,0.000086458,0x04,true,,
"I2C","data",31.872685375,0.000086458,0x00,true,,
"I2C","data",31.872830792,0.0000865,0x00,true,,
"I2C","data",31.87297625,0.0000865,0x00,true,,
"I2C","data",31.87312175,0.000086458,0x00,true,,
"I2C","data",31.873263292,0.0000865,0xDA,false,,
"I2C","stop",31.873413875,0.000000042,,,,
"I2C","start",31.873432417,0.000000042,,,,
"I2C","address",31.873442625,0.0000865,,true,0x0B,false
"I2C","data",31.873534333,0.000236542,0xD2,true,,
"I2C","start",31.873781083,0.000000042,,,,
"I2C","address",31.873791292,0.000086458,,true,0x0B,true
"I2C","data",31.873934292,0.000086458,0x00,true,,
"I2C","data",31.874077792,0.0000865,0x00,true,,
"I2C","data",31.874219917,0.000086458,0x2C,false,,
"I2C","stop",31.8743705,0.000000042,,,,
"I2C","start",31.874380792,0.000000042,,,,
"I2C","address",31.874391042,0.000086458,,true,0x0B,false
"I2C","data",31.87448275,0.000221833,0x3F,true,,
"I2C","start",31.87471475,0.000000042,,,,
"I2C","address",31.874724958,0.0000865,,true,0x0B,true
"I2C","data",31.874867875,0.0000865,0x19,true,,
"I2C","data",31.875011333,0.000086458,0x10,true,,
"I2C","data",31.875153292,0.0000865,0x2C,false,,
"I2C","stop",31.875303917,0.000000042,,,,
"I2C","start",31.876190208,0.000000042,,,,
"I2C","address",31.876200417,0.000086458,,true,0x0B,false
"I2C","data",31.876292125,0.000159375,0x3E,true,,
"I2C","start",31.876461708,0.000000042,,,,
"I2C","address",31.876471917,0.0000865,,true,0x0B,true
"I2C","data",31.876615333,0.000086458,0x1A,true,,
"I2C","data",31.876758833,0.0000865,0x10,true,,
"I2C","data",31.8769655,0.0000865,0x05,false,,
"I2C","stop",31.877174,0.000000042,,,,
"I2C","start",31.877884625,0.000000042,,,,
"I2C","address",31.877894833,0.0000865,,true,0x0B,false
"I2C","data",31.877986542,0.000159917,0x3D,true,,
"I2C","start",31.878156625,0.000000042,,,,
"I2C","address",31.878166833,0.0000865,,true,0x0B,true
"I2C","data",31.878310333,0.0000865,0x17,true,,
"I2C","data",31.878453875,0.0000865,0x10,true,,
"I2C","data",31.878595958,0.0000865,0xD6,false,,
"I2C","stop",31.878746583,0.000000042,,,,
"I2C","start",31.87875825,0.000000042,,,,
"I2C","address",31.878768458,0.0000865,,true,0x0B,false
"I2C","data",31.878860167,0.00021675,0x3F,true,,
"I2C","start",31.879087125,0.000000042,,,,
"I2C","address",31.879097333,0.0000865,,true,0x0B,true
"I2C","data",31.879240292,0.0000865,0x19,true,,
"I2C","data",31.879383792,0.000086458,0x10,true,,
"I2C","data",31.879525833,0.000086458,0x2C,false,,
"I2C","stop",31.879676458,0.000000042,,,,
"I2C","start",31.884152333,0.000000042,,,,
"I2C","address",31.884162542,0.000086458,,true,0x0B,false
"I2C","data",31.88425425,0.000159417,0x3E,true,,
"I2C","start",31.884423875,0.000000042,,,,
"I2C","address",31.884434083,0.000086458,,true,0x0B,true
"I2C","data",31.884577417,0.0000865,0x1A,true,,
"I2C","data",31.884785292,0.0000865,0x10,true,,
"I2C","data",31.884984708,0.0000865,0x05,false,,
"I2C","stop",31.88513575,0.000000042,,,,
"I2C","start",31.886127417,0.000000042,,,,
"I2C","address",31.886137625,0.0000865,,true,0x0B,false
"I2C","data",31.886229333,0.000159708,0x3D,true,,
"I2C","start",31.886399208,0.000000042,,,,
"I2C","address",31.886409417,0.0000865,,true,0x0B,true
"I2C","data",31.886552875,0.0000865,0x17,true,,
"I2C","data",31.886696333,0.0000865,0x10,true,,
"I2C","data",31.886838417,0.000086458,0xD6,false,,
"I2C","stop",31.886989,0.000000042,,,,
"I2C","start",32.864390292,0.000000042,,,,
"I2C","address",32.8644005,0.0000865,,true,0x0B,false
"I2C","data",32.864492208,0.000179708,0xD5,true,,
"I2C","start",32.864682125,0.000000042,,,,
"I2C","address",32.864692333,0.000086458,,true,0x0B,true
"I2C","data",32.864877958,0.000086458,0x00,true,,
"I2C","data",32.865021,0.0000865,0x00,true,,
"I2C","data",32.865163083,0.0000865,0x4E,false,,
"I2C","stop",32.865313625,0.000000042,,,,
"I2C","start",32.866150458,0.000000042,,,,
"I2C","address",32.866160667,0.000086458,,true,0x0B,false
"I2C","data",32.866252375,0.000176958,0xD3,true,,
"I2C","data",32.866434542,0.000131625,0x00,true,,
"I2C","data",32.866571375,0.000134042,0x00,true,,
"I2C","data",32.866710625,0.000133042,0x81,true,,
"I2C","stop",32.866854125,0.000000042,,,,
"I2C","start",32.866870625,0.000000042,,,,
"I2C","address",32.866880833,0.000086458,,true,0x0B,false
"I2C","data",32.866972542,0.000205083,0x00,true,,
"I2C","data",32.867182875,0.000131583,0x51,true,,
"I2C","data",32.867319667,0.000134,0x00,true,,
"I2C","data",32.867458875,0.000133042,0x0A,true,,
"I2C","stop",32.867602375,0.000000042,,,,
"I2C","start",32.868038458,0.000000042,,,,
"I2C","address",32.868048667,0.0000865,,true,0x0B,false
"I2C","data",32.868140375,0.00076575,0x23,true,,
"I2C","start",32.868916333,0.000000042,,,,
"I2C","address",32.868926542,0.0000865,,true,0x0B,true
"I2C","data",32.869118833,0.0000865,0x04,true,,
"I2C","data",32.869321208,0.0000865,0x00,true,,
"I2C","data",32.869466542,0.000086458,0x00,true,,
"I2C","data",32.869611875,0.000086458,0x00,true,,
"I2C","data",32.869757208,0.0000865,0x00,true,,
"I2C","data",32.86989875,0.000086458,0x54,false,,
"I2C","stop",32.870049375,0.000000042,,,,
"I2C","start",32.871325083,0.000000042,,,,
"I2C","address",32.871335292,0.000086458,,true,0x0B,false
"I2C","data",32.871427,0.000157208,0x00,true,,
"I2C","data",32.871589417,0.000131625,0x53,true,,
"I2C","data",32.87172625,0.000134042,0x00,true,,
"I2C","data",32.8718655,0.000133083,0x20,true,,
"I2C","stop",32.872009,0.000000042,,,,
"I2C","start",32.872018708,0.000000042,,,,
"I2C","address",32.872028917,0.0000865,,true,0x0B,false
"I2C","data",32.872120625,0.00119425,0x23,true,,
"I2C","start",32.873325083,0.000000042,,,,
"I2C","address",32.873335292,0.000086458,,true,0x0B,true
"I2C","data",32.873479667,0.000086458,0x04,true,,
"I2C","data",32.873624083,0.0000865,0x00,true,,
"I2C","data",32.873769417,0.0000865,0x00,true,,
"I2C","data",32.873914792,0.0000865,0x00,true,,
"I2C","data",32.874060208,0.0000865,0x00,true,,
"I2C","data",32.874201875,0.000086458,0x54,false,,
"I2C","stop",32.874352542,0.000000042,,,,
"I2C","start",32.874371292,0.000000042,,,,
"I2C","address",32.874381542,0.000086458,,true,0x0B,false
"I2C","data",32.87447325,0.000215,0x00,true,,
"I2C","data",32.8746935,0.000131125,0x54,true,,
"I2C","data",32.874829833,0.000134,0x00,true,,
"I2C","data",32.874969042,0.000133,0x4B,true,,
"I2C","stop",32.8751125,0.000000042,,,,
"I2C","start",32.876389375,0.000000042,,,,
"I2C","address",32.876399583,0.0000865,,true,0x0B,false
"I2C","data",32.876491292,0.000468625,0x23,true,,
"I2C","start",32.876970083,0.000000042,,,,
"I2C","address",32.876980292,0.0000865,,true,0x0B,true
"I2C","data",32.87712475,0.0000865,0x04,true,,
"I2C","data",32.877269208,0.0000865,0x86,true,,
"I2C","data",32.877414583,0.0000865,0x03,true,,
"I2C","data",32.877559958,0.0000865,0x06,true,,
"I2C","data",32.877705333,0.000086458,0x00,true,,
"I2C","data",32.877846833,0.000086458,0xD2,false,,
"I2C","stop",32.877997375,0.000000042,,,,
"I2C","start",32.878057083,0.000000042,,,,
"I2C","address",32.878067292,0.000086458,,true,0x0B,false
"I2C","data",32.878159,0.000173875,0x00,true,,
"I2C","data",32.878338125,0.000131125,0x55,true,,
"I2C","data",32.878474458,0.000134,0x00,true,,
"I2C","data",32.878613708,0.000133042,0x5E,true,,
"I2C","stop",32.878757167,0.000000042,,,,
"I2C","start",32.878765417,0.000000042,,,,
"I2C","address",32.878775625,0.0000865,,true,0x0B,false
"I2C","data",32.878867375,0.001203792,0x23,true,,
"I2C","start",32.880081333,0.000000042,,,,
"I2C","address",32.880091542,0.0000865,,true,0x0B,true
"I2C","data",32.8802365,0.0000865,0x02,true,,
"I2C","data",32.880380875,0.0000865,0x10,true,,
"I2C","data",32.880526208,0.0000865,0x08,true,,
"I2C","data",32.88066775,0.000086458,0x16,true,,
"I2C","data",32.880813542,0.0000865,0x16,true,,
"I2C","data",32.880955125,0.0000865,0x16,false,,
"I2C","stop",32.881097667,0.000000042,,,,
"I2C","start",32.884341333,0.000000042,,,,
"I2C","address",32.884351542,0.0000865,,true,0x0B,false
"I2C","data",32.88444325,0.0001735,0x09,true,,
"I2C","start",32.884626917,0.000000042,,,,
"I2C","address",32.884637125,0.0000865,,true,0x0B,true
"I2C","data",32.884859083,0.0000865,0x49,true,,
"I2C","data",32.8850725,0.0000865,0x30,true,,
"I2C","data",32.885248583,0.0000865,0x1D,false,,
"I2C","stop",32.885399708,0.000000042,,,,
"I2C","start",32.886395667,0.000000042,,,,
"I2C","address",32.886405875,0.0000865,,true,0x0B,false
"I2C","data",32.886497583,0.0001705,0x0A,true,,
"I2C","start",32.88667825,0.000000042,,,,
"I2C","address",32.886688458,0.0000865,,true,0x0B,true
"I2C","data",32.886831458,0.0000865,0x8B,true,,
"I2C","data",32.886974958,0.000086458,0xFC,true,,
"I2C","data",32.887117,0.0000865,0x8A,false,,
"I2C","stop",32.887267542,0.000000042,,,,
"I2C","start",32.887277542,0.000000042,,,,
"I2C","address",32.88728775,0.0000865,,true,0x0B,false
"I2C","data",32.887379458,0.000230667,0x10,true,,
"I2C","start",32.887620333,0.000000042,,,,
"I2C","address",32.887630542,0.0000865,,true,0x0B,true
"I2C","data",32.887773458,0.000086458,0xDA,true,,
"I2C","data",32.887916958,0.000086458,0x04,true,,
"I2C","data",32.888059,0.0000865,0x8E,false,,
"I2C","stop",32.888209625,0.000000042,,,,
"I2C","start",32.888232083,0.000000042,,,,
"I2C","address",32.888242292,0.0000865,,true,0x0B,false
"I2C","data",32.888334,0.000218458,0x0F,true,,
"I2C","start",32.888562625,0.000000042,,,,
"I2C","address",32.888572833,0.0000865,,true,0x0B,true
"I2C","data",32.88871575,0.0000865,0x4C,true,,
"I2C","data",32.888859208,0.000086458,0x04,true,,
"I2C","data",32.889001208,0.000086458,0xA4,false,,
"I2C","stop",32.889151792,0.000000042,,,,
"I2C","start",32.889170792,0.000000042,,,,
"I2C","address",32.889181,0.000086458,,true,0x0B,false
"I2C","data",32.889272708,0.000220458,0x08,true,,
"I2C","start",32.889503333,0.000000042,,,,
"I2C","address",32.889513583,0.000086458,,true,0x0B,true
"I2C","data",32.889657042,0.0000865,0xB1,true,,
"I2C","data",32.889800583,0.0000865,0x0B,true,,
"I2C","data",32.889942583,0.0000865,0x16,false,,
"I2C","stop",32.890093167,0.000000042,,,,
"I2C","start",32.891305375,0.000000042,,,,
"I2C","address",32.891315583,0.0000865,,true,0x0B,false
"I2C","data",32.891407292,0.000167333,0x0D,true,,
"I2C","start",32.891584833,0.000000042,,,,
"I2C","address",32.891595042,0.000086458,,true,0x0B,true
"I2C","data",32.891792583,0.0000865,0x59,true,,
"I2C","data",32.891993542,0.0000865,0x00,true,,
"I2C","data",32.892135125,0.0000865,0x82,false,,
"I2C","stop",32.89228575,0.000000042,,,,
"I2C","start",32.892296208,0.000000042,,,,
"I2C","address",32.892306417,0.000086458,,true,0x0B,false
"I2C","data",32.892398125,0.000290208,0x51,true,,
"I2C","start",32.892698542,0.000000042,,,,
"I2C","address",32.89270875,0.0000865,,true,0x0B,true
"I2C","data",32.892853667,0.0000865,0x04,true,,
"I2C","data",32.892998167,0.0000865,0x00,true,,
"I2C","data",32.893143625,0.0000865,0x00,true,,
"I2C","data",32.893289083,0.000086458,0x00,true,,
"I2C","data",32.8934345,0.000086458,0x00,true,,
"I2C","data",32.893576083,0.0000865,0xDA,false,,
"I2C","stop",32.89372675,0.000000042,,,,
"I2C","start",32.893743417,0.000000042,,,,
"I2C","address",32.893753625,0.0000865,,true,0x0B,false
"I2C","data",32.893845333,0.000238542,0xD2,true,,
"I2C","start",32.894094042,0.000000042,,,,
"I2C","address",32.89410425,0.0000865,,true,0x0B,true
"I2C","data",32.894247167,0.000086458,0x00,true,,
"I2C","data",32.894390583,0.0000865,0x00,true,,
"I2C","data",32.894532625,0.000086458,0x2C,false,,
"I2C","stop",32.894683167,0.000000042,,,,
"I2C","start",32.894695625,0.000000042,,,,
"I2C","address",32.894705833,0.0000865,,true,0x0B,false
"I2C","data",32.894797542,0.00021975,0x3F,true,,
"I2C","start",32.8950275,0.000000042,,,,
"I2C","address",32.895037708,0.0000865,,true,0x0B,true
"I2C","data",32.895180708,0.0000865,0x18,true,,
"I2C","data",32.89532425,0.0000865,0x10,true,,
"I2C","data",32.89546625,0.0000865,0x39,false,,
"I2C","stop",32.895616792,0.000000042,,,,
"I2C","start",32.896377875,0.000000042,,,,
"I2C","address",32.896388083,0.0000865,,true,0x0B,false
"I2C","data",32.896479792,0.000160083,0x3E,true,,
"I2C","start",32.896650083,0.000000042,,,,
"I2C","address",32.896660292,0.0000865,,true,0x0B,true
"I2C","data",32.896803708,0.0000865,0x1A,true,,
"I2C","data",32.896947125,0.0000865,0x10,true,,
"I2C","data",32.897089125,0.0000865,0x05,false,,
"I2C","stop",32.897239625,0.000000042,,,,
"I2C","start",32.897250583,0.000000042,,,,
"I2C","address",32.897260792,0.0000865,,true,0x0B,false
"I2C","data",32.8973525,0.000217375,0x3D,true,,
"I2C","start",32.897580042,0.000000042,,,,
"I2C","address",32.89759025,0.0000865,,true,0x0B,true
"I2C","data",32.89773325,0.0000865,0x16,true,,
"I2C","data",32.89787675,0.0000865,0x10,true,,
"I2C","data",32.898018833,0.000086458,0xC3,false,,
"I2C","stop",32.898169417,0.000000042,,,,
"I2C","start",32.898194542,0.000000042,,,,
"I2C","address",32.89820475,0.0000865,,true,0x0B,false
"I2C","data",32.898296458,0.000203083,0x3F,true,,
"I2C","start",32.898509708,0.000000042,,,,
"I2C","address",32.898519917,0.0000865,,true,0x0B,true
"I2C","data",32.898662833,0.000086458,0x18,true,,
"I2C","data",32.89880625,0.0000865,0x10,true,,
"I2C","data",32.898948333,0.000086458,0x39,false,,
"I2C","stop",32.899098958,0.000000042,,,,
"I2C","start",32.899113375,0.000000042,,,,
"I2C","address",32.899123583,0.0000865,,true,0x0B,false
"I2C","data",32.899215292,0.000214042,0x3E,true,,
"I2C","start",32.8994395,0.000000042,,,,
"I2C","address",32.899449708,0.0000865,,true,0x0B,true
"I2C","data",32.899647708,0.0000865,0x1A,true,,
"I2C","data",32.899793167,0.0000865,0x10,true,,
"I2C","data",32.900029917,0.0000865,0x05,false,,
"I2C","stop",32.900183917,0.000000042,,,,
"I2C","start",32.904582625,0.000000042,,,,
"I2C","address",32.904592833,0.0000865,,true,0x0B,false
"I2C","data",32.904684542,0.000159958,0x3D,true,,
"I2C","start",32.904854667,0.000000042,,,,
"I2C","address",32.904864917,0.000086458,,true,0x0B,true
"I2C","data",32.905008375,0.000086458,0x16,true,,
"I2C","data",32.905151833,0.000086458,0x10,true,,
"I2C","data",32.905293833,0.000086458,0xC3,false,,
"I2C","stop",32.905444375,0.000000042,,,,
"I2C","start",33.884568458,0.000000042,,,,
"I2C","address",33.884578667,0.0000865,,true,0x0B,false
"I2C","data",33.884670375,0.000178792,0xD5,true,,
"I2C","start",33.884859333,0.000000042,,,,
"I2C","address",33.884869542,0.0000865,,true,0x0B,true
"I2C","data",33.885055042,0.000086458,0x00,true,,
"I2C","data",33.885198,0.0000865,0x00,true,,
"I2C","data",33.885340042,0.0000865,0x4E,false,,
"I2C","stop",33.885490667,0.000000042,,,,
"I2C","start",33.886569292,0.000000042,,,,
"I2C","address",33.886579542,0.000086458,,true,0x0B,false
"I2C","data",33.886671208,0.000177542,0xD3,true,,
"I2C","data",33.886853958,0.000131542,0x00,true,,
"I2C","data",33.88699075,0.000133958,0x00,true,,
"I2C","data",33.887129917,0.000133,0x81,true,,
"I2C","stop",33.887273333,0.000000042,,,,
"I2C","start",33.887286583,0.000000042,,,,
"I2C","address",33.887296792,0.0000865,,true,0x0B,false
"I2C","data",33.8873885,0.000208208,0x00,true,,
"I2C","data",33.887601958,0.000131542,0x51,true,,
"I2C","data",33.887738708,0.000133958,0x00,true,,
"I2C","data",33.887877875,0.000133,0x0A,true,,
"I2C","stop",33.888021333,0.000000042,,,,
"I2C","start",33.888314042,0.000000042,,,,
"I2C","address",33.888324292,0.000086458,,true,0x0B,false
"I2C","data",33.888415958,0.000908958,0x23,true,,
"I2C","start",33.889335125,0.000000042,,,,
"I2C","address",33.889345333,0.000086458,,true,0x0B,true
"I2C","data",33.889490208,0.000086458,0x04,true,,
"I2C","data",33.889634667,0.000086458,0x00,true,,
"I2C","data",33.889780042,0.0000865,0x00,true,,
"I2C","data",33.889925458,0.0000865,0x00,true,,
"I2C","data",33.890070917,0.000086458,0x00,true,,
"I2C","data",33.890212417,0.0000865,0x54,false,,
"I2C","stop",33.890363,0.000000042,,,,
"I2C","start",33.891530708,0.000000042,,,,
"I2C","address",33.891540917,0.0000865,,true,0x0B,false
"I2C","data",33.891632625,0.000157292,0x00,true,,
"I2C","data",33.891795125,0.0001315,0x53,true,,
"I2C","data",33.891931833,0.000133875,0x00,true,,
"I2C","data",33.892070917,0.000132917,0x20,true,,
"I2C","stop",33.89221425,0.000000042,,,,
"I2C","start",33.892222458,0.000000042,,,,
"I2C","address",33.892232667,0.0000865,,true,0x0B,false
"I2C","data",33.892324375,0.001195375,0x23,true,,
"I2C","start",33.893529958,0.000000042,,,,
"I2C","address",33.893540167,0.0000865,,true,0x0B,true
"I2C","data",33.893684542,0.0000865,0x04,true,,
"I2C","data",33.893828958,0.0000865,0x00,true,,
"I2C","data",33.893974333,0.0000865,0x00,true,,
"I2C","data",33.89411975,0.0000865,0x00,true,,
"I2C","data",33.894265167,0.0000865,0x00,true,,
"I2C","data",33.894406667,0.0000865,0x54,false,,
"I2C","stop",33.894557167,0.000000042,,,,
"I2C","start",33.894576083,0.000000042,,,,
"I2C","address",33.894586292,0.0000865,,true,0x0B,false
"I2C","data",33.894678,0.000214542,0x00,true,,
"I2C","data",33.89489775,0.000131083,0x54,true,,
"I2C","data",33.895034083,0.000133958,0x00,true,,
"I2C","data",33.89517325,0.000133042,0x4B,true,,
"I2C","stop",33.895316708,0.000000042,,,,
"I2C","start",33.8965815,0.000000042,,,,
"I2C","address",33.896591708,0.0000865,,true,0x0B,false
"I2C","data",33.896683458,0.000469167,0x23,true,,
"I2C","start",33.897162792,0.000000042,,,,
"I2C","address",33.897173042,0.000086458,,true,0x0B,true
"I2C","data",33.897317458,0.0000865,0x04,true,,
"I2C","data",33.897461958,0.000086458,0x86,true,,
"I2C","data",33.897607375,0.000086458,0x03,true,,
"I2C","data",33.89775275,0.0000865,0x06,true,,
"I2C","data",33.897898167,0.0000865,0x00,true,,
"I2C","data",33.89803975,0.0000865,0xD2,false,,
"I2C","stop",33.898190375,0.000000042,,,,
"I2C","start",33.898279042,0.000000042,,,,
"I2C","address",33.89828925,0.0000865,,true,0x0B,false
"I2C","data",33.898380958,0.000229042,0x00,true,,
"I2C","data",33.898615208,0.000193667,0x55,true,,
"I2C","data",33.898814083,0.000133417,0x00,true,,
"I2C","data",33.898952708,0.000133,0x5E,true,,
"I2C","stop",33.899096125,0.000000042,,,,
"I2C","start",33.89910425,0.000000042,,,,
"I2C","address",33.899114458,0.000086458,,true,0x0B,false
"I2C","data",33.899206167,0.001203458,0x23,true,,
"I2C","start",33.900419833,0.000000042,,,,
"I2C","address",33.900430042,0.0000865,,true,0x0B,true
"I2C","data",33.900574917,0.0000865,0x02,true,,
"I2C","data",33.900719375,0.0000865,0x10,true,,
"I2C","data",33.900864792,0.000086458,0x08,true,,
"I2C","data",33.901006375,0.0000865,0x16,true,,
"I2C","data",33.90115225,0.000086458,0x16,true,,
"I2C","data",33.901293708,0.0000865,0x16,false,,
"I2C","stop",33.901436083,0.000000042,,,,
"I2C","start",33.904700417,0.000000042,,,,
"I2C","address",33.904710625,0.000086458,,true,0x0B,false
"I2C","data",33.904802333,0.00017075,0x09,true,,
"I2C","start",33.90498325,0.000000042,,,,
"I2C","address",33.904993458,0.0000865,,true,0x0B,true
"I2C","data",33.905136417,0.000086458,0x44,true,,
"I2C","data",33.905279917,0.000086458,0x30,true,,
"I2C","data",33.905421917,0.0000865,0xF4,false,,
"I2C","stop",33.905572542,0.000000042,,,,
"I2C","start",33.90652975,0.000000042,,,,
"I2C","address",33.906539958,0.0000865,,true,0x0B,false
"I2C","data",33.906631667,0.000170208,0x0A,true,,
"I2C","start",33.906812042,0.000000042,,,,
"I2C","address",33.90682225,0.0000865,,true,0x0B,true
"I2C","data",33.906965125,0.0000865,0x89,true,,
"I2C","data",33.907108542,0.0000865,0xFC,true,,
"I2C","data",33.907250542,0.0000865,0xA0,false,,
"I2C","stop",33.907401167,0.000000042,,,,
"I2C","start",33.907412167,0.000000042,,,,
"I2C","address",33.907422375,0.0000865,,true,0x0B,false
"I2C","data",33.907514083,0.000229917,0x10,true,,
"I2C","start",33.907754167,0.000000042,,,,
"I2C","address",33.907764375,0.0000865,,true,0x0B,true
"I2C","data",33.907907375,0.0000865,0xDA,true,,
"I2C","data",33.908050833,0.0000865,0x04,true,,
"I2C","data",33.908192792,0.0000865,0x8E,false,,
"I2C","stop",33.908343375,0.000000042,,,,
"I2C","start",33.908379625,0.000000042,,,,
"I2C","address",33.908389833,0.0000865,,true,0x0B,false
"I2C","data",33.908481542,0.000204375,0x0F,true,,
"I2C","start",33.908696125,0.000000042,,,,
"I2C","address",33.908706333,0.000086458,,true,0x0B,true
"I2C","data",33.908849292,0.000086458,0x4C,true,,
"I2C","data",33.90899275,0.0000865,0x04,true,,
"I2C","data",33.909134792,0.0000865,0xA4,false,,
"I2C","stop",33.909285417,0.000000042,,,,
"I2C","start",33.909294583,0.000000042,,,,
"I2C","address",33.909304792,0.0000865,,true,0x0B,false
"I2C","data",33.9093965,0.00023,0x08,true,,
"I2C","start",33.909636708,0.000000042,,,,
"I2C","address",33.909646917,0.0000865,,true,0x0B,true
"I2C","data",33.90979025,0.000086458,0xB1,true,,
"I2C","data",33.909933625,0.0000865,0x0B,true,,
"I2C","data",33.910075625,0.0000865,0x16,false,,
"I2C","stop",33.910226292,0.000000042,,,,
"I2C","start",33.911524458,0.000000042,,,,
"I2C","address",33.911534667,0.0000865,,true,0x0B,false
"I2C","data",33.911626375,0.000167083,0x0D,true,,
"I2C","start",33.911803667,0.000000042,,,,
"I2C","address",33.911813875,0.000086458,,true,0x0B,true
"I2C","data",33.911957333,0.000086458,0x59,true,,
"I2C","data",33.912100792,0.0000865,0x00,true,,
"I2C","data",33.912242875,0.0000865,0x82,false,,
"I2C","stop",33.9123935,0.000000042,,,,
"I2C","start",33.912404,0.000000042,,,,
"I2C","address",33.91241425,0.000086458,,true,0x0B,false
"I2C","data",33.912505958,0.000290083,0x51,true,,
"I2C","start",33.912806208,0.000000042,,,,
"I2C","address",33.912816417,0.0000865,,true,0x0B,true
"I2C","data",33.912961333,0.000086458,0x04,true,,
"I2C","data",33.913105792,0.000086458,0x00,true,,
"I2C","data",33.913251167,0.0000865,0x00,true,,
"I2C","data",33.913396625,0.0000865,0x00,true,,
"I2C","data",33.913542042,0.000086458,0x00,true,,
"I2C","data",33.913683625,0.0000865,0xDA,false,,
"I2C","stop",33.91383425,0.000000042,,,,
"I2C","start",33.913862042,0.000000042,,,,
"I2C","address",33.91387225,0.0000865,,true,0x0B,false
"I2C","data",33.913963958,0.000227375,0xD2,true,,
"I2C","start",33.914201542,0.000000042,,,,
"I2C","address",33.91421175,0.0000865,,true,0x0B,true
"I2C","data",33.9144045,0.000086458,0x00,true,,
"I2C","data",33.914605417,0.0000865,0x00,true,,
"I2C","data",33.9147475,0.0000865,0x2C,false,,
"I2C","stop",33.914898083,0.000000042,,,,
"I2C","start",33.914910042,0.000000042,,,,
"I2C","address",33.91492025,0.0000865,,true,0x0B,false
"I2C","data",33.915011958,0.000220083,0x3F,true,,
"I2C","start",33.91524225,0.000000042,,,,
"I2C","address",33.915252458,0.0000865,,true,0x0B,true
"I2C","data",33.915426958,0.0000865,0x16,true,,
"I2C","data",33.915573292,0.000086458,0x10,true,,
"I2C","data",33.915718708,0.0000865,0xEF,false,,
"I2C","stop",33.915892792,0.000000042,,,,
"I2C","start",33.9166055,0.000000042,,,,
"I2C","address",33.916615708,0.0000865,,true,0x0B,false
"I2C","data",33.916707417,0.000159583,0x3E,true,,
"I2C","start",33.916877167,0.000000042,,,,
"I2C","address",33.916887375,0.0000865,,true,0x0B,true
"I2C","data",33.917030833,0.0000865,0x18,true,,
"I2C","data",33.917174333,0.000086458,0x10,true,,
"I2C","data",33.917316417,0.000086458,0x2F,false,,
"I2C","stop",33.917467,0.000000042,,,,
"I2C","start",33.917478333,0.000000042,,,,
"I2C","address",33.917488542,0.0000865,,true,0x0B,false
"I2C","data",33.91758025,0.000216958,0x3D,true,,
"I2C","start",33.917807375,0.000000042,,,,
"I2C","address",33.917817625,0.000086458,,true,0x0B,true
"I2C","data",33.917960458,0.0000865,0x15,true,,
"I2C","data",33.918103875,0.000086458,0x10,true,,
"I2C","data",33.918245833,0.000086458,0xFC,false,,
"I2C","stop",33.918396458,0.000000042,,,,
"I2C","start",33.918419,0.000000042,,,,
"I2C","address",33.918429208,0.0000865,,true,0x0B,false
"I2C","data",33.918520917,0.000205833,0x3F,true,,
"I2C","start",33.918736958,0.000000042,,,,
"I2C","address",33.918747167,0.000086458,,true,0x0B,true
"I2C","data",33.918890125,0.0000865,0x16,true,,
"I2C","data",33.919033583,0.0000865,0x10,true,,
"I2C","data",33.919175542,0.0000865,0xEF,false,,
"I2C","stop",33.919326042,0.000000042,,,,
"I2C","start",33.919336375,0.000000042,,,,
"I2C","address",33.919346583,0.000086458,,true,0x0B,false
"I2C","data",33.919438292,0.000217833,0x3E,true,,
"I2C","start",33.919666333,0.000000042,,,,
"I2C","address",33.919676542,0.0000865,,true,0x0B,true
"I2C","data",33.9198195,0.0000865,0x18,true,,
"I2C","data",33.919963,0.000086458,0x10,true,,
"I2C","data",33.920105042,0.0000865,0x2F,false,,
"I2C","stop",33.920255667,0.000000042,,,,
"I2C","start",33.924600917,0.000000042,,,,
"I2C","address",33.924611125,0.0000865,,true,0x0B,false
"I2C","data",33.924702833,0.000159125,0x3D,true,,
"I2C","start",33.924872167,0.000000042,,,,
"I2C","address",33.924882375,0.0000865,,true,0x0B,true
"I2C","data",33.925025792,0.000086458,0x15,true,,
"I2C","data",33.92516925,0.0000865,0x10,true,,
"I2C","data",33.925311333,0.0000865,0xFC,false,,
"I2C","stop",33.925462042,0.000000042,,,,
"I2C","start",33.926806083,0.000000042,,,,
"I2C","address",33.926816292,0.0000865,,true,0x0B,false
"I2C","data",33.926908,0.000182958,0xD8,true,,
"I2C","start",33.927101167,0.000000042,,,,
"I2C","address",33.927111375,0.0000865,,true,0x0B,true
"I2C","data",33.927256292,0.000086458,0x0E,true,,
"I2C","data",33.927400708,0.000086458,0x30,true,,
"I2C","data",33.927546083,0.000086458,0x43,true,,
"I2C","data",33.927691417,0.0000865,0x30,true,,
"I2C","data",33.927836792,0.0000865,0x41,true,,
"I2C","data",33.927982208,0.0000865,0x45,true,,
"I2C","data",33.928127667,0.000086458,0x39,true,,
"I2C","data",33.928273083,0.0000865,0x56,true,,
"I2C","data",33.928418542,0.0000865,0x42,true,,
"I2C","data",33.928563958,0.0000865,0x33,true,,
"I2C","data",33.928709417,0.0000865,0x33,true,,
"I2C","data",33.928854875,0.0000865,0x30,true,,
"I2C","data",33.929000292,0.0000865,0x31,true,,
"I2C","data",33.92914575,0.0000865,0x53,true,,
"I2C","data",33.929291208,0.000086458,0x51,true,,
"I2C","data",33.929432833,0.0000865,0x60,false,,
"I2C","stop",33.929583458,0.000000042,,,,
"I2C","start",33.929600875,0.000000042,,,,
"I2C","address",33.929611083,0.0000865,,true,0x0B,false
"I2C","data",33.929702792,0.000220167,0xC2,true,,
"I2C","start",33.929933125,0.000000042,,,,
"I2C","address",33.929943333,0.0000865,,true,0x0B,true
"I2C","data",33.930135167,0.0000865,0x08,true,,
"I2C","data",33.9303375,0.0000865,0x01,true,,
"I2C","data",33.930483417,0.000086458,0x00,true,,
"I2C","data",33.930628833,0.0000865,0x00,true,,
"I2C","data",33.93077425,0.0000865,0x00,true,,
"I2C","data",33.930919667,0.0000865,0x55,true,,
"I2C","data",33.931065167,0.000086458,0x00,true,,
"I2C","data",33.931210625,0.000086458,0x00,true,,
"I2C","data",33.931356042,0.0000865,0x01,true,,
"I2C","data",33.931497583,0.0000865,0xAE,false,,
"I2C","stop",33.931648125,0.000000042,,,,
"I2C","start",33.9320405,0.000000042,,,,
"I2C","address",33.932050708,0.0000865,,true,0x0B,false
"I2C","data",33.932142417,0.000305208,0x66,true,,
"I2C","start",33.932457792,0.000000042,,,,
"I2C","address",33.932468,0.0000865,,true,0x0B,true
"I2C","data",33.93268475,0.0000865,0x20,true,,
"I2C","data",33.933049042,0.0000865,0x94,true,,
"I2C","data",33.93319725,0.000086458,0x48,true,,
"I2C","data",33.933345417,0.000086458,0xFA,true,,
"I2C","data",33.933494125,0.0000865,0x63,true,,
"I2C","data",33.933642917,0.0000865,0x01,true,,
"I2C","data",33.93379125,0.000086458,0x60,true,,
"I2C","data",33.933939083,0.0000865,0xE4,true,,
"I2C","data",33.934087875,0.000086458,0x04,true,,
"I2C","data",33.934236583,0.000086458,0xA8,true,,
"I2C","data",33.93438525,0.0000865,0x10,true,,
"I2C","data",33.934533458,0.0000865,0xB1,true,,
"I2C","data",33.934682125,0.0000865,0x10,true,,
"I2C","data",33.934830875,0.000086458,0xB1,true,,
"I2C","data",33.934978708,0.000086458,0x10,true,,
"I2C","data",33.935127042,0.000086458,0x00,true,,
"I2C","data",33.935275833,0.000086458,0x00,true,,
"I2C","data",33.935424125,0.0000865,0x00,true,,
"I2C","data",33.935572333,0.0000865,0x00,true,,
"I2C","data",33.935720083,0.0000865,0xEC,true,,
"I2C","data",33.93586925,0.0000865,0x04,true,,
"I2C","data",33.936017958,0.0000865,0x00,true,,
"I2C","data",33.936166167,0.0000865,0x00,true,,
"I2C","data",33.936315,0.0000865,0x0A,true,,
"I2C","data",33.936464292,0.000086458,0x32,true,,
"I2C","data",33.936612583,0.0000865,0x1A,true,,
"I2C","data",33.936760917,0.0000865,0x17,true,,
"I2C","data",33.93690925,0.000086458,0x00,true,,
"I2C","data",33.937058042,0.000086458,0x00,true,,
"I2C","data",33.937206333,0.000086458,0x00,true,,
"I2C","data",33.937355083,0.0000865,0x00,true,,
"I2C","data",33.937503875,0.0000865,0x00,true,,
"I2C","data",33.937666583,0.000086458,0x00,true,,
"I2C","data",33.937811542,0.0000865,0xC8,false,,
"I2C","stop",33.9379655,0.000000042,,,,
"I2C","start",34.9049765,0.000000042,,,,
"I2C","address",34.904986708,0.0000865,,true,0x0B,false
"I2C","data",34.905078417,0.000179417,0xD5,true,,
"I2C","start",34.905268,0.000000042,,,,
"I2C","address",34.905278208,0.0000865,,true,0x0B,true
"I2C","data",34.905463833,0.0000865,0x00,true,,
"I2C","data",34.905671792,0.000086458,0x00,true,,
"I2C","data",34.905871083,0.0000865,0x4E,false,,
"I2C","stop",34.906021667,0.000000042,,,,
"I2C","start",34.906742833,0.000000042,,,,
"I2C","address",34.906753083,0.000086458,,true,0x0B,false
"I2C","data",34.906844792,0.000177458,0xD3,true,,
"I2C","data",34.9070275,0.0001315,0x00,true,,
"I2C","data",34.907164208,0.000133875,0x00,true,,
"I2C","data",34.907303333,0.000132917,0x81,true,,
"I2C","stop",34.907446667,0.000000042,,,,
"I2C","start",34.907461292,0.000000042,,,,
"I2C","address",34.9074715,0.0000865,,true,0x0B,false
"I2C","data",34.907563208,0.000206917,0x00,true,,
"I2C","data",34.907775333,0.000131625,0x51,true,,
"I2C","data",34.907912167,0.000134042,0x00,true,,
"I2C","data",34.908051458,0.000133042,0x0A,true,,
"I2C","stop",34.908194917,0.000000042,,,,
"I2C","start",34.90849025,0.000000042,,,,
"I2C","address",34.9085005,0.000086458,,true,0x0B,false
"I2C","data",34.908592208,0.000906542,0x23,true,,
"I2C","start",34.909508917,0.000000042,,,,
"I2C","address",34.909519167,0.000086458,,true,0x0B,true
"I2C","data",34.909664083,0.0000865,0x04,true,,
"I2C","data",34.909808542,0.0000865,0x00,true,,
"I2C","data",34.909953958,0.0000865,0x00,true,,
"I2C","data",34.910099417,0.0000865,0x00,true,,
"I2C","data",34.910244833,0.000086458,0x00,true,,
"I2C","data",34.910386417,0.0000865,0x54,false,,
"I2C","stop",34.910537083,0.000000042,,,,
"I2C","start",34.911731292,0.000000042,,,,
"I2C","address",34.9117415,0.0000865,,true,0x0B,false
"I2C","data",34.911833208,0.000157,0x00,true,,
"I2C","data",34.911995458,0.000131583,0x53,true,,
"I2C","data",34.91213225,0.000133958,0x00,true,,
"I2C","data",34.912271417,0.000133,0x20,true,,
"I2C","stop",34.912414875,0.000000042,,,,
"I2C","start",34.9124225,0.000000042,,,,
"I2C","address",34.912432708,0.000086458,,true,0x0B,false
"I2C","data",34.912524417,0.001195875,0x23,true,,
"I2C","start",34.913730458,0.000000042,,,,
"I2C","address",34.913740667,0.0000865,,true,0x0B,true
"I2C","data",34.913932792,0.000086458,0x04,true,,
"I2C","data",34.91408,0.0000865,0x00,true,,
"I2C","data",34.914320417,0.000086458,0x00,true,,
"I2C","data",34.914511667,0.0000865,0x00,true,,
"I2C","data",34.914660458,0.0000865,0x00,true,,
"I2C","data",34.914804917,0.0000865,0x54,false,,
"I2C","stop",34.914958875,0.000000042,,,,
"I2C","start",34.915005167,0.000000042,,,,
"I2C","address",34.915015375,0.0000865,,true,0x0B,false
"I2C","data",34.915107083,0.000160417,0x00,true,,
"I2C","data",34.915272708,0.000134375,0x54,true,,
"I2C","data",34.915412292,0.00013725,0x00,true,,
"I2C","data",34.91555475,0.000203708,0x4B,true,,
"I2C","stop",34.915768875,0.000000042,,,,
"I2C","start",34.916825625,0.000000042,,,,
"I2C","address",34.916835833,0.0000865,,true,0x0B,false
"I2C","data",34.916927542,0.000475083,0x23,true,,
"I2C","start",34.917412833,0.000000042,,,,
"I2C","address",34.917423042,0.0000865,,true,0x0B,true
"I2C","data",34.91759,0.000086458,0x04,true,,
"I2C","data",34.917737833,0.000086458,0x86,true,,
"I2C","data",34.917948292,0.0000865,0x03,true,,
"I2C","data",34.918093708,0.0000865,0x06,true,,
"I2C","data",34.918239083,0.0000865,0x00,true,,
"I2C","data",34.918380667,0.0000865,0xD2,false,,
"I2C","stop",34.91853125,0.000000042,,,,
"I2C","start",34.918548042,0.000000042,,,,
"I2C","address",34.91855825,0.0000865,,true,0x0B,false
"I2C","data",34.918649958,0.000216875,0x00,true,,
"I2C","data",34.918872042,0.000131083,0x55,true,,
"I2C","data",34.919008375,0.000133958,0x00,true,,
"I2C","data",34.919147542,0.000133,0x5E,true,,
"I2C","stop",34.919290958,0.000000042,,,,
"I2C","start",34.919298292,0.000000042,,,,
"I2C","address",34.9193085,0.0000865,,true,0x0B,false
"I2C","data",34.919400208,0.0012045,0x23,true,,
"I2C","start",34.920614917,0.000000042,,,,
"I2C","address",34.920625125,0.000086458,,true,0x0B,true
"I2C","data",34.920769917,0.0000865,0x02,true,,
"I2C","data",34.92091425,0.0000865,0x10,true,,
"I2C","data",34.921059583,0.0000865,0x08,true,,
"I2C","data",34.921266083,0.0000865,0x16,true,,
"I2C","data",34.921469833,0.0000865,0x16,true,,
"I2C","data",34.921610958,0.000086458,0x16,false,,
"I2C","stop",34.921753458,0.000000042,,,,
"I2C","start",34.924781208,0.000000042,,,,
"I2C","address",34.924791417,0.0000865,,true,0x0B,false
"I2C","data",34.924883125,0.000170458,0x09,true,,
"I2C","start",34.925063792,0.000000042,,,,
"I2C","address",34.925074,0.0000865,,true,0x0B,true
"I2C","data",34.925216958,0.0000865,0x44,true,,
"I2C","data",34.925360458,0.0000865,0x30,true,,
"I2C","data",34.925502542,0.000086458,0xF4,false,,
"I2C","stop",34.925653125,0.000000042,,,,
"I2C","start",34.926709542,0.000000042,,,,
"I2C","address",34.92671975,0.0000865,,true,0x0B,false
"I2C","data",34.926811458,0.000170583,0x0A,true,,
"I2C","start",34.926992208,0.000000042,,,,
"I2C","address",34.927002417,0.0000865,,true,0x0B,true
"I2C","data",34.927145375,0.0000865,0x86,true,,
"I2C","data",34.927288917,0.000086458,0xFC,true,,
"I2C","data",34.927430958,0.0000865,0x63,false,,
"I2C","stop",34.9275815,0.000000042,,,,
"I2C","start",34.927591542,0.000000042,,,,
"I2C","address",34.92760175,0.0000865,,true,0x0B,false
"I2C","data",34.927693458,0.000230542,0x10,true,,
"I2C","start",34.927934208,0.000000042,,,,
"I2C","address",34.927944417,0.0000865,,true,0x0B,true
"I2C","data",34.928087292,0.0000865,0xDA,true,,
"I2C","data",34.92823075,0.0000865,0x04,true,,
"I2C","data",34.928372792,0.0000865,0x8E,false,,
"I2C","stop",34.928523417,0.000000042,,,,
"I2C","start",34.928542125,0.000000042,,,,
"I2C","address",34.928552333,0.0000865,,true,0x0B,false
"I2C","data",34.928644042,0.000222125,0x0F,true,,
"I2C","start",34.928876375,0.000000042,,,,
"I2C","address",34.928886583,0.000086458,,true,0x0B,true
"I2C","data",34.929083917,0.000086458,0x4C,true,,
"I2C","data",34.929284625,0.0000865,0x04,true,,
"I2C","data",34.929426583,0.000086458,0xA4,false,,
"I2C","stop",34.929577083,0.000000042,,,,
"I2C","start",34.929587917,0.000000042,,,,
"I2C","address",34.929598167,0.000086458,,true,0x0B,false
"I2C","data",34.929689833,0.0002285,0x08,true,,
"I2C","start",34.929928542,0.000000042,,,,
"I2C","address",34.92993875,0.0000865,,true,0x0B,true
"I2C","data",34.930082208,0.0000865,0xB2,true,,
"I2C","data",34.930225708,0.000086458,0x0B,true,,
"I2C","data",34.930367625,0.0000865,0x29,false,,
"I2C","stop",34.930518125,0.000000042,,,,
"I2C","start",34.9317465,0.000000042,,,,
"I2C","address",34.931756708,0.0000865,,true,0x0B,false
"I2C","data",34.931848417,0.000167667,0x0D,true,,
"I2C","start",34.932026292,0.000000042,,,,
"I2C","address",34.9320365,0.0000865,,true,0x0B,true
"I2C","data",34.932179833,0.000086458,0x59,true,,
"I2C","data",34.93232325,0.0000865,0x00,true,,
"I2C","data",34.932465292,0.0000865,0x82,false,,
"I2C","stop",34.932615917,0.000000042,,,,
"I2C","start",34.932626917,0.000000042,,,,
"I2C","address",34.932637125,0.0000865,,true,0x0B,false
"I2C","data",34.932728833,0.000289625,0x51,true,,
"I2C","start",34.933028625,0.000000042,,,,
"I2C","address",34.933038875,0.000086458,,true,0x0B,true
"I2C","data",34.933225833,0.0000865,0x04,true,,
"I2C","data",34.933373667,0.000086458,0x00,true,,
"I2C","data",34.933534375,0.000086458,0x00,true,,
"I2C","data",34.933773,0.0000865,0x00,true,,
"I2C","data",34.93398875,0.000086458,0x00,true,,
"I2C","data",34.93416525,0.000086458,0xDA,false,,
"I2C","stop",34.934315833,0.000000042,,,,
"I2C","start",34.934332375,0.000000042,,,,
"I2C","address",34.934342583,0.0000865,,true,0x0B,false
"I2C","data",34.934434292,0.000238625,0xD2,true,,
"I2C","start",34.934683083,0.000000042,,,,
"I2C","address",34.934693292,0.0000865,,true,0x0B,true
"I2C","data",34.93483625,0.0000865,0x00,true,,
"I2C","data",34.934979792,0.000086458,0x00,true,,
"I2C","data",34.935121792,0.0000865,0x2C,false,,
"I2C","stop",34.935272417,0.000000042,,,,
"I2C","start",34.93680075,0.000000042,,,,
"I2C","address",34.936810958,0.0000865,,true,0x0B,false
"I2C","data",34.936902667,0.000159625,0x3F,true,,
"I2C","start",34.937072458,0.000000042,,,,
"I2C","address",34.937082667,0.0000865,,true,0x0B,true
"I2C","data",34.937226042,0.0000865,0x17,true,,
"I2C","data",34.937369458,0.000086458,0x10,true,,
"I2C","data",34.937511417,0.0000865,0xFA,false,,
"I2C","stop",34.937661958,0.000000042,,,,
"I2C","start",34.937672417,0.000000042,,,,
"I2C","address",34.937682667,0.000086458,,true,0x0B,false
"I2C","data",34.937774375,0.000217792,0x3E,true,,
"I2C","start",34.938002375,0.000000042,,,,
"I2C","address",34.938012583,0.0000865,,true,0x0B,true
"I2C","data",34.938155542,0.0000865,0x18,true,,
"I2C","data",34.938299042,0.000086458,0x10,true,,
"I2C","data",34.938441083,0.0000865,0x2F,false,,
"I2C","stop",34.938591625,0.000000042,,,,
"I2C","start",34.938604583,0.000000042,,,,
"I2C","address",34.938614792,0.0000865,,true,0x0B,false
"I2C","data",34.9387065,0.000215125,0x3D,true,,
"I2C","start",34.938931792,0.000000042,,,,
"I2C","address",34.938942042,0.000086458,,true,0x0B,true
"I2C","data",34.939084833,0.0000865,0x14,true,,
"I2C","data",34.939228292,0.000086458,0x10,true,,
"I2C","data",34.939370292,0.000086458,0xE9,false,,
"I2C","stop",34.939520875,0.000000042,,,,
"I2C","start",34.939532375,0.000000042,,,,
"I2C","address",34.939542583,0.0000865,,true,0x0B,false
"I2C","data",34.939634333,0.000216792,0x3F,true,,
"I2C","start",34.939861292,0.000000042,,,,
"I2C","address",34.939871542,0.000086458,,true,0x0B,true
"I2C","data",34.940014375,0.0000865,0x17,true,,
"I2C","data",34.94015775,0.0000865,0x10,true,,
"I2C","data",34.940299708,0.000086458,0xFA,false,,
"I2C","stop",34.940450167,0.000000042,,,,
"I2C","start",34.944804667,0.000000042,,,,
"I2C","address",34.944814875,0.0000865,,true,0x0B,false
"I2C","data",34.944906625,0.000159583,0x3E,true,,
"I2C","start",34.945076375,0.000000042,,,,
"I2C","address",34.945086583,0.0000865,,true,0x0B,true
"I2C","data",34.945230083,0.0000865,0x18,true,,
"I2C","data",34.945373625,0.0000865,0x10,true,,
"I2C","data",34.945515625,0.0000865,0x2F,false,,
"I2C","stop",34.945666208,0.000000042,,,,
"I2C","start",34.946602375,0.000000042,,,,
"I2C","address",34.946612583,0.0000865,,true,0x0B,false
"I2C","data",34.946704333,0.00016,0x3D,true,,
"I2C","start",34.946874542,0.000000042,,,,
"I2C","address",34.94688475,0.000086458,,true,0x0B,true
"I2C","data",34.947028125,0.000086458,0x14,true,,
"I2C","data",34.947171583,0.000086458,0x10,true,,
"I2C","data",34.947313583,0.000086458,0xE9,false,,
"I2C","stop",34.947464167,0.000000042,,,,
"I2C","start",34.948727833,0.000000042,,,,
"I2C","address",34.948738042,0.0000865,,true,0x0B,false
"I2C","data",34.94882975,0.000171,0x66,true,,
"I2C","start",34.949010958,0.000000042,,,,
"I2C","address",34.949021167,0.0000865,,true,0x0B,true
"I2C","data",34.949258833,0.0000865,0x20,true,,
"I2C","data",34.949403292,0.000086458,0x94,true,,
"I2C","data",34.949548667,0.000086458,0x48,true,,
"I2C","data",34.949694083,0.000086458,0xFA,true,,
"I2C","data",34.949881125,0.000086458,0x63,true,,
"I2C","data",34.950270375,0.000086458,0x01,true,,
"I2C","data",34.95063575,0.0000865,0x60,true,,
"I2C","data",34.950784042,0.000086458,0xE4,true,,
"I2C","data",34.950932792,0.000086458,0x04,true,,
"I2C","data",34.951081083,0.000086458,0xA8,true,,
"I2C","data",34.951229375,0.0000865,0x10,true,,
"I2C","data",34.951378125,0.0000865,0xB1,true,,
"I2C","data",34.951526875,0.0000865,0x10,true,,
"I2C","data",34.951675125,0.0000865,0xB1,true,,
"I2C","data",34.951823875,0.0000865,0x10,true,,
"I2C","data",34.951972167,0.0000865,0x00,true,,
"I2C","data",34.952120958,0.0000865,0x00,true,,
"I2C","data",34.952269208,0.000086458,0x00,true,,
"I2C","data",34.95243175,0.000086458,0x00,true,,
"I2C","data",34.952579958,0.0000865,0xEC,true,,
"I2C","data",34.952728167,0.0000865,0x04,true,,
"I2C","data",34.952876417,0.000086458,0x00,true,,
"I2C","data",34.953025167,0.0000865,0x00,true,,
"I2C","data",34.953173958,0.000086458,0x0A,true,,
"I2C","data",34.95332225,0.0000865,0x32,true,,
"I2C","data",34.953471042,0.000086458,0x1A,true,,
"I2C","data",34.95361975,0.000086458,0x17,true,,
"I2C","data",34.953767458,0.000086458,0x00,true,,
"I2C","data",34.953915625,0.0000865,0x00,true,,
"I2C","data",34.954063792,0.000086458,0x00,true,,
"I2C","data",34.954212417,0.0000865,0x00,true,,
"I2C","data",34.954360667,0.0000865,0x00,true,,
"I2C","data",34.954508458,0.0000865,0x00,true,,
"I2C","data",34.954653375,0.0000865,0xC8,false,,
"I2C","stop",34.954807333,0.000000042,,,,
"I2C","start",35.925024625,0.000000042,,,,
"I2C","address",35.925034833,0.0000865,,true,0x0B,false
"I2C","data",35.925126542,0.000178958,0xD5,true,,
"I2C","start",35.925315667,0.000000042,,,,
"I2C","address",35.925325875,0.0000865,,true,0x0B,true
"I2C","data",35.925511417,0.000086458,0x00,true,,
"I2C","data",35.925654375,0.000086458,0x00,true,,
"I2C","data",35.925796417,0.0000865,0x4E,false,,
"I2C","stop",35.925947083,0.000000042,,,,
"I2C","start",35.926926958,0.000000042,,,,
"I2C","address",35.926937208,0.000086458,,true,0x0B,false
"I2C","data",35.927028875,0.000177125,0xD3,true,,
"I2C","data",35.927211208,0.000131625,0x00,true,,
"I2C","data",35.927348042,0.000134,0x00,true,,
"I2C","data",35.927487292,0.000133042,0x81,true,,
"I2C","stop",35.92763075,0.000000042,,,,
"I2C","start",35.927644417,0.000000042,,,,
"I2C","address",35.927654625,0.0000865,,true,0x0B,false
"I2C","data",35.927746333,0.000207875,0x00,true,,
"I2C","data",35.927959417,0.000200875,0x51,true,,
"I2C","data",35.9281655,0.00013625,0x00,true,,
"I2C","data",35.928306958,0.000236292,0x0A,true,,
"I2C","stop",35.928553667,0.000000042,,,,
"I2C","start",35.928724042,0.000000042,,,,
"I2C","address",35.928734292,0.000086458,,true,0x0B,false
"I2C","data",35.928825958,0.001040792,0x23,true,,
"I2C","start",35.929876917,0.000000042,,,,
"I2C","address",35.929887125,0.0000865,,true,0x0B,true
"I2C","data",35.930060792,0.0000865,0x04,true,,
"I2C","data",35.930449792,0.0000865,0x00,true,,
"I2C","data",35.930815333,0.0000865,0x00,true,,
"I2C","data",35.930963208,0.0000865,0x00,true,,
"I2C","data",35.931112042,0.000086458,0x00,true,,
"I2C","data",35.931257,0.0000865,0x54,false,,
"I2C","stop",35.931411042,0.000000042,,,,
"I2C","start",35.931954875,0.000000042,,,,
"I2C","address",35.931965083,0.0000865,,true,0x0B,false
"I2C","data",35.932056792,0.00016,0x00,true,,
"I2C","data",35.932222,0.000134375,0x53,true,,
"I2C","data",35.932361583,0.000136833,0x00,true,,
"I2C","data",35.932503625,0.000135875,0x20,true,,
"I2C","stop",35.932649917,0.000000042,,,,
"I2C","start",35.932658458,0.000000042,,,,
"I2C","address",35.932668667,0.0000865,,true,0x0B,false
"I2C","data",35.932760375,0.001152667,0x23,true,,
"I2C","start",35.93392325,0.000000042,,,,
"I2C","address",35.933933458,0.000086458,,true,0x0B,true
"I2C","data",35.93408125,0.0000865,0x04,true,,
"I2C","data",35.934229083,0.0000865,0x00,true,,
"I2C","data",35.934377875,0.0000865,0x00,true,,
"I2C","data",35.93452575,0.000086458,0x00,true,,
"I2C","data",35.9346745,0.0000865,0x00,true,,
"I2C","data",35.934818917,0.0000865,0x54,false,,
"I2C","stop",35.934972375,0.000000042,,,,
"I2C","start",35.934995458,0.000000042,,,,
"I2C","address",35.935005667,0.000086458,,true,0x0B,false
"I2C","data",35.935097375,0.000167333,0x00,true,,
"I2C","data",35.935269917,0.000134417,0x54,true,,
"I2C","data",35.935409542,0.000136417,0x00,true,,
"I2C","data",35.935551167,0.000135917,0x4B,true,,
"I2C","stop",35.9356975,0.000000042,,,,
"I2C","start",35.937023333,0.000000042,,,,
"I2C","address",35.937033583,0.000086458,,true,0x0B,false
"I2C","data",35.937125292,0.000776625,0x23,true,,
"I2C","start",35.937912083,0.000000042,,,,
"I2C","address",35.937922333,0.000086458,,true,0x0B,true
"I2C","data",35.93813275,0.0000865,0x04,true,,
"I2C","data",35.93827725,0.000086458,0x86,true,,
"I2C","data",35.938422667,0.0000865,0x03,true,,
"I2C","data",35.938568125,0.000086458,0x06,true,,
"I2C","data",35.938713542,0.0000865,0x00,true,,
"I2C","data",35.938855125,0.0000865,0xD2,false,,
"I2C","stop",35.939005792,0.000000042,,,,
"I2C","start",35.939022833,0.000000042,,,,
"I2C","address",35.939033083,0.000086458,,true,0x0B,false
"I2C","data",35.939124792,0.000216583,0x00,true,,
"I2C","data",35.939346625,0.000131125,0x55,true,,
"I2C","data",35.939482958,0.000133958,0x00,true,,
"I2C","data",35.939622167,0.000133,0x5E,true,,
"I2C","stop",35.939765625,0.000000042,,,,
"I2C","start",35.939778333,0.000000042,,,,
"I2C","address",35.939788542,0.0000865,,true,0x0B,false
"I2C","data",35.93988025,0.001199125,0x23,true,,
"I2C","start",35.941089583,0.000000042,,,,
"I2C","address",35.941099792,0.0000865,,true,0x0B,true
"I2C","data",35.941244708,0.0000865,0x02,true,,
"I2C","data",35.941389208,0.0000865,0x10,true,,
"I2C","data",35.941534625,0.0000865,0x08,true,,
"I2C","data",35.941676125,0.0000865,0x16,true,,
"I2C","data",35.941821958,0.000086458,0x16,true,,
"I2C","data",35.941963417,0.0000865,0x16,false,,
"I2C","stop",35.942105833,0.000000042,,,,
"I2C","start",35.944989083,0.000000042,,,,
"I2C","address",35.944999292,0.0000865,,true,0x0B,false
"I2C","data",35.945091,0.000170417,0x09,true,,
"I2C","start",35.945271625,0.000000042,,,,
"I2C","address",35.945281833,0.0000865,,true,0x0B,true
"I2C","data",35.945424833,0.0000865,0x44,true,,
"I2C","data",35.945568333,0.0000865,0x30,true,,
"I2C","data",35.945710417,0.0000865,0xF4,false,,
"I2C","stop",35.945861042,0.000000042,,,,
"I2C","start",35.946808833,0.000000042,,,,
"I2C","address",35.946819042,0.0000865,,true,0x0B,false
"I2C","data",35.94691075,0.0001705,0x0A,true,,
"I2C","start",35.947091417,0.000000042,,,,
"I2C","address",35.947101625,0.0000865,,true,0x0B,true
"I2C","data",35.947244667,0.000086458,0x86,true,,
"I2C","data",35.947388167,0.0000865,0xFC,true,,
"I2C","data",35.94753025,0.000086458,0x63,false,,
"I2C","stop",35.947680875,0.000000042,,,,
"I2C","start",35.947693375,0.000000042,,,,
"I2C","address",35.947703583,0.000086458,,true,0x0B,false
"I2C","data",35.947795292,0.000228375,0x10,true,,
"I2C","start",35.948033875,0.000000042,,,,
"I2C","address",35.948044083,0.0000865,,true,0x0B,true
"I2C","data",35.948187083,0.0000865,0xDA,true,,
"I2C","data",35.948330625,0.0000865,0x04,true,,
"I2C","data",35.948472667,0.0000865,0x8E,false,,
"I2C","stop",35.948623208,0.000000042,,,,
"I2C","start",35.948715583,0.000000042,,,,
"I2C","address",35.948725792,0.0000865,,true,0x0B,false
"I2C","data",35.9488175,0.000171292,0x0F,true,,
"I2C","start",35.948998958,0.000000042,,,,
"I2C","address",35.949009167,0.0000865,,true,0x0B,true
