name,type,start_time,duration,"error","data","ack","address","read"
"I2C","start",129.592308125,0.000000063,,,,,
"I2C","stop",129.592346187,0.000000062,,,,,
"I2C","data",129.592361375,0.000774562,"missing ack/nak",0xFF,,,
"I2C","start",129.747099625,0.000000062,,,,,
"I2C","stop",129.747099687,0.000000062,,,,,
"I2C","start",129.747140938,0.000000062,,,,,
"I2C","stop",129.747141,0.000000062,,,,,
"I2C","start",129.747161188,0.000000062,,,,,
"I2C","stop",129.74716125,0.000000062,,,,,
"I2C","start",129.747219812,0.000000063,,,,,
"I2C","stop",129.747219875,0.000000062,,,,,
"I2C","start",129.747238687,0.000000063,,,,,
"I2C","stop",129.74723875,0.000000062,,,,,
"I2C","start",129.7472755,0.000000062,,,,,
"I2C","stop",129.747275562,0.000000062,,,,,
"I2C","start",129.747293625,0.000000062,,,,,
"I2C","stop",129.747293687,0.000000063,,,,,
"I2C","start",129.747311688,0.000000062,,,,,
"I2C","stop",129.74731175,0.000000062,,,,,
"I2C","start",129.7473475,0.000000063,,,,,
"I2C","stop",129.747347563,0.000000062,,,,,
"I2C","start",129.747365375,0.000000063,,,,,
"I2C","stop",129.747365438,0.000000062,,,,,
"I2C","start",129.747383375,0.000000062,,,,,
"I2C","stop",129.747383437,0.000000063,,,,,
"I2C","start",129.7474015,0.000000062,,,,,
"I2C","stop",129.747401562,0.000000063,,,,,
"I2C","start",129.74745775,0.000000062,,,,,
"I2C","stop",129.747457812,0.000000063,,,,,
"I2C","start",129.747517875,0.000000062,,,,,
"I2C","stop",129.747517937,0.000000063,,,,,
"I2C","start",129.74768475,0.000000063,,,,,
"I2C","stop",129.747684813,0.000000062,,,,,
"I2C","start",129.74774325,0.000000062,,,,,
"I2C","stop",129.747743313,0.000000062,,,,,
"I2C","start",129.747762188,0.000000062,,,,,
"I2C","stop",129.74776225,0.000000062,,,,,
"I2C","start",129.747910937,0.000000062,,,,,
"I2C","stop",129.747911,0.000000063,,,,,
"I2C","start",129.747930125,0.000000062,,,,,
"I2C","stop",129.747930188,0.000000062,,,,,
"I2C","start",129.747990625,0.000000062,,,,,
"I2C","stop",129.747990687,0.000000063,,,,,
"I2C","stop",129.749315812,0.000000063,,,,,
"I2C","stop",129.749360312,0.000000063,,,,,
"I2C","start",129.74937775,0.000000062,,,,,
"I2C","stop",129.749377813,0.000000062,,,,,
"I2C","start",129.802781875,0.000000062,,,,,
"I2C","address",129.838175188,1.012174687,,,false,0x1F,true
"I2C","data",130.850377812,0.000212,,0xFF,false,,
"I2C","data",130.850589875,0.076882187,,0xFF,false,,
"I2C","data",130.927489562,0.000290375,,0xFF,false,,
"I2C","data",130.9278275,0.000141687,,0xFF,false,,
"I2C","data",130.927972375,0.000106313,,0xFF,false,,
"I2C","data",130.92807875,0.000117313,,0xFF,false,,
"I2C","data",130.928196125,0.000232437,,0xFF,false,,
"I2C","data",130.928428625,1.311525687,,0xFF,false,,
"I2C","data",132.2399625,7.951301188,,0xF8,true,,
"I2C","stop",169.481489063,0.000000062,,,,,
"I2C","stop",174.4965075,0.000000062,,,,,
"I2C","address",174.508801062,0.000322688,,,false,0x7F,true
"I2C","stop",179.775173188,0.000000062,,,,,
"I2C","address",179.786249188,0.000085937,,,false,0x7F,true
"I2C","start",186.8126885,0.000000062,,,,,
"I2C","stop",186.812688562,0.000000062,,,,,
"I2C","start",186.812767562,0.000000062,,,,,
"I2C","stop",186.812767625,0.000000063,,,,,
"I2C","data",186.812807437,0.0001715,"missing ack/nak",0xFF,,,
"I2C","stop",399.985839,0.000000063,,,,,
"I2C","start",400.318266375,0.000000062,,,,,
"I2C","stop",400.318275687,0.000000063,,,,,
"I2C","start",400.318280313,0.000000062,,,,,
"I2C","stop",400.452717188,0.000000062,,,,,
"I2C","start",400.453185875,0.000000063,,,,,
"I2C","address",400.453196125,0.000086438,,,true,0x09,false
"I2C","data",400.453287812,0.0000865,,0x32,true,,
"I2C","data",400.4533795,0.0000865,,0x02,true,,
"I2C","data",400.45347125,0.000086437,,0x80,true,,
"I2C","stop",400.453568125,0.000000063,,,,,
"I2C","start",400.45357325,0.000000063,,,,,
"I2C","address",400.4535835,0.000086438,,,true,0x09,false
"I2C","data",400.453675187,0.0000865,,0x3F,true,,
"I2C","data",400.453766875,0.0000865,,0x00,true,,
"I2C","data",400.453858625,0.000086438,,0x00,true,,
"I2C","stop",400.4539555,0.000000063,,,,,
"I2C","start",400.453961687,0.000000063,,,,,
"I2C","address",400.453971875,0.0000865,,,true,0x09,false
"I2C","data",400.454063625,0.000086437,,0x14,true,,
"I2C","data",400.454155313,0.0000865,,0x00,true,,
"I2C","data",400.454247,0.0000865,,0x00,true,,
"I2C","stop",400.454343938,0.000000062,,,,,
"I2C","start",400.454348687,0.000000063,,,,,
"I2C","address",400.454358937,0.000086437,,,true,0x09,false
"I2C","data",400.454450625,0.0000865,,0x3B,true,,
"I2C","data",400.454542312,0.0000865,,0x40,true,,
"I2C","data",400.454634,0.0000865,,0x02,true,,
"I2C","stop",400.454730938,0.000000062,,,,,
"I2C","start",400.454735687,0.000000063,,,,,
"I2C","address",400.454745937,0.000086438,,,true,0x09,false
"I2C","data",400.454837625,0.0000865,,0x3C,true,,
"I2C","data",400.454929312,0.0000865,,0x00,true,,
"I2C","data",400.455021063,0.000086437,,0x1E,true,,
"I2C","stop",400.455117938,0.000000063,,,,,
"I2C","start",400.4551355,0.000000063,,,,,
"I2C","address",400.455145688,0.0000865,,,false,0x6A,false
"I2C","stop",400.455242625,0.000000063,,,,,
"I2C","start",400.455247375,0.000000063,,,,,
"I2C","address",400.455257562,0.0000865,,,false,0x6A,false
"I2C","stop",400.4553545,0.000000063,,,,,
"I2C","start",400.455359312,0.000000063,,,,,
"I2C","address",400.4553695,0.0000865,,,false,0x6A,false
"I2C","stop",400.455466437,0.000000063,,,,,
"I2C","start",400.455471187,0.000000063,,,,,
"I2C","address",400.455481375,0.0000865,,,false,0x6A,false
"I2C","stop",400.455578312,0.000000063,,,,,
"I2C","start",400.455592875,0.000000063,,,,,
"I2C","address",400.455603063,0.0000865,,,false,0x6A,false
"I2C","stop",400.4557,0.000000063,,,,,
"I2C","start",400.45570475,0.000000063,,,,,
"I2C","address",400.455714937,0.0000865,,,false,0x6A,false
"I2C","stop",400.455811875,0.000000063,,,,,
"I2C","start",400.455816813,0.000000062,,,,,
"I2C","address",400.455827063,0.000086438,,,false,0x6A,false
"I2C","stop",400.455923937,0.000000063,,,,,
"I2C","start",400.455928687,0.000000063,,,,,
"I2C","address",400.455938937,0.0000865,,,false,0x6A,false
"I2C","stop",400.456035875,0.000000063,,,,,
"I2C","start",400.456040625,0.000000062,,,,,
"I2C","address",400.456050812,0.0000865,,,false,0x6A,false
"I2C","stop",400.45614775,0.000000062,,,,,
"I2C","start",400.4561525,0.000000063,,,,,
"I2C","address",400.456162688,0.0000865,,,false,0x6A,false
"I2C","stop",400.456259625,0.000000063,,,,,
"I2C","start",400.456264625,0.000000062,,,,,
"I2C","address",400.456274812,0.0000865,,,true,0x09,false
"I2C","data",400.4563665,0.0000865,,0x32,true,,
"I2C","data",400.45645825,0.0000865,,0x02,true,,
"I2C","data",400.456549937,0.0000865,,0x80,true,,
"I2C","stop",400.456646875,0.000000063,,,,,
"I2C","start",400.456651625,0.000000063,,,,,
"I2C","address",400.456661812,0.0000865,,,true,0x09,false
"I2C","data",400.456753563,0.000086438,,0x3F,true,,
"I2C","data",400.45684525,0.0000865,,0x00,true,,
"I2C","data",400.456936938,0.0000865,,0x00,true,,
"I2C","stop",400.457033875,0.000000063,,,,,
"I2C","start",400.457038625,0.000000063,,,,,
"I2C","address",400.457048875,0.000086438,,,true,0x09,false
"I2C","data",400.457140563,0.0000865,,0x14,true,,
"I2C","data",400.45723225,0.0000865,,0x00,true,,
"I2C","data",400.457323938,0.0000865,,0x00,true,,
"I2C","stop",400.457420875,0.000000062,,,,,
"I2C","start",400.457427063,0.000000062,,,,,
"I2C","address",400.45743725,0.0000865,,,true,0x09,false
"I2C","data",400.457529,0.000086437,,0x3B,true,,
"I2C","data",400.457620688,0.0000865,,0x40,true,,
"I2C","data",400.457712375,0.0000865,,0x02,true,,
"I2C","stop",400.457809312,0.000000063,,,,,
"I2C","start",400.457814063,0.000000063,,,,,
"I2C","address",400.457824313,0.000086437,,,true,0x09,false
"I2C","data",400.457916,0.0000865,,0x3C,true,,
"I2C","data",400.458007688,0.0000865,,0x00,true,,
"I2C","data",400.458099375,0.0000865,,0x1E,true,,
"I2C","stop",400.458196312,0.000000063,,,,,
"I2C","start",400.458202,0.000000062,,,,,
"I2C","address",400.45821225,0.000086438,,,true,0x0B,false
"I2C","data",400.458303937,0.00017875,,0xD5,true,,
"I2C","start",400.458492875,0.000000063,,,,,
"I2C","address",400.458503062,0.0000865,,,true,0x0B,true
"I2C","data",400.458688,0.0000865,,0x00,true,,
"I2C","data",400.458831562,0.0000865,,0x00,true,,
"I2C","data",400.458973188,0.0000865,,0x4E,false,,
"I2C","stop",400.459124313,0.000000063,,,,,
"I2C","start",405.213484375,0.000000062,,,,,
"I2C","address",405.213494625,0.0000865,,,true,0x0B,false
"I2C","data",405.213586313,0.00017875,,0xD5,true,,
"I2C","start",405.21377525,0.000000063,,,,,
"I2C","address",405.2137855,0.0000865,,,true,0x0B,true
"I2C","data",405.213970562,0.0000865,,0x00,true,,
"I2C","data",405.214114125,0.0000865,,0x00,true,,
"I2C","data",405.214320187,0.0000865,,0x4E,false,,
"I2C","stop",405.214528062,0.000000063,,,,,
"I2C","start",405.215060312,0.000000063,,,,,
"I2C","address",405.215070562,0.0000865,,,true,0x0B,false
"I2C","data",405.21516225,0.000177187,,0xD3,true,,
"I2C","data",405.215344688,0.000131125,,0x00,true,,
"I2C","data",405.215481062,0.000133563,,0x00,true,,
"I2C","data",405.215619875,0.0001335,,0x81,true,,
"I2C","stop",405.215763812,0.000000063,,,,,
"I2C","start",405.215774,0.000000062,,,,,
"I2C","address",405.215784187,0.0000865,,,true,0x0B,false
"I2C","data",405.215875938,0.000221375,,0x18,true,,
"I2C","start",405.2161075,0.000000062,,,,,
"I2C","address",405.21611775,0.000086437,,,true,0x0B,true
"I2C","data",405.216260813,0.0000865,,0xC8,true,,
"I2C","data",405.216404,0.0000865,,0x05,true,,
"I2C","data",405.21654575,0.000086437,,0x44,false,,
"I2C","stop",405.216696063,0.000000063,,,,,
"I2C","start",405.216705438,0.000000062,,,,,
"I2C","address",405.216715688,0.000086437,,,true,0x0B,false
"I2C","data",405.216807375,0.000223813,,0x17,true,,
"I2C","start",405.217041375,0.000000062,,,,,
"I2C","address",405.217051625,0.0000865,,,true,0x0B,true
"I2C","data",405.217195125,0.0000865,,0x63,true,,
"I2C","data",405.21733825,0.0000865,,0x00,true,,
"I2C","data",405.21748,0.0000865,,0x02,false,,
"I2C","stop",405.217630312,0.000000063,,,,,
"I2C","start",405.217768938,0.000000062,,,,,
"I2C","address",405.217779125,0.0000865,,,true,0x0B,false
"I2C","data",405.217870812,0.000163125,,0x19,true,,
"I2C","start",405.218044125,0.000000063,,,,,
"I2C","address",405.218054312,0.0000865,,,true,0x0B,true
"I2C","data",405.218197438,0.000086438,,0x88,true,,
"I2C","data",405.218340562,0.0000865,,0x2C,true,,
"I2C","data",405.218482375,0.0000865,,0xD6,false,,
"I2C","stop",405.218632625,0.000000063,,,,,
"I2C","start",405.218643812,0.000000063,,,,,
"I2C","address",405.218654062,0.000086438,,,true,0x0B,false
"I2C","data",405.21874575,0.000224687,,0x1B,true,,
"I2C","start",405.218980625,0.000000063,,,,,
"I2C","address",405.218990813,0.0000865,,,true,0x0B,true
"I2C","data",405.219133875,0.0000865,,0x3E,true,,
"I2C","data",405.219277062,0.0000865,,0x4B,true,,
"I2C","data",405.219418813,0.0000865,,0xF9,false,,
"I2C","stop",405.219569125,0.000000062,,,,,
"I2C","start",405.2200615,0.000000063,,,,,
"I2C","address",405.220071688,0.0000865,,,true,0x0B,false
"I2C","data",405.220163437,0.000167562,,0x1C,true,,
"I2C","start",405.220341188,0.000000062,,,,,
"I2C","address",405.220351438,0.0000865,,,true,0x0B,true
"I2C","data",405.220495,0.0000865,,0x98,true,,
"I2C","data",405.220638188,0.000086438,,0x03,true,,
"I2C","data",405.220779938,0.0000865,,0x02,false,,
"I2C","stop",405.220931125,0.000000063,,,,,
"I2C","start",405.220941563,0.000000063,,,,,
"I2C","address",405.22095175,0.0000865,,,true,0x0B,false
"I2C","data",405.2210435,0.000216,,0x20,true,,
"I2C","start",405.221269688,0.000000062,,,,,
"I2C","address",405.221279938,0.0000865,,,true,0x0B,true
"I2C","data",405.22142475,0.0000865,,0x07,true,,
"I2C","data",405.221569812,0.0000865,,0x41,true,,
"I2C","data",405.221715813,0.0000865,,0x54,true,,
"I2C","data",405.221861875,0.0000865,,0x4C,true,,
"I2C","data",405.22208525,0.0000865,,0x20,true,,
"I2C","data",405.222288063,0.0000865,,0x4E,true,,
"I2C","data",405.222433562,0.000086437,,0x56,true,,
"I2C","data",405.2225795,0.0000865,,0x54,true,,
"I2C","data",405.222721687,0.0000865,,0x37,true,,
"I2C","data",405.222868125,0.0000865,,0x37,true,,
"I2C","data",405.223009438,0.0000865,,0x37,true,,
"I2C","data",405.223146438,0.0000865,,0x37,true,,
"I2C","data",405.223283,0.000086438,,0x37,true,,
"I2C","data",405.2234195,0.0000865,,0x37,true,,
"I2C","data",405.223556,0.0000865,,0x37,true,,
"I2C","data",405.223693438,0.000086438,,0x37,true,,
"I2C","data",405.223830813,0.0000865,,0x37,true,,
"I2C","data",405.223968188,0.0000865,,0x37,true,,
"I2C","data",405.224105625,0.000086438,,0x37,true,,
"I2C","data",405.224243,0.0000865,,0x37,true,,
"I2C","data",405.224380437,0.0000865,,0x37,true,,
"I2C","data",405.224517,0.000086437,,0x37,false,,
"I2C","stop",405.224658687,0.000000063,,,,,
"I2C","start",405.225094188,0.000000062,,,,,
"I2C","address",405.225104438,0.000086438,,,true,0x0B,false
"I2C","data",405.225196125,0.000159062,,0x21,true,,
"I2C","start",405.225365375,0.000000062,,,,,
"I2C","address",405.225375625,0.0000865,,,true,0x0B,true
"I2C","data",405.225520062,0.0000865,,0x06,true,,
"I2C","data",405.225665187,0.0000865,,0x44,true,,
"I2C","data",405.225810313,0.0000865,,0x4A,true,,
"I2C","data",405.225955437,0.0000865,,0x49,true,,
"I2C","data",405.226100625,0.000086437,,0x30,true,,
"I2C","data",405.22624575,0.0000865,,0x31,true,,
"I2C","data",405.226390875,0.0000865,,0x36,true,,
"I2C","data",405.226532188,0.0000865,,0x66,true,,
"I2C","data",405.226677812,0.0000865,,0x66,true,,
"I2C","data",405.226819125,0.0000865,,0x66,true,,
"I2C","data",405.226956187,0.0000865,,0x66,true,,
"I2C","data",405.22709275,0.000086437,,0x66,true,,
"I2C","data",405.227230188,0.000086438,,0x66,true,,
"I2C","data",405.227367625,0.0000865,,0x66,true,,
"I2C","data",405.227505062,0.0000865,,0x66,true,,
"I2C","data",405.227642563,0.0000865,,0x66,true,,
"I2C","data",405.227779062,0.0000865,,0x66,true,,
"I2C","data",405.227915625,0.000086438,,0x66,true,,
"I2C","data",405.228052125,0.0000865,,0x66,true,,
"I2C","data",405.228189563,0.0000865,,0x66,true,,
"I2C","data",405.228327,0.0000865,,0x66,true,,
"I2C","data",405.228464438,0.0000865,,0x66,false,,
"I2C","stop",405.228606188,0.000000063,,,,,
"I2C","start",405.230198875,0.000000063,,,,,
"I2C","address",405.230209063,0.0000865,,,true,0x0B,false
"I2C","data",405.23030075,0.00015725,,0x00,true,,
"I2C","data",405.230463187,0.00013125,,0x51,true,,
"I2C","data",405.230599625,0.000133562,,0x00,true,,
"I2C","data",405.230738438,0.000133562,,0x0A,true,,
"I2C","stop",405.230882437,0.000000063,,,,,
"I2C","start",405.23088975,0.000000062,,,,,
"I2C","address",405.2309,0.000086437,,,true,0x0B,false
"I2C","data",405.230991688,0.001191062,,0x23,true,,
"I2C","start",405.232192937,0.000000063,,,,,
"I2C","address",405.232203187,0.000086438,,,true,0x0B,true
"I2C","data",405.232347563,0.0000865,,0x04,true,,
"I2C","data",405.232492562,0.0000865,,0x00,true,,
"I2C","data",405.232638625,0.000086437,,0x00,true,,
"I2C","data",405.232784625,0.0000865,,0x00,true,,
"I2C","data",405.232930688,0.0000865,,0x00,true,,
"I2C","data",405.233071937,0.0000865,,0x54,false,,
"I2C","stop",405.23322225,0.000000063,,,,,
"I2C","start",405.2332445,0.000000062,,,,,
"I2C","address",405.233254687,0.0000865,,,true,0x0B,false
"I2C","data",405.233346438,0.000210375,,0x00,true,,
"I2C","data",405.233562063,0.000131625,,0x53,true,,
"I2C","data",405.233698937,0.0001335,,0x00,true,,
"I2C","data",405.233837687,0.000133625,,0x20,true,,
"I2C","stop",405.23398175,0.000000063,,,,,
"I2C","start",405.23398975,0.000000063,,,,,
"I2C","address",405.233999938,0.0000865,,,true,0x0B,false
"I2C","data",405.234091625,0.00119325,,0x23,true,,
"I2C","start",405.235295062,0.000000063,,,,,
"I2C","address",405.23530525,0.0000865,,,true,0x0B,true
"I2C","data",405.235450313,0.000086437,,0x04,true,,
"I2C","data",405.235595312,0.0000865,,0x00,true,,
"I2C","data",405.235741375,0.000086438,,0x00,true,,
"I2C","data",405.235887375,0.0000865,,0x00,true,,
"I2C","data",405.236033375,0.0000865,,0x00,true,,
"I2C","data",405.236175625,0.0000865,,0x54,false,,
"I2C","stop",405.236326875,0.000000063,,,,,
"I2C","start",405.236345,0.000000063,,,,,
"I2C","address",405.23635525,0.000086438,,,true,0x0B,false
"I2C","data",405.236446937,0.00021475,,0x00,true,,
"I2C","data",405.236666937,0.00017275,,0x54,true,,
"I2C","data",405.236844937,0.0001365,,0x00,true,,
"I2C","data",405.236986688,0.000135562,,0x4B,true,,
"I2C","stop",405.237132625,0.000000062,,,,,
"I2C","start",405.2378785,0.000000062,,,,,
"I2C","address",405.23788875,0.0000865,,,true,0x0B,false
"I2C","data",405.237980438,0.000672125,,0x23,true,,
"I2C","start",405.23866275,0.000000063,,,,,
"I2C","address",405.238673,0.000086437,,,true,0x0B,true
"I2C","data",405.238819875,0.0000865,,0x04,true,,
"I2C","data",405.238967312,0.000086437,,0x86,true,,
"I2C","data",405.239114687,0.0000865,,0x03,true,,
"I2C","data",405.239263125,0.0000865,,0x06,true,,
"I2C","data",405.239411062,0.0000865,,0x00,true,,
"I2C","data",405.23955525,0.0000865,,0xD2,false,,
"I2C","stop",405.239708875,0.000000062,,,,,
"I2C","start",405.240071563,0.000000062,,,,,
"I2C","address",405.24008175,0.0000865,,,true,0x0B,false
"I2C","data",405.240173438,0.000171875,,0x00,true,,
"I2C","data",405.2403505,0.000134125,,0x55,true,,
"I2C","data",405.240489813,0.0001365,,0x00,true,,
"I2C","data",405.2406315,0.0001375,,0x5E,true,,
"I2C","stop",405.240779438,0.000000062,,,,,
"I2C","start",405.240788875,0.000000062,,,,,
"I2C","address",405.240799125,0.000086437,,,true,0x0B,false
"I2C","data",405.240890813,0.00115725,,0x23,true,,
"I2C","start",405.24205825,0.000000062,,,,,
"I2C","address",405.242068437,0.0000865,,,true,0x0B,true
"I2C","data",405.242216312,0.000086438,,0x02,true,,
"I2C","data",405.242363313,0.000086437,,0x10,true,,
"I2C","data",405.242511687,0.0000865,,0x08,true,,
"I2C","data",405.242656813,0.0000865,,0x16,true,,
"I2C","data",405.24280575,0.0000865,,0x16,true,,
"I2C","data",405.242950375,0.0000865,,0x16,false,,
"I2C","stop",405.243095438,0.000000062,,,,,
"I2C","start",405.243110937,0.000000063,,,,,
"I2C","address",405.243121187,0.000086438,,,true,0x0B,false
"I2C","data",405.243212875,0.000184,,0x09,true,,
"I2C","start",405.243407063,0.000000062,,,,,
"I2C","address",405.243417313,0.000086437,,,true,0x0B,true
"I2C","data",405.24357525,0.000086437,,0x8B,true,,
"I2C","data",405.243772813,0.0000865,,0x31,true,,
"I2C","data",405.2439175,0.000086438,,0xDD,false,,
"I2C","stop",405.244071125,0.000000063,,,,,
"I2C","start",405.24408175,0.000000062,,,,,
"I2C","address",405.244091938,0.0000865,,,true,0x0B,false
"I2C","data",405.244183688,0.000185562,,0x0A,true,,
"I2C","start",405.244379438,0.000000062,,,,,
"I2C","address",405.244389688,0.0000865,,,true,0x0B,true
"I2C","data",405.244541375,0.0000865,,0xD3,true,,
"I2C","data",405.24470125,0.0000865,,0xFD,true,,
"I2C","data",405.244845437,0.0000865,,0x29,false,,
"I2C","stop",405.244998562,0.000000063,,,,,
"I2C","start",405.245119438,0.000000062,,,,,
"I2C","address",405.245129688,0.000086438,,,true,0x0B,false
"I2C","data",405.245221375,0.000174562,,0x10,true,,
"I2C","start",405.245406125,0.000000063,,,,,
"I2C","address",405.245416375,0.0000865,,,true,0x0B,true
"I2C","data",405.245562313,0.0000865,,0xE4,true,,
"I2C","data",405.245707812,0.0000865,,0x04,true,,
"I2C","data",405.245852375,0.0000865,,0xA1,false,,
"I2C","stop",405.246016437,0.000000063,,,,,
"I2C","start",405.246025375,0.000000063,,,,,
"I2C","address",405.246035625,0.0000865,,,true,0x0B,false
"I2C","data",405.246127312,0.000188,,0x0F,true,,
"I2C","start",405.2463255,0.000000062,,,,,
"I2C","address",405.24633575,0.000086437,,,true,0x0B,true
"I2C","data",405.246485063,0.000086437,,0xA7,true,,
"I2C","data",405.246630625,0.0000865,,0x04,true,,
"I2C","data",405.246775688,0.0000865,,0x70,false,,
"I2C","stop",405.246929375,0.000000063,,,,,
"I2C","start",405.247664312,0.000000063,,,,,
"I2C","address",405.247674562,0.000086438,,,true,0x0B,false
"I2C","data",405.24776625,0.000194875,,0x08,true,,
"I2C","start",405.247971312,0.000000063,,,,,
