name,type,start_time,duration,"error","data","ack","address","read"
"I2C","start",129.592308125,0.000000063,,,,,
"I2C","stop",129.592346187,0.000000062,,,,,
"I2C","data",129.592361375,0.000774562,"missing ack/nak",0xFF,,,
"I2C","start",129.747099625,0.000000062,,,,,
"I2C","stop",129.747099687,0.000000062,,,,,
"I2C","start",129.747140938,0.000000062,,,,,
"I2C","stop",129.747141,0.000000062,,,,,
"I2C","start",129.747161188,0.000000062,,,,,
"I2C","stop",129.74716125,0.000000062,,,,,
"I2C","start",129.747219812,0.000000063,,,,,
"I2C","stop",129.747219875,0.000000062,,,,,
"I2C","start",129.747238687,0.000000063,,,,,
"I2C","stop",129.74723875,0.000000062,,,,,
"I2C","start",129.7472755,0.000000062,,,,,
"I2C","stop",129.747275562,0.000000062,,,,,
"I2C","start",129.747293625,0.000000062,,,,,
"I2C","stop",129.747293687,0.000000063,,,,,
"I2C","start",129.747311688,0.000000062,,,,,
"I2C","stop",129.74731175,0.000000062,,,,,
"I2C","start",129.7473475,0.000000063,,,,,
"I2C","stop",129.747347563,0.000000062,,,,,
"I2C","start",129.747365375,0.000000063,,,,,
"I2C","stop",129.747365438,0.000000062,,,,,
"I2C","start",129.747383375,0.000000062,,,,,
"I2C","stop",129.747383437,0.000000063,,,,,
"I2C","start",129.7474015,0.000000062,,,,,
"I2C","stop",129.747401562,0.000000063,,,,,
"I2C","start",129.74745775,0.000000062,,,,,
"I2C","stop",129.747457812,0.000000063,,,,,
"I2C","start",129.747517875,0.000000062,,,,,
"I2C","stop",129.747517937,0.000000063,,,,,
"I2C","start",129.74768475,0.000000063,,,,,
"I2C","stop",129.747684813,0.000000062,,,,,
"I2C","start",129.74774325,0.000000062,,,,,
"I2C","stop",129.747743313,0.000000062,,,,,
"I2C","start",129.747762188,0.000000062,,,,,
"I2C","stop",129.74776225,0.000000062,,,,,
"I2C","start",129.747910937,0.000000062,,,,,
"I2C","stop",129.747911,0.000000063,,,,,
"I2C","start",129.747930125,0.000000062,,,,,
"I2C","stop",129.747930188,0.000000062,,,,,
"I2C","start",129.747990625,0.000000062,,,,,
"I2C","stop",129.747990687,0.000000063,,,,,
"I2C","stop",129.749315812,0.000000063,,,,,
"I2C","stop",129.749360312,0.000000063,,,,,
"I2C","start",129.74937775,0.000000062,,,,,
"I2C","stop",129.749377813,0.000000062,,,,,
"I2C","start",129.802781875,0.000000062,,,,,
"I2C","address",129.838175188,1.012174687,,,false,0x1F,true
"I2C","data",130.850377812,0.000212,,0xFF,false,,
"I2C","data",130.850589875,0.076882187,,0xFF,false,,
"I2C","data",130.927489562,0.000290375,,0xFF,false,,
"I2C","data",130.9278275,0.000141687,,0xFF,false,,
"I2C","data",130.927972375,0.000106313,,0xFF,false,,
"I2C","data",130.92807875,0.000117313,,0xFF,false,,
"I2C","data",130.928196125,0.000232437,,0xFF,false,,
"I2C","data",130.928428625,1.311525687,,0xFF,false,,
"I2C","data",132.2399625,7.951301188,,0xF8,true,,
"I2C","stop",169.481489063,0.000000062,,,,,
"I2C","stop",174.4965075,0.000000062,,,,,
"I2C","address",174.508801062,0.000322688,,,false,0x7F,true
"I2C","stop",179.775173188,0.000000062,,,,,
"I2C","address",179.786249188,0.000085937,,,false,0x7F,true
"I2C","start",186.8126885,0.000000062,,,,,
"I2C","stop",186.812688562,0.000000062,,,,,
"I2C","start",186.812767562,0.000000062,,,,,
"I2C","stop",186.812767625,0.000000063,,,,,
"I2C","data",186.812807437,0.0001715,"missing ack/nak",0xFF,,,
"I2C","stop",399.985839,0.000000063,,,,,
"I2C","start",400.318266375,0.000000062,,,,,
"I2C","stop",400.318275687,0.000000063,,,,,
"I2C","start",400.318280313,0.000000062,,,,,
"I2C","stop",400.452717188,0.000000062,,,,,
"I2C","start",400.453185875,0.000000063,,,,,
"I2C","address",400.453196125,0.000086438,,,true,0x09,false
"I2C","data",400.453287812,0.0000865,,0x32,true,,
"I2C","data",400.4533795,0.0000865,,0x02,true,,
"I2C","data",400.45347125,0.000086437,,0x80,true,,
"I2C","stop",400.453568125,0.000000063,,,,,
"I2C","start",400.45357325,0.000000063,,,,,
"I2C","address",400.4535835,0.000086438,,,true,0x09,false
"I2C","data",400.453675187,0.0000865,,0x3F,true,,
"I2C","data",400.453766875,0.0000865,,0x00,true,,
"I2C","data",400.453858625,0.000086438,,0x00,true,,
"I2C","stop",400.4539555,0.000000063,,,,,
"I2C","start",400.453961687,0.000000063,,,,,
"I2C","address",400.453971875,0.0000865,,,true,0x09,false
"I2C","data",400.454063625,0.000086437,,0x14,true,,
"I2C","data",400.454155313,0.0000865,,0x00,true,,
"I2C","data",400.454247,0.0000865,,0x00,true,,
"I2C","stop",400.454343938,0.000000062,,,,,
"I2C","start",400.454348687,0.000000063,,,,,
"I2C","address",400.454358937,0.000086437,,,true,0x09,false
"I2C","data",400.454450625,0.0000865,,0x3B,true,,
"I2C","data",400.454542312,0.0000865,,0x40,true,,
"I2C","data",400.454634,0.0000865,,0x02,true,,
"I2C","stop",400.454730938,0.000000062,,,,,
"I2C","start",400.454735687,0.000000063,,,,,
"I2C","address",400.454745937,0.000086438,,,true,0x09,false
"I2C","data",400.454837625,0.0000865,,0x3C,true,,
"I2C","data",400.454929312,0.0000865,,0x00,true,,
"I2C","data",400.455021063,0.000086437,,0x1E,true,,
"I2C","stop",400.455117938,0.000000063,,,,,
"I2C","start",400.4551355,0.000000063,,,,,
"I2C","address",400.455145688,0.0000865,,,false,0x6A,false
"I2C","stop",400.455242625,0.000000063,,,,,
"I2C","start",400.455247375,0.000000063,,,,,
"I2C","address",400.455257562,0.0000865,,,false,0x6A,false
"I2C","stop",400.4553545,0.000000063,,,,,
"I2C","start",400.455359312,0.000000063,,,,,
"I2C","address",400.4553695,0.0000865,,,false,0x6A,false
"I2C","stop",400.455466437,0.000000063,,,,,
"I2C","start",400.455471187,0.000000063,,,,,
"I2C","address",400.455481375,0.0000865,,,false,0x6A,false
"I2C","stop",400.455578312,0.000000063,,,,,
"I2C","start",400.455592875,0.000000063,,,,,
"I2C","address",400.455603063,0.0000865,,,false,0x6A,false
"I2C","stop",400.4557,0.000000063,,,,,
"I2C","start",400.45570475,0.000000063,,,,,
"I2C","address",400.455714937,0.0000865,,,false,0x6A,false
"I2C","stop",400.455811875,0.000000063,,,,,
"I2C","start",400.455816813,0.000000062,,,,,
"I2C","address",400.455827063,0.000086438,,,false,0x6A,false
"I2C","stop",400.455923937,0.000000063,,,,,
"I2C","start",400.455928687,0.000000063,,,,,
"I2C","address",400.455938937,0.0000865,,,false,0x6A,false
"I2C","stop",400.456035875,0.000000063,,,,,
"I2C","start",400.456040625,0.000000062,,,,,
"I2C","address",400.456050812,0.0000865,,,false,0x6A,false
"I2C","stop",400.45614775,0.000000062,,,,,
"I2C","start",400.4561525,0.000000063,,,,,
"I2C","address",400.456162688,0.0000865,,,false,0x6A,false
"I2C","stop",400.456259625,0.000000063,,,,,
"I2C","start",400.456264625,0.000000062,,,,,
"I2C","address",400.456274812,0.0000865,,,true,0x09,false
"I2C","data",400.4563665,0.0000865,,0x32,true,,
"I2C","data",400.45645825,0.0000865,,0x02,true,,
"I2C","data",400.456549937,0.0000865,,0x80,true,,
"I2C","stop",400.456646875,0.000000063,,,,,
"I2C","start",400.456651625,0.000000063,,,,,
"I2C","address",400.456661812,0.0000865,,,true,0x09,false
"I2C","data",400.456753563,0.000086438,,0x3F,true,,
"I2C","data",400.45684525,0.0000865,,0x00,true,,
"I2C","data",400.456936938,0.0000865,,0x00,true,,
"I2C","stop",400.457033875,0.000000063,,,,,
"I2C","start",400.457038625,0.000000063,,,,,
"I2C","address",400.457048875,0.000086438,,,true,0x09,false
"I2C","data",400.457140563,0.0000865,,0x14,true,,
"I2C","data",400.45723225,0.0000865,,0x00,true,,
"I2C","data",400.457323938,0.0000865,,0x00,true,,
"I2C","stop",400.457420875,0.000000062,,,,,
"I2C","start",400.457427063,0.000000062,,,,,
"I2C","address",400.45743725,0.0000865,,,true,0x09,false
"I2C","data",400.457529,0.000086437,,0x3B,true,,
"I2C","data",400.457620688,0.0000865,,0x40,true,,
"I2C","data",400.457712375,0.0000865,,0x02,true,,
"I2C","stop",400.457809312,0.000000063,,,,,
"I2C","start",400.457814063,0.000000063,,,,,
"I2C","address",400.457824313,0.000086437,,,true,0x09,false
"I2C","data",400.457916,0.0000865,,0x3C,true,,
"I2C","data",400.458007688,0.0000865,,0x00,true,,
"I2C","data",400.458099375,0.0000865,,0x1E,true,,
"I2C","stop",400.458196312,0.000000063,,,,,
"I2C","start",400.458202,0.000000062,,,,,
"I2C","address",400.45821225,0.000086438,,,true,0x0B,false
"I2C","data",400.458303937,0.00017875,,0xD5,true,,
"I2C","start",400.458492875,0.000000063,,,,,
"I2C","address",400.458503062,0.0000865,,,true,0x0B,true
"I2C","data",400.458688,0.0000865,,0x00,true,,
"I2C","data",400.458831562,0.0000865,,0x00,true,,
"I2C","data",400.458973188,0.0000865,,0x4E,false,,
"I2C","stop",400.459124313,0.000000063,,,,,
"I2C","start",405.213484375,0.000000062,,,,,
"I2C","address",405.213494625,0.0000865,,,true,0x0B,false
"I2C","data",405.213586313,0.00017875,,0xD5,true,,
"I2C","start",405.21377525,0.000000063,,,,,
"I2C","address",405.2137855,0.0000865,,,true,0x0B,true
"I2C","data",405.213970562,0.0000865,,0x00,true,,
"I2C","data",405.214114125,0.0000865,,0x00,true,,
"I2C","data",405.214320187,0.0000865,,0x4E,false,,
"I2C","stop",405.214528062,0.000000063,,,,,
"I2C","start",405.215060312,0.000000063,,,,,
"I2C","address",405.215070562,0.0000865,,,true,0x0B,false
"I2C","data",405.21516225,0.000177187,,0xD3,true,,
"I2C","data",405.215344688,0.000131125,,0x00,true,,
"I2C","data",405.215481062,0.000133563,,0x00,true,,
"I2C","data",405.215619875,0.0001335,,0x81,true,,
"I2C","stop",405.215763812,0.000000063,,,,,
"I2C","start",405.215774,0.000000062,,,,,
"I2C","address",405.215784187,0.0000865,,,true,0x0B,false
"I2C","data",405.215875938,0.000221375,,0x18,true,,
"I2C","start",405.2161075,0.000000062,,,,,
"I2C","address",405.21611775,0.000086437,,,true,0x0B,true
"I2C","data",405.216260813,0.0000865,,0xC8,true,,
"I2C","data",405.216404,0.0000865,,0x05,true,,
"I2C","data",405.21654575,0.000086437,,0x44,false,,
"I2C","stop",405.216696063,0.000000063,,,,,
"I2C","start",405.216705438,0.000000062,,,,,
"I2C","address",405.216715688,0.000086437,,,true,0x0B,false
"I2C","data",405.216807375,0.000223813,,0x17,true,,
"I2C","start",405.217041375,0.000000062,,,,,
"I2C","address",405.217051625,0.0000865,,,true,0x0B,true
"I2C","data",405.217195125,0.0000865,,0x63,true,,
"I2C","data",405.21733825,0.0000865,,0x00,true,,
"I2C","data",405.21748,0.0000865,,0x02,false,,
"I2C","stop",405.217630312,0.000000063,,,,,
"I2C","start",405.217768938,0.000000062,,,,,
"I2C","address",405.217779125,0.0000865,,,true,0x0B,false
"I2C","data",405.217870812,0.000163125,,0x19,true,,
"I2C","start",405.218044125,0.000000063,,,,,
"I2C","address",405.218054312,0.0000865,,,true,0x0B,true
"I2C","data",405.218197438,0.000086438,,0x88,true,,
"I2C","data",405.218340562,0.0000865,,0x2C,true,,
"I2C","data",405.218482375,0.0000865,,0xD6,false,,
"I2C","stop",405.218632625,0.000000063,,,,,
"I2C","start",405.218643812,0.000000063,,,,,
"I2C","address",405.218654062,0.000086438,,,true,0x0B,false
"I2C","data",405.21874575,0.000224687,,0x1B,true,,
"I2C","start",405.218980625,0.000000063,,,,,
"I2C","address",405.218990813,0.0000865,,,true,0x0B,true
"I2C","data",405.219133875,0.0000865,,0x3E,true,,
"I2C","data",405.219277062,0.0000865,,0x4B,true,,
"I2C","data",405.219418813,0.0000865,,0xF9,false,,
"I2C","stop",405.219569125,0.000000062,,,,,
"I2C","start",405.2200615,0.000000063,,,,,
"I2C","address",405.220071688,0.0000865,,,true,0x0B,false
"I2C","data",405.220163437,0.000167562,,0x1C,true,,
"I2C","start",405.220341188,0.000000062,,,,,
"I2C","address",405.220351438,0.0000865,,,true,0x0B,true
"I2C","data",405.220495,0.0000865,,0x98,true,,
"I2C","data",405.220638188,0.000086438,,0x03,true,,
"I2C","data",405.220779938,0.0000865,,0x02,false,,
"I2C","stop",405.220931125,0.000000063,,,,,
"I2C","start",405.220941563,0.000000063,,,,,
"I2C","address",405.22095175,0.0000865,,,true,0x0B,false
"I2C","data",405.2210435,0.000216,,0x20,true,,
"I2C","start",405.221269688,0.000000062,,,,,
"I2C","address",405.221279938,0.0000865,,,true,0x0B,true
"I2C","data",405.22142475,0.0000865,,0x07,true,,
"I2C","data",405.221569812,0.0000865,,0x41,true,,
"I2C","data",405.221715813,0.0000865,,0x54,true,,
"I2C","data",405.221861875,0.0000865,,0x4C,true,,
"I2C","data",405.22208525,0.0000865,,0x20,true,,
"I2C","data",405.222288063,0.0000865,,0x4E,true,,
"I2C","data",405.222433562,0.000086437,,0x56,true,,
"I2C","data",405.2225795,0.0000865,,0x54,true,,
"I2C","data",405.222721687,0.0000865,,0x37,true,,
"I2C","data",405.222868125,0.0000865,,0x37,true,,
"I2C","data",405.223009438,0.0000865,,0x37,true,,
"I2C","data",405.223146438,0.0000865,,0x37,true,,
"I2C","data",405.223283,0.000086438,,0x37,true,,
"I2C","data",405.2234195,0.0000865,,0x37,true,,
"I2C","data",405.223556,0.0000865,,0x37,true,,
"I2C","data",405.223693438,0.000086438,,0x37,true,,
"I2C","data",405.223830813,0.0000865,,0x37,true,,
"I2C","data",405.223968188,0.0000865,,0x37,true,,
"I2C","data",405.224105625,0.000086438,,0x37,true,,
"I2C","data",405.224243,0.0000865,,0x37,true,,
"I2C","data",405.224380437,0.0000865,,0x37,true,,
"I2C","data",405.224517,0.000086437,,0x37,false,,
"I2C","stop",405.224658687,0.000000063,,,,,
"I2C","start",405.225094188,0.000000062,,,,,
"I2C","address",405.225104438,0.000086438,,,true,0x0B,false
"I2C","data",405.225196125,0.000159062,,0x21,true,,
"I2C","start",405.225365375,0.000000062,,,,,
"I2C","address",405.225375625,0.0000865,,,true,0x0B,true
"I2C","data",405.225520062,0.0000865,,0x06,true,,
"I2C","data",405.225665187,0.0000865,,0x44,true,,
"I2C","data",405.225810313,0.0000865,,0x4A,true,,
"I2C","data",405.225955437,0.0000865,,0x49,true,,
"I2C","data",405.226100625,0.000086437,,0x30,true,,
"I2C","data",405.22624575,0.0000865,,0x31,true,,
"I2C","data",405.226390875,0.0000865,,0x36,true,,
"I2C","data",405.226532188,0.0000865,,0x66,true,,
"I2C","data",405.226677812,0.0000865,,0x66,true,,
"I2C","data",405.226819125,0.0000865,,0x66,true,,
"I2C","data",405.226956187,0.0000865,,0x66,true,,
"I2C","data",405.22709275,0.000086437,,0x66,true,,
"I2C","data",405.227230188,0.000086438,,0x66,true,,
"I2C","data",405.227367625,0.0000865,,0x66,true,,
"I2C","data",405.227505062,0.0000865,,0x66,true,,
"I2C","data",405.227642563,0.0000865,,0x66,true,,
"I2C","data",405.227779062,0.0000865,,0x66,true,,
"I2C","data",405.227915625,0.000086438,,0x66,true,,
"I2C","data",405.228052125,0.0000865,,0x66,true,,
"I2C","data",405.228189563,0.0000865,,0x66,true,,
"I2C","data",405.228327,0.0000865,,0x66,true,,
"I2C","data",405.228464438,0.0000865,,0x66,false,,
"I2C","stop",405.228606188,0.000000063,,,,,
"I2C","start",405.230198875,0.000000063,,,,,
"I2C","address",405.230209063,0.0000865,,,true,0x0B,false
"I2C","data",405.23030075,0.00015725,,0x00,true,,
"I2C","data",405.230463187,0.00013125,,0x51,true,,
"I2C","data",405.230599625,0.000133562,,0x00,true,,
"I2C","data",405.230738438,0.000133562,,0x0A,true,,
"I2C","stop",405.230882437,0.000000063,,,,,
"I2C","start",405.23088975,0.000000062,,,,,
"I2C","address",405.2309,0.000086437,,,true,0x0B,false
"I2C","data",405.230991688,0.001191062,,0x23,true,,
"I2C","start",405.232192937,0.000000063,,,,,
"I2C","address",405.232203187,0.000086438,,,true,0x0B,true
"I2C","data",405.232347563,0.0000865,,0x04,true,,
"I2C","data",405.232492562,0.0000865,,0x00,true,,
"I2C","data",405.232638625,0.000086437,,0x00,true,,
"I2C","data",405.232784625,0.0000865,,0x00,true,,
"I2C","data",405.232930688,0.0000865,,0x00,true,,
"I2C","data",405.233071937,0.0000865,,0x54,false,,
"I2C","stop",405.23322225,0.000000063,,,,,
"I2C","start",405.2332445,0.000000062,,,,,
"I2C","address",405.233254687,0.0000865,,,true,0x0B,false
"I2C","data",405.233346438,0.000210375,,0x00,true,,
"I2C","data",405.233562063,0.000131625,,0x53,true,,
"I2C","data",405.233698937,0.0001335,,0x00,true,,
"I2C","data",405.233837687,0.000133625,,0x20,true,,
"I2C","stop",405.23398175,0.000000063,,,,,
"I2C","start",405.23398975,0.000000063,,,,,
"I2C","address",405.233999938,0.0000865,,,true,0x0B,false
"I2C","data",405.234091625,0.00119325,,0x23,true,,
"I2C","start",405.235295062,0.000000063,,,,,
"I2C","address",405.23530525,0.0000865,,,true,0x0B,true
"I2C","data",405.235450313,0.000086437,,0x04,true,,
"I2C","data",405.235595312,0.0000865,,0x00,true,,
"I2C","data",405.235741375,0.000086438,,0x00,true,,
"I2C","data",405.235887375,0.0000865,,0x00,true,,
"I2C","data",405.236033375,0.0000865,,0x00,true,,
"I2C","data",405.236175625,0.0000865,,0x54,false,,
"I2C","stop",405.236326875,0.000000063,,,,,
"I2C","start",405.236345,0.000000063,,,,,
"I2C","address",405.23635525,0.000086438,,,true,0x0B,false
"I2C","data",405.236446937,0.00021475,,0x00,true,,
"I2C","data",405.236666937,0.00017275,,0x54,true,,
"I2C","data",405.236844937,0.0001365,,0x00,true,,
"I2C","data",405.236986688,0.000135562,,0x4B,true,,
"I2C","stop",405.237132625,0.000000062,,,,,
"I2C","start",405.2378785,0.000000062,,,,,
"I2C","address",405.23788875,0.0000865,,,true,0x0B,false
"I2C","data",405.237980438,0.000672125,,0x23,true,,
"I2C","start",405.23866275,0.000000063,,,,,
"I2C","address",405.238673,0.000086437,,,true,0x0B,true
"I2C","data",405.238819875,0.0000865,,0x04,true,,
"I2C","data",405.238967312,0.000086437,,0x86,true,,
"I2C","data",405.239114687,0.0000865,,0x03,true,,
"I2C","data",405.239263125,0.0000865,,0x06,true,,
"I2C","data",405.239411062,0.0000865,,0x00,true,,
"I2C","data",405.23955525,0.0000865,,0xD2,false,,
"I2C","stop",405.239708875,0.000000062,,,,,
"I2C","start",405.240071563,0.000000062,,,,,
"I2C","address",405.24008175,0.0000865,,,true,0x0B,false
"I2C","data",405.240173438,0.000171875,,0x00,true,,
"I2C","data",405.2403505,0.000134125,,0x55,true,,
"I2C","data",405.240489813,0.0001365,,0x00,true,,
"I2C","data",405.2406315,0.0001375,,0x5E,true,,
"I2C","stop",405.240779438,0.000000062,,,,,
"I2C","start",405.240788875,0.000000062,,,,,
"I2C","address",405.240799125,0.000086437,,,true,0x0B,false
"I2C","data",405.240890813,0.00115725,,0x23,true,,
"I2C","start",405.24205825,0.000000062,,,,,
"I2C","address",405.242068437,0.0000865,,,true,0x0B,true
"I2C","data",405.242216312,0.000086438,,0x02,true,,
"I2C","data",405.242363313,0.000086437,,0x10,true,,
"I2C","data",405.242511687,0.0000865,,0x08,true,,
"I2C","data",405.242656813,0.0000865,,0x16,true,,
"I2C","data",405.24280575,0.0000865,,0x16,true,,
"I2C","data",405.242950375,0.0000865,,0x16,false,,
"I2C","stop",405.243095438,0.000000062,,,,,
"I2C","start",405.243110937,0.000000063,,,,,
"I2C","address",405.243121187,0.000086438,,,true,0x0B,false
"I2C","data",405.243212875,0.000184,,0x09,true,,
"I2C","start",405.243407063,0.000000062,,,,,
"I2C","address",405.243417313,0.000086437,,,true,0x0B,true
"I2C","data",405.24357525,0.000086437,,0x8B,true,,
"I2C","data",405.243772813,0.0000865,,0x31,true,,
"I2C","data",405.2439175,0.000086438,,0xDD,false,,
"I2C","stop",405.244071125,0.000000063,,,,,
"I2C","start",405.24408175,0.000000062,,,,,
"I2C","address",405.244091938,0.0000865,,,true,0x0B,false
"I2C","data",405.244183688,0.000185562,,0x0A,true,,
"I2C","start",405.244379438,0.000000062,,,,,
"I2C","address",405.244389688,0.0000865,,,true,0x0B,true
"I2C","data",405.244541375,0.0000865,,0xD3,true,,
"I2C","data",405.24470125,0.0000865,,0xFD,true,,
"I2C","data",405.244845437,0.0000865,,0x29,false,,
"I2C","stop",405.244998562,0.000000063,,,,,
"I2C","start",405.245119438,0.000000062,,,,,
"I2C","address",405.245129688,0.000086438,,,true,0x0B,false
"I2C","data",405.245221375,0.000174562,,0x10,true,,
"I2C","start",405.245406125,0.000000063,,,,,
"I2C","address",405.245416375,0.0000865,,,true,0x0B,true
"I2C","data",405.245562313,0.0000865,,0xE4,true,,
"I2C","data",405.245707812,0.0000865,,0x04,true,,
"I2C","data",405.245852375,0.0000865,,0xA1,false,,
"I2C","stop",405.246016437,0.000000063,,,,,
"I2C","start",405.246025375,0.000000063,,,,,
"I2C","address",405.246035625,0.0000865,,,true,0x0B,false
"I2C","data",405.246127312,0.000188,,0x0F,true,,
"I2C","start",405.2463255,0.000000062,,,,,
"I2C","address",405.24633575,0.000086437,,,true,0x0B,true
"I2C","data",405.246485063,0.000086437,,0xA7,true,,
"I2C","data",405.246630625,0.0000865,,0x04,true,,
"I2C","data",405.246775688,0.0000865,,0x70,false,,
"I2C","stop",405.246929375,0.000000063,,,,,
"I2C","start",405.247664312,0.000000063,,,,,
"I2C","address",405.247674562,0.000086438,,,true,0x0B,false
"I2C","data",405.24776625,0.000194875,,0x08,true,,
"I2C","start",405.247971312,0.000000063,,,,,
"I2C","address",405.247981563,0.000086437,,,true,0x0B,true
"I2C","data",405.248128937,0.0000865,,0xB6,true,,
"I2C","data",405.2482755,0.0000865,,0x0B,true,,
"I2C","data",405.248420062,0.0000865,,0x7D,false,,
"I2C","stop",405.248573625,0.000000063,,,,,
"I2C","start",405.250157125,0.000000063,,,,,
"I2C","address",405.250167313,0.0000865,,,true,0x0B,false
"I2C","data",405.250259,0.000170375,,0x0D,true,,
"I2C","start",405.250439562,0.000000063,,,,,
"I2C","address",405.25044975,0.0000865,,,true,0x0B,true
"I2C","data",405.250602875,0.0000865,,0x60,true,,
"I2C","data",405.250750812,0.0000865,,0x00,true,,
"I2C","data",405.250895437,0.000086438,,0xC6,false,,
"I2C","stop",405.251049,0.000000063,,,,,
"I2C","start",405.251059688,0.000000063,,,,,
"I2C","address",405.251069938,0.0000865,,,true,0x0B,false
"I2C","data",405.251161625,0.000279938,,0x51,true,,
"I2C","start",405.25145175,0.000000063,,,,,
"I2C","address",405.251462,0.0000865,,,true,0x0B,true
"I2C","data",405.251609813,0.0000865,,0x04,true,,
"I2C","data",405.25175675,0.0000865,,0x00,true,,
"I2C","data",405.251904187,0.0000865,,0x00,true,,
"I2C","data",405.252052687,0.0000865,,0x00,true,,
"I2C","data",405.252200625,0.0000865,,0x00,true,,
"I2C","data",405.25234525,0.0000865,,0xDA,false,,
"I2C","stop",405.252498875,0.000000063,,,,,
"I2C","start",405.252715313,0.000000062,,,,,
"I2C","address",405.252725563,0.0000865,,,true,0x0B,false
"I2C","data",405.25281725,0.000179187,,0xD2,true,,
"I2C","start",405.253006625,0.000000062,,,,,
"I2C","address",405.253016875,0.0000865,,,true,0x0B,true
"I2C","data",405.253162375,0.0000865,,0x00,true,,
"I2C","data",405.253307937,0.0000865,,0x00,true,,
"I2C","data",405.253452125,0.0000865,,0x2C,false,,
"I2C","stop",405.253605312,0.000000063,,,,,
"I2C","start",405.253618,0.000000062,,,,,
"I2C","address",405.25362825,0.0000865,,,true,0x0B,false
"I2C","data",405.253719938,0.000209625,,0x3F,true,,
"I2C","start",405.25393975,0.000000063,,,,,
"I2C","address",405.25395,0.000086438,,,true,0x0B,true
"I2C","data",405.254096312,0.0000865,,0x81,true,,
"I2C","data",405.2542485,0.0000865,,0x10,true,,
"I2C","data",405.25439875,0.0000865,,0x65,false,,
"I2C","stop",405.254558125,0.000000062,,,,,
"I2C","start",405.25505225,0.000000063,,,,,
"I2C","address",405.2550625,0.0000865,,,true,0x0B,false
"I2C","data",405.255154188,0.000162063,,0x3E,true,,
"I2C","start",405.255326438,0.000000063,,,,,
"I2C","address",405.255336625,0.0000865,,,true,0x0B,true
"I2C","data",405.255483,0.000086438,,0x86,true,,
"I2C","data",405.255629875,0.0000865,,0x10,true,,
"I2C","data",405.255774375,0.0000865,,0x18,false,,
"I2C","stop",405.255928438,0.000000062,,,,,
"I2C","start",405.255938875,0.000000062,,,,,
"I2C","address",405.255949125,0.0000865,,,true,0x0B,false
"I2C","data",405.256040812,0.000208125,,0x3D,true,,
"I2C","start",405.256259188,0.000000063,,,,,
"I2C","address",405.256269375,0.0000865,,,true,0x0B,true
"I2C","data",405.256416312,0.0000865,,0x84,true,,
"I2C","data",405.256561438,0.000086438,,0x10,true,,
"I2C","data",405.2567055,0.000086438,,0x08,false,,
"I2C","stop",405.256859,0.000000063,,,,,
"I2C","start",405.25687125,0.000000062,,,,,
"I2C","address",405.256881437,0.0000865,,,true,0x0B,false
"I2C","data",405.256973125,0.000206187,,0x3F,true,,
"I2C","start",405.2571895,0.000000063,,,,,
"I2C","address",405.257199688,0.0000865,,,true,0x0B,true
"I2C","data",405.257346187,0.0000865,,0x81,true,,
"I2C","data",405.25749225,0.0000865,,0x10,true,,
"I2C","data",405.257636875,0.0000865,,0x65,false,,
"I2C","stop",405.2577905,0.000000063,,,,,
"I2C","start",405.25781575,0.000000062,,,,,
"I2C","address",405.257826,0.000086438,,,true,0x0B,false
"I2C","data",405.257917688,0.00019325,,0x3E,true,,
"I2C","start",405.258121125,0.000000063,,,,,
"I2C","address",405.258131375,0.000086438,,,true,0x0B,true
"I2C","data",405.258277625,0.0000865,,0x86,true,,
"I2C","data",405.258424063,0.000086437,,0x10,true,,
"I2C","data",405.258568125,0.000086438,,0x18,false,,
"I2C","stop",405.25872125,0.000000062,,,,,
"I2C","start",405.258744562,0.000000063,,,,,
"I2C","address",405.258754813,0.0000865,,,true,0x0B,false
"I2C","data",405.2588465,0.00019525,,0x3D,true,,
"I2C","start",405.259051937,0.000000063,,,,,
"I2C","address",405.259062125,0.0000865,,,true,0x0B,true
"I2C","data",405.259208063,0.0000865,,0x84,true,,
"I2C","data",405.259354062,0.0000865,,0x10,true,,
"I2C","data",405.259499125,0.0000865,,0x08,false,,
"I2C","stop",405.25965325,0.000000063,,,,,
"I2C","start",405.260321875,0.000000063,,,,,
"I2C","address",405.260332063,0.0000865,,,true,0x0B,false
"I2C","data",405.260423812,0.000182875,,0xD6,true,,
"I2C","start",405.260616875,0.000000063,,,,,
"I2C","address",405.260627125,0.0000865,,,true,0x0B,true
"I2C","data",405.260774062,0.0000865,,0x55,true,,
"I2C","data",405.260919688,0.0000865,,0xAA,true,,
"I2C","data",405.261064313,0.0000865,,0x66,false,,
"I2C","stop",405.2612175,0.000000063,,,,,
"I2C","start",405.26123975,0.000000062,,,,,
"I2C","address",405.261249937,0.0000865,,,true,0x0B,false
"I2C","data",405.261341625,0.000221313,,0xD9,true,,
"I2C","start",405.261573125,0.000000063,,,,,
"I2C","address",405.261583375,0.0000865,,,true,0x0B,true
"I2C","data",405.26173225,0.0000865,,0x04,true,,
"I2C","data",405.26188025,0.0000865,,0xE2,true,,
"I2C","data",405.262029187,0.0000865,,0x17,true,,
"I2C","data",405.262177563,0.0000865,,0x83,true,,
"I2C","data",405.262325438,0.0000865,,0xD6,true,,
"I2C","data",405.262470062,0.000086438,,0xE3,false,,
"I2C","stop",405.262623625,0.000000063,,,,,
"I2C","start",405.262708313,0.000000062,,,,,
"I2C","address",405.262718563,0.000086437,,,true,0x0B,false
"I2C","data",405.26281025,0.000185875,,0xD8,true,,
"I2C","start",405.263006313,0.000000063,,,,,
"I2C","address",405.2630165,0.0000865,,,true,0x0B,true
"I2C","data",405.2631635,0.000086437,,0x0E,true,,
"I2C","data",405.263311438,0.0000865,,0x30,true,,
"I2C","data",405.263459437,0.000086437,,0x43,true,,
"I2C","data",405.263607813,0.0000865,,0x30,true,,
"I2C","data",405.263755688,0.0000865,,0x41,true,,
"I2C","data",405.263904,0.0000865,,0x45,true,,
"I2C","data",405.264051875,0.0000865,,0x39,true,,
"I2C","data",405.264199813,0.0000865,,0x56,true,,
"I2C","data",405.264347812,0.0000865,,0x42,true,,
"I2C","data",405.264495813,0.0000865,,0x33,true,,
"I2C","data",405.26464375,0.0000865,,0x33,true,,
"I2C","data",405.26479175,0.0000865,,0x30,true,,
"I2C","data",405.264939687,0.000086438,,0x31,true,,
"I2C","data",405.265087125,0.000086438,,0x53,true,,
"I2C","data",405.2652355,0.000086438,,0x51,true,,
"I2C","data",405.265379563,0.0000865,,0x60,false,,
"I2C","stop",405.265532688,0.000000062,,,,,
"I2C","start",406.17071275,0.000000063,,,,,
"I2C","address",406.170722937,0.0000865,,,true,0x0B,false
"I2C","data",406.170814625,0.000164313,,0xC2,true,,
"I2C","start",406.170989125,0.000000063,,,,,
"I2C","address",406.170999312,0.0000865,,,true,0x0B,true
"I2C","data",406.171143938,0.0000865,,0x08,true,,
"I2C","data",406.171288125,0.0000865,,0x01,true,,
"I2C","data",406.171433313,0.0000865,,0x00,true,,
"I2C","data",406.1715785,0.0000865,,0x00,true,,
"I2C","data",406.17172375,0.0000865,,0x00,true,,
"I2C","data",406.171869,0.0000865,,0x55,true,,
"I2C","data",406.17201425,0.0000865,,0x00,true,,
"I2C","data",406.1721595,0.0000865,,0x00,true,,
"I2C","data",406.17230475,0.0000865,,0x01,true,,
"I2C","data",406.172446125,0.0000865,,0xAE,false,,
"I2C","stop",406.1725965,0.000000063,,,,,
"I2C","start",406.230677437,0.000000063,,,,,
"I2C","address",406.230687625,0.0000865,,,true,0x0B,false
"I2C","data",406.230779375,0.00017875,,0xD5,true,,
"I2C","start",406.230968313,0.000000063,,,,,
"I2C","address",406.2309785,0.0000865,,,true,0x0B,true
"I2C","data",406.231163812,0.0000865,,0x00,true,,
"I2C","data",406.231306625,0.0000865,,0x00,true,,
"I2C","data",406.2314485,0.0000865,,0x4E,false,,
"I2C","stop",406.231598937,0.000000063,,,,,
"I2C","start",406.231617062,0.000000063,,,,,
"I2C","address",406.23162725,0.0000865,,,true,0x0B,false
"I2C","data",406.231719,0.000205063,,0xD3,true,,
"I2C","data",406.231929312,0.000131375,,0x00,true,,
"I2C","data",406.232065937,0.000133813,,0x00,true,,
"I2C","data",406.232204938,0.000132875,,0x81,true,,
"I2C","stop",406.23234825,0.000000063,,,,,
"I2C","start",406.233038562,0.000000063,,,,,
"I2C","address",406.233048812,0.0000865,,,true,0x0B,false
"I2C","data",406.2331405,0.0001575,,0x00,true,,
"I2C","data",406.233303187,0.000131438,,0x51,true,,
"I2C","data",406.233439875,0.000133812,,0x00,true,,
"I2C","data",406.233578875,0.000132875,,0x0A,true,,
"I2C","stop",406.233722188,0.000000063,,,,,
"I2C","start",406.23372875,0.000000062,,,,,
"I2C","address",406.233739,0.000086438,,,true,0x0B,false
"I2C","data",406.233830688,0.001193188,,0x23,true,,
"I2C","start",406.235034063,0.000000063,,,,,
"I2C","address",406.23504425,0.0000865,,,true,0x0B,true
"I2C","data",406.235189,0.000086437,,0x04,true,,
"I2C","data",406.235333313,0.0000865,,0x00,true,,
"I2C","data",406.2354785,0.0000865,,0x00,true,,
"I2C","data",406.235623625,0.0000865,,0x00,true,,
"I2C","data",406.235768812,0.000086437,,0x00,true,,
"I2C","data",406.235910125,0.0000865,,0x54,false,,
"I2C","stop",406.2360605,0.000000062,,,,,
"I2C","start",406.236079188,0.000000063,,,,,
"I2C","address",406.236089375,0.0000865,,,true,0x0B,false
"I2C","data",406.236181125,0.000214563,,0x00,true,,
"I2C","data",406.236400937,0.000173,,0x53,true,,
"I2C","data",406.236579188,0.000137188,,0x00,true,,
"I2C","data",406.236721563,0.000136188,,0x20,true,,
"I2C","stop",406.236868125,0.000000063,,,,,
"I2C","start",406.236874125,0.000000063,,,,,
"I2C","address",406.236884375,0.0000865,,,true,0x0B,false
"I2C","data",406.236976062,0.001153687,,0x23,true,,
"I2C","start",406.238139938,0.000000063,,,,,
"I2C","address",406.238150125,0.0000865,,,true,0x0B,true
"I2C","data",406.238297125,0.0000865,,0x04,true,,
"I2C","data",406.23844475,0.000086438,,0x00,true,,
"I2C","data",406.23859225,0.0000865,,0x00,true,,
"I2C","data",406.23874075,0.0000865,,0x00,true,,
"I2C","data",406.238888313,0.0000865,,0x00,true,,
"I2C","data",406.239033125,0.0000865,,0x54,false,,
"I2C","stop",406.239186437,0.000000063,,,,,
"I2C","start",406.239205938,0.000000063,,,,,
"I2C","address",406.239216188,0.0000865,,,true,0x0B,false
"I2C","data",406.239307875,0.00017125,,0x00,true,,
"I2C","data",406.239484375,0.000133812,,0x54,true,,
"I2C","data",406.239623375,0.000136687,,0x00,true,,
"I2C","data",406.239765313,0.000136187,,0x4B,true,,
"I2C","stop",406.239911937,0.000000063,,,,,
"I2C","start",406.240342625,0.000000063,,,,,
"I2C","address",406.240352813,0.0000865,,,true,0x0B,false
"I2C","data",406.2404445,0.000989312,,0x23,true,,
"I2C","start",406.241444,0.000000063,,,,,
"I2C","address",406.24145425,0.000086437,,,true,0x0B,true
"I2C","data",406.241601812,0.0000865,,0x04,true,,
"I2C","data",406.241749,0.0000865,,0x86,true,,
"I2C","data",406.241896625,0.0000865,,0x03,true,,
"I2C","data",406.24204575,0.0000865,,0x06,true,,
"I2C","data",406.242194375,0.0000865,,0x00,true,,
"I2C","data",406.242339125,0.000086437,,0xD2,false,,
"I2C","stop",406.242493313,0.000000062,,,,,
"I2C","start",406.2430155,0.000000062,,,,,
"I2C","address",406.24302575,0.0000865,,,true,0x0B,false
"I2C","data",406.243117438,0.000219625,,0x00,true,,
"I2C","data",406.24334225,0.000133313,,0x55,true,,
"I2C","data",406.243480813,0.00013625,,0x00,true,,
"I2C","data",406.24362225,0.000135688,,0x5E,true,,
"I2C","stop",406.243768375,0.000000063,,,,,
"I2C","start",406.243775187,0.000000063,,,,,
"I2C","address",406.243785375,0.0000865,,,true,0x0B,false
"I2C","data",406.243877125,0.00116075,,0x23,true,,
"I2C","start",406.245048063,0.000000062,,,,,
"I2C","address",406.245058313,0.000086438,,,true,0x0B,true
"I2C","data",406.24520525,0.000086438,,0x02,true,,
"I2C","data",406.24535225,0.0000865,,0x10,true,,
"I2C","data",406.24549975,0.0000865,,0x08,true,,
"I2C","data",406.245644938,0.000086437,,0x16,true,,
"I2C","data",406.245793938,0.0000865,,0x16,true,,
"I2C","data",406.24593825,0.0000865,,0x16,false,,
"I2C","stop",406.246083937,0.000000063,,,,,
"I2C","start",406.246099562,0.000000063,,,,,
"I2C","address",406.246109812,0.000086438,,,true,0x0B,false
"I2C","data",406.2462015,0.000184188,,0x09,true,,
"I2C","start",406.246395875,0.000000062,,,,,
"I2C","address",406.246406063,0.0000865,,,true,0x0B,true
"I2C","data",406.246552563,0.0000865,,0xC8,true,,
"I2C","data",406.246698687,0.0000865,,0x30,true,,
"I2C","data",406.2468515,0.0000865,,0xBE,false,,
"I2C","stop",406.247019062,0.000000063,,,,,
"I2C","start",406.247029375,0.000000063,,,,,
"I2C","address",406.247039625,0.000086437,,,true,0x0B,false
"I2C","data",406.247131313,0.000186125,,0x0A,true,,
"I2C","start",406.247327625,0.000000062,,,,,
"I2C","address",406.247337875,0.000086437,,,true,0x0B,true
"I2C","data",406.247484,0.000086437,,0xD0,true,,
"I2C","data",406.247629688,0.0000865,,0xFA,true,,
"I2C","data",406.2477745,0.0000865,,0x03,false,,
"I2C","stop",406.247928812,0.000000063,,,,,
"I2C","start",406.247965,0.000000062,,,,,
"I2C","address",406.247975188,0.0000865,,,true,0x0B,false
"I2C","data",406.248066875,0.00017425,,0x10,true,,
"I2C","start",406.248251312,0.000000063,,,,,
"I2C","address",406.2482615,0.0000865,,,true,0x0B,true
"I2C","data",406.248407687,0.0000865,,0xE4,true,,
"I2C","data",406.248553375,0.0000865,,0x04,true,,
"I2C","data",406.248698687,0.000086438,,0xA1,false,,
"I2C","stop",406.248855312,0.000000063,,,,,
"I2C","start",406.250702,0.000000063,,,,,
"I2C","address",406.25071225,0.000086438,,,true,0x0B,false
"I2C","data",406.250803937,0.000207188,,0x0F,true,,
"I2C","start",406.251021313,0.000000063,,,,,
"I2C","address",406.251031562,0.0000865,,,true,0x0B,true
"I2C","data",406.251228062,0.0000865,,0xA7,true,,
"I2C","data",406.25137375,0.0000865,,0x04,true,,
"I2C","data",406.251589187,0.0000865,,0x70,false,,
"I2C","stop",406.251810313,0.000000062,,,,,
"I2C","start",406.251850438,0.000000062,,,,,
"I2C","address",406.251860625,0.0000865,,,true,0x0B,false
"I2C","data",406.251952313,0.0001735,,0x08,true,,
"I2C","start",406.252136,0.000000063,,,,,
"I2C","address",406.252146187,0.0000865,,,true,0x0B,true
"I2C","data",406.25229175,0.0000865,,0xB6,true,,
"I2C","data",406.252439812,0.000086438,,0x0B,true,,
"I2C","data",406.252584937,0.0000865,,0x7D,false,,
"I2C","stop",406.25273925,0.000000063,,,,,
"I2C","start",406.2530645,0.000000063,,,,,
"I2C","address",406.253074687,0.0000865,,,true,0x0B,false
"I2C","data",406.253166375,0.000170375,,0x0D,true,,
"I2C","start",406.253346937,0.000000063,,,,,
"I2C","address",406.253357125,0.0000865,,,true,0x0B,true
"I2C","data",406.253503125,0.0000865,,0x60,true,,
"I2C","data",406.253648812,0.000086437,,0x00,true,,
"I2C","data",406.253793,0.0000865,,0xC6,false,,
"I2C","stop",406.253946187,0.000000063,,,,,
"I2C","start",406.253956875,0.000000063,,,,,
"I2C","address",406.253967063,0.0000865,,,true,0x0B,false
"I2C","data",406.254058812,0.000280437,,0x51,true,,
"I2C","start",406.254349438,0.000000063,,,,,
"I2C","address",406.254359625,0.0000865,,,true,0x0B,true
"I2C","data",406.25450625,0.0000865,,0x04,true,,
"I2C","data",406.254654437,0.0000865,,0x00,true,,
"I2C","data",406.254802938,0.0000865,,0x00,true,,
"I2C","data",406.254951,0.000086437,,0x00,true,,
"I2C","data",406.255106625,0.0000865,,0x00,true,,
"I2C","data",406.255256562,0.0000865,,0xDA,false,,
"I2C","stop",406.255416062,0.000000063,,,,,
"I2C","start",406.255432375,0.000000063,,,,,
"I2C","address",406.255442562,0.0000865,,,true,0x0B,false
"I2C","data",406.255534313,0.000229438,,0xD2,true,,
"I2C","start",406.255773938,0.000000062,,,,,
"I2C","address",406.255784125,0.0000865,,,true,0x0B,true
"I2C","data",406.255929813,0.0000865,,0x00,true,,
"I2C","data",406.256076062,0.000086438,,0x00,true,,
"I2C","data",406.256221312,0.000086438,,0x2C,false,,
"I2C","stop",406.256375563,0.000000062,,,,,
"I2C","start",406.256386125,0.000000063,,,,,
"I2C","address",406.256396375,0.0000865,,,true,0x0B,false
"I2C","data",406.256488063,0.00021225,,0x3F,true,,
"I2C","start",406.2567105,0.000000063,,,,,
"I2C","address",406.256720687,0.0000865,,,true,0x0B,true
"I2C","data",406.256866375,0.0000865,,0x30,true,,
"I2C","data",406.257012125,0.0000865,,0x10,true,,
"I2C","data",406.257156437,0.0000865,,0x3F,false,,
"I2C","stop",406.257309813,0.000000062,,,,,
"I2C","start",406.258080063,0.000000062,,,,,
"I2C","address",406.25809025,0.0000865,,,true,0x0B,false
"I2C","data",406.258181938,0.000162812,,0x3E,true,,
"I2C","start",406.258354937,0.000000063,,,,,
"I2C","address",406.258365125,0.0000865,,,true,0x0B,true
"I2C","data",406.258511812,0.0000865,,0x2E,true,,
"I2C","data",406.258657562,0.0000865,,0x10,true,,
"I2C","data",406.258802812,0.0000865,,0xA8,false,,
"I2C","stop",406.258957062,0.000000063,,,,,
"I2C","start",406.25897,0.000000063,,,,,
"I2C","address",406.25898025,0.000086438,,,true,0x0B,false
"I2C","data",406.259071937,0.000205813,,0x3D,true,,
"I2C","start",406.259287938,0.000000063,,,,,
"I2C","address",406.259298125,0.0000865,,,true,0x0B,true
"I2C","data",406.259443687,0.0000865,,0x2B,true,,
"I2C","data",406.259589437,0.0000865,,0x10,true,,
"I2C","data",406.259740437,0.0000865,,0xD3,false,,
"I2C","stop",406.25989425,0.000000063,,,,,
"I2C","start",406.260458562,0.000000063,,,,,
"I2C","address",406.26046875,0.0000865,,,true,0x0B,false
"I2C","data",406.260560437,0.00016225,,0x3F,true,,
"I2C","start",406.260732875,0.000000063,,,,,
"I2C","address",406.260743063,0.0000865,,,true,0x0B,true
"I2C","data",406.260889625,0.000086437,,0x30,true,,
"I2C","data",406.261034875,0.000086437,,0x10,true,,
"I2C","data",406.261179625,0.0000865,,0x3F,false,,
"I2C","stop",406.261333875,0.000000063,,,,,
"I2C","start",406.2613435,0.000000062,,,,,
"I2C","address",406.26135375,0.0000865,,,true,0x0B,false
"I2C","data",406.261445438,0.00020925,,0x3E,true,,
"I2C","start",406.261664875,0.000000062,,,,,
"I2C","address",406.261675125,0.000086437,,,true,0x0B,true
"I2C","data",406.261821563,0.0000865,,0x2E,true,,
"I2C","data",406.261967625,0.0000865,,0x10,true,,
"I2C","data",406.262112812,0.0000865,,0xA8,false,,
"I2C","stop",406.262267062,0.000000063,,,,,
"I2C","start",406.263032875,0.000000062,,,,,
"I2C","address",406.263043125,0.000086437,,,true,0x0B,false
"I2C","data",406.263134813,0.000162437,,0x3D,true,,
"I2C","start",406.263307437,0.000000063,,,,,
"I2C","address",406.263317687,0.000086438,,,true,0x0B,true
"I2C","data",406.263464188,0.000086437,,0x2B,true,,
"I2C","data",406.263610313,0.0000865,,0x10,true,,
"I2C","data",406.263754625,0.0000865,,0xD3,false,,
"I2C","stop",406.263908,0.000000063,,,,,
"I2C","start",407.23095225,0.000000063,,,,,
"I2C","address",407.2309625,0.000086438,,,true,0x0B,false
"I2C","data",407.231054187,0.000179125,,0xD5,true,,
"I2C","start",407.2312435,0.000000063,,,,,
"I2C","address",407.231253687,0.0000865,,,true,0x0B,true
"I2C","data",407.231439125,0.000086437,,0x00,true,,
"I2C","data",407.231582,0.0000865,,0x00,true,,
"I2C","data",407.231724,0.000086437,,0x4E,false,,
"I2C","stop",407.231874375,0.000000062,,,,,
"I2C","start",407.231892437,0.000000063,,,,,
"I2C","address",407.231902687,0.000086437,,,true,0x0B,false
"I2C","data",407.231994375,0.000205063,,0xD3,true,,
"I2C","data",407.232204625,0.000131375,,0x00,true,,
"I2C","data",407.23234125,0.000133812,,0x00,true,,
"I2C","data",407.23248025,0.000132938,,0x81,true,,
"I2C","stop",407.232623625,0.000000063,,,,,
"I2C","start",407.233246937,0.000000063,,,,,
"I2C","address",407.233257187,0.000086437,,,true,0x0B,false
"I2C","data",407.233348875,0.000156875,,0x00,true,,
"I2C","data",407.233511,0.000131375,,0x51,true,,
"I2C","data",407.233647562,0.00013375,,0x00,true,,
"I2C","data",407.2337865,0.000132938,,0x0A,true,,
"I2C","stop",407.233929875,0.000000063,,,,,
"I2C","start",407.233936187,0.000000063,,,,,
"I2C","address",407.233946437,0.0000865,,,true,0x0B,false
"I2C","data",407.234038125,0.001193812,,0x23,true,,
"I2C","start",407.235242125,0.000000063,,,,,
"I2C","address",407.235252312,0.0000865,,,true,0x0B,true
"I2C","data",407.235397062,0.000086437,,0x04,true,,
"I2C","data",407.235541375,0.0000865,,0x00,true,,
"I2C","data",407.235686687,0.000086438,,0x00,true,,
"I2C","data",407.235868812,0.000086438,,0x00,true,,
"I2C","data",407.236017,0.000086438,,0x00,true,,
"I2C","data",407.236161812,0.0000865,,0x54,false,,
"I2C","stop",407.236315187,0.000000063,,,,,
"I2C","start",407.236334312,0.000000063,,,,,
"I2C","address",407.236344562,0.0000865,,,true,0x0B,false
"I2C","data",407.23643625,0.000171688,,0x00,true,,
"I2C","data",407.236613187,0.000153,,0x53,true,,
"I2C","data",407.236771375,0.00013675,,0x00,true,,
"I2C","data",407.236913375,0.00013625,,0x20,true,,
"I2C","stop",407.237060063,0.000000063,,,,,
"I2C","start",407.237065813,0.000000062,,,,,
"I2C","address",407.237076063,0.0000865,,,true,0x0B,false
"I2C","data",407.23716775,0.001154937,,0x23,true,,
"I2C","start",407.238332875,0.000000062,,,,,
"I2C","address",407.238343063,0.0000865,,,true,0x0B,true
"I2C","data",407.23849075,0.0000865,,0x04,true,,
"I2C","data",407.238637938,0.0000865,,0x00,true,,
"I2C","data",407.238786063,0.000086437,,0x00,true,,
"I2C","data",407.238934125,0.0000865,,0x00,true,,
"I2C","data",407.23908175,0.0000865,,0x00,true,,
"I2C","data",407.239250375,0.0000865,,0x54,false,,
"I2C","stop",407.23940375,0.000000062,,,,,
"I2C","start",407.239422063,0.000000062,,,,,
"I2C","address",407.23943225,0.0000865,,,true,0x0B,false
"I2C","data",407.239523937,0.000172625,,0x00,true,,
"I2C","data",407.23970175,0.000134375,,0x54,true,,
"I2C","data",407.239841375,0.00013675,,0x00,true,,
"I2C","data",407.239983312,0.00013575,,0x4B,true,,
"I2C","stop",407.2401295,0.000000062,,,,,
"I2C","start",407.240572625,0.000000062,,,,,
"I2C","address",407.240582813,0.0000865,,,true,0x0B,false
"I2C","data",407.240674562,0.000976938,,0x23,true,,
"I2C","start",407.241661688,0.000000062,,,,,
"I2C","address",407.241671875,0.0000865,,,true,0x0B,true
"I2C","data",407.241819437,0.0000865,,0x04,true,,
"I2C","data",407.242001437,0.0000865,,0x86,true,,
"I2C","data",407.242150125,0.0000865,,0x03,true,,
"I2C","data",407.242297812,0.0000865,,0x06,true,,
"I2C","data",407.242446438,0.0000865,,0x00,true,,
"I2C","data",407.242590812,0.0000865,,0xD2,false,,
"I2C","stop",407.242744688,0.000000063,,,,,
"I2C","start",407.243248687,0.000000063,,,,,
"I2C","address",407.243258938,0.000086437,,,true,0x0B,false
"I2C","data",407.243350625,0.000162125,,0x00,true,,
"I2C","data",407.243518,0.000134313,,0x55,true,,
"I2C","data",407.243657563,0.000136813,,0x00,true,,
"I2C","data",407.243799562,0.000136312,,0x5E,true,,
"I2C","stop",407.24394625,0.000000062,,,,,
"I2C","start",407.2439535,0.000000063,,,,,
"I2C","address",407.24396375,0.000086438,,,true,0x0B,false
"I2C","data",407.244055437,0.001161437,,0x23,true,,
"I2C","start",407.245227063,0.000000062,,,,,
"I2C","address",407.245237313,0.000086438,,,true,0x0B,true
"I2C","data",407.245385437,0.0000865,,0x02,true,,
"I2C","data",407.245533625,0.0000865,,0x10,true,,
"I2C","data",407.245682312,0.0000865,,0x08,true,,
"I2C","data",407.245847687,0.0000865,,0x16,true,,
"I2C","data",407.246011625,0.0000865,,0x16,true,,
"I2C","data",407.246168,0.000086437,,0x16,false,,
"I2C","stop",407.24631325,0.000000062,,,,,
"I2C","start",407.246329437,0.000000063,,,,,
"I2C","address",407.246339625,0.0000865,,,true,0x0B,false
"I2C","data",407.246431313,0.000183812,,0x09,true,,
"I2C","start",407.246625312,0.000000063,,,,,
"I2C","address",407.246635562,0.0000865,,,true,0x0B,true
"I2C","data",407.246781375,0.000086437,,0x06,true,,
"I2C","data",407.246928062,0.0000865,,0x31,true,,
"I2C","data",407.247072375,0.000086438,,0x82,false,,
"I2C","stop",407.247225625,0.000000063,,,,,
"I2C","start",407.247236938,0.000000062,,,,,
"I2C","address",407.247247125,0.0000865,,,true,0x0B,false
"I2C","data",407.247338875,0.000185062,,0x0A,true,,
"I2C","start",407.247534187,0.000000063,,,,,
"I2C","address",407.247544375,0.0000865,,,true,0x0B,true
"I2C","data",407.247690125,0.000086437,,0x55,true,,
"I2C","data",407.247841125,0.0000865,,0xFB,true,,
"I2C","data",407.248000812,0.000086438,,0xF3,false,,
"I2C","stop",407.248168062,0.000000063,,,,,
"I2C","start",407.248182875,0.000000063,,,,,
"I2C","address",407.248193062,0.0000865,,,true,0x0B,false
"I2C","data",407.248284813,0.000183063,,0x10,true,,
"I2C","start",407.248478062,0.000000063,,,,,
"I2C","address",407.24848825,0.0000865,,,true,0x0B,true
"I2C","data",407.248634375,0.0000865,,0xE4,true,,
"I2C","data",407.248780125,0.0000865,,0x04,true,,
"I2C","data",407.248924875,0.0000865,,0xA1,false,,
"I2C","stop",407.24907925,0.000000062,,,,,
"I2C","start",407.25097725,0.000000063,,,,,
"I2C","address",407.250987437,0.0000865,,,true,0x0B,false
"I2C","data",407.251079188,0.0001815,,0x0F,true,,
"I2C","start",407.251270875,0.000000063,,,,,
"I2C","address",407.251281063,0.0000865,,,true,0x0B,true
"I2C","data",407.251484,0.0000865,,0xA7,true,,
"I2C","data",407.251657,0.000086438,,0x04,true,,
"I2C","data",407.251803688,0.0000865,,0x70,false,,
"I2C","stop",407.251957563,0.000000062,,,,,
"I2C","start",407.251968062,0.000000063,,,,,
"I2C","address",407.251978313,0.000086437,,,true,0x0B,false
"I2C","data",407.25207,0.000219562,,0x08,true,,
"I2C","start",407.25229975,0.000000062,,,,,
"I2C","address",407.25231,0.000086438,,,true,0x0B,true
"I2C","data",407.25245575,0.0000865,,0xB6,true,,
"I2C","data",407.2526015,0.0000865,,0x0B,true,,
"I2C","data",407.252745875,0.0000865,,0x7D,false,,
"I2C","stop",407.25289975,0.000000063,,,,,
"I2C","start",407.253254813,0.000000062,,,,,
"I2C","address",407.253265,0.0000865,,,true,0x0B,false
"I2C","data",407.25335675,0.000170437,,0x0D,true,,
"I2C","start",407.253537375,0.000000062,,,,,
"I2C","address",407.253547625,0.000086437,,,true,0x0B,true
"I2C","data",407.253693875,0.000086438,,0x60,true,,
"I2C","data",407.253840625,0.0000865,,0x00,true,,
"I2C","data",407.2539855,0.000086437,,0xC6,false,,
"I2C","stop",407.254139313,0.000000063,,,,,
"I2C","start",407.254160625,0.000000063,,,,,
"I2C","address",407.254170812,0.0000865,,,true,0x0B,false
"I2C","data",407.254262563,0.000269875,,0x51,true,,
"I2C","start",407.254542625,0.000000063,,,,,
"I2C","address",407.254552875,0.000086438,,,true,0x0B,true
"I2C","data",407.254725812,0.0000865,,0x04,true,,
"I2C","data",407.25487925,0.0000865,,0x00,true,,
"I2C","data",407.255033125,0.0000865,,0x00,true,,
"I2C","data",407.255181687,0.0000865,,0x00,true,,
"I2C","data",407.25532975,0.0000865,,0x00,true,,
"I2C","data",407.255474,0.000086437,,0xDA,false,,
"I2C","stop",407.25562725,0.000000063,,,,,
"I2C","start",407.255643875,0.000000063,,,,,
"I2C","address",407.255654063,0.0000865,,,true,0x0B,false
"I2C","data",407.255745812,0.000228687,,0xD2,true,,
"I2C","start",407.255984688,0.000000063,,,,,
"I2C","address",407.255994875,0.0000865,,,true,0x0B,true
"I2C","data",407.256140625,0.0000865,,0x00,true,,
"I2C","data",407.256286375,0.0000865,,0x00,true,,
"I2C","data",407.25643075,0.0000865,,0x2C,false,,
"I2C","stop",407.256584062,0.000000063,,,,,
"I2C","start",407.256595063,0.000000062,,,,,
"I2C","address",407.25660525,0.0000865,,,true,0x0B,false
"I2C","data",407.256696938,0.000211687,,0x3F,true,,
"I2C","start",407.256918812,0.000000063,,,,,
"I2C","address",407.256929,0.0000865,,,true,0x0B,true
"I2C","data",407.257075125,0.0000865,,0x65,true,,
"I2C","data",407.257220813,0.0000865,,0x10,true,,
"I2C","data",407.257365125,0.0000865,,0x72,false,,
"I2C","stop",407.257519,0.000000063,,,,,
"I2C","start",407.258291625,0.000000062,,,,,
"I2C","address",407.258301875,0.0000865,,,true,0x0B,false
"I2C","data",407.258393562,0.000162438,,0x3E,true,,
"I2C","start",407.258566187,0.000000063,,,,,
"I2C","address",407.258576375,0.0000865,,,true,0x0B,true
"I2C","data",407.258722625,0.000086438,,0x6C,true,,
"I2C","data",407.258880313,0.0000865,,0x10,true,,
"I2C","data",407.259025625,0.0000865,,0xD9,false,,
"I2C","stop",407.25918,0.000000063,,,,,
"I2C","start",407.2591995,0.000000062,,,,,
"I2C","address",407.25920975,0.0000865,,,true,0x0B,false
"I2C","data",407.259301438,0.000199437,,0x3D,true,,
"I2C","start",407.259511062,0.000000063,,,,,
"I2C","address",407.25952125,0.0000865,,,true,0x0B,true
"I2C","data",407.259666875,0.0000865,,0x69,true,,
"I2C","data",407.259812562,0.0000865,,0x10,true,,
"I2C","data",407.259956875,0.0000865,,0xA2,false,,
"I2C","stop",407.260137063,0.000000063,,,,,
"I2C","start",407.260718812,0.000000063,,,,,
"I2C","address",407.260729,0.0000865,,,true,0x0B,false
"I2C","data",407.260820687,0.000162313,,0x3F,true,,
"I2C","start",407.260993187,0.000000063,,,,,
"I2C","address",407.261003375,0.0000865,,,true,0x0B,true
"I2C","data",407.261150125,0.000086438,,0x65,true,,
"I2C","data",407.261295875,0.0000865,,0x10,true,,
"I2C","data",407.261440687,0.0000865,,0x72,false,,
"I2C","stop",407.261594125,0.000000063,,,,,
"I2C","start",407.261605062,0.000000063,,,,,
"I2C","address",407.261615312,0.000086438,,,true,0x0B,false
"I2C","data",407.261707,0.000208188,,0x3E,true,,
"I2C","start",407.261925375,0.000000063,,,,,
"I2C","address",407.261935563,0.0000865,,,true,0x0B,true
"I2C","data",407.262082313,0.0000865,,0x6C,true,,
"I2C","data",407.262228063,0.0000865,,0x10,true,,
"I2C","data",407.262373375,0.0000865,,0xD9,false,,
"I2C","stop",407.26252725,0.000000063,,,,,
"I2C","start",407.263254062,0.000000063,,,,,
"I2C","address",407.263264312,0.0000865,,,true,0x0B,false
"I2C","data",407.263356,0.000174313,,0x3D,true,,
"I2C","start",407.2635405,0.000000063,,,,,
"I2C","address",407.263550688,0.0000865,,,true,0x0B,true
"I2C","data",407.263775625,0.000086437,,0x69,true,,
"I2C","data",407.264100938,0.0000865,,0x10,true,,
"I2C","data",407.264252437,0.0000865,,0xA2,false,,
"I2C","stop",407.264410125,0.000000063,,,,,
"I2C","start",408.231169875,0.000000063,,,,,
"I2C","address",408.231180125,0.0000865,,,true,0x0B,false
"I2C","data",408.231271812,0.000179687,,0xD5,true,,
"I2C","start",408.231461687,0.000000063,,,,,
"I2C","address",408.231471875,0.0000865,,,true,0x0B,true
"I2C","data",408.231657375,0.0000865,,0x00,true,,
"I2C","data",408.231800375,0.000086438,,0x00,true,,
"I2C","data",408.231942375,0.0000865,,0x4E,false,,
"I2C","stop",408.232092937,0.000000063,,,,,
"I2C","start",408.232110125,0.000000062,,,,,
"I2C","address",408.232120313,0.0000865,,,true,0x0B,false
"I2C","data",408.232212063,0.000206188,,0xD3,true,,
"I2C","data",408.2324235,0.0001315,,0x00,true,,
"I2C","data",408.23256025,0.000133875,,0x00,true,,
"I2C","data",408.232699375,0.000132938,,0x81,true,,
"I2C","stop",408.23284275,0.000000063,,,,,
"I2C","start",408.23346625,0.000000063,,,,,
"I2C","address",408.2334765,0.0000865,,,true,0x0B,false
"I2C","data",408.233568187,0.00015725,,0x00,true,,
"I2C","data",408.233730687,0.0001315,,0x51,true,,
"I2C","data",408.233867438,0.000133875,,0x00,true,,
"I2C","data",408.234006562,0.000132938,,0x0A,true,,
"I2C","stop",408.234149937,0.000000063,,,,,
"I2C","start",408.234157375,0.000000063,,,,,
"I2C","address",408.234167562,0.0000865,,,true,0x0B,false
"I2C","data",408.234259313,0.001193188,,0x23,true,,
"I2C","start",408.235462687,0.000000063,,,,,
"I2C","address",408.235472937,0.0000865,,,true,0x0B,true
"I2C","data",408.23563725,0.0000865,,0x04,true,,
"I2C","data",408.235785,0.0000865,,0x00,true,,
"I2C","data",408.23593325,0.0000865,,0x00,true,,
"I2C","data",408.236095813,0.0000865,,0x00,true,,
"I2C","data",408.236244063,0.000086437,,0x00,true,,
"I2C","data",408.236388813,0.000086437,,0x54,false,,
"I2C","stop",408.236543063,0.000000063,,,,,
"I2C","start",408.236561875,0.000000063,,,,,
"I2C","address",408.236572062,0.0000865,,,true,0x0B,false
"I2C","data",408.236663813,0.000171375,,0x00,true,,
"I2C","data",408.236840375,0.000134313,,0x53,true,,
"I2C","data",408.236979937,0.00013675,,0x00,true,,
"I2C","data",408.237121875,0.000136312,,0x20,true,,
"I2C","stop",408.237268625,0.000000062,,,,,
"I2C","start",408.237274688,0.000000062,,,,,
"I2C","address",408.237284938,0.0000865,,,true,0x0B,false
"I2C","data",408.237376625,0.0011535,,0x23,true,,
"I2C","start",408.238540312,0.000000063,,,,,
"I2C","address",408.238550562,0.0000865,,,true,0x0B,true
"I2C","data",408.238698188,0.0000865,,0x04,true,,
"I2C","data",408.2388455,0.000086437,,0x00,true,,
"I2C","data",408.23899325,0.000086438,,0x00,true,,
"I2C","data",408.239141375,0.000086438,,0x00,true,,
"I2C","data",408.239289938,0.0000865,,0x00,true,,
"I2C","data",408.239434188,0.0000865,,0x54,false,,
"I2C","stop",408.239588,0.000000062,,,,,
"I2C","start",408.239613437,0.000000063,,,,,
"I2C","address",408.239623625,0.0000865,,,true,0x0B,false
"I2C","data",408.239715375,0.000164875,,0x00,true,,
"I2C","data",408.239885437,0.000134375,,0x54,true,,
"I2C","data",408.240025063,0.00013675,,0x00,true,,
"I2C","data",408.240167063,0.000172562,,0x4B,true,,
"I2C","stop",408.240350062,0.000000063,,,,,
"I2C","start",408.240776063,0.000000063,,,,,
"I2C","address",408.240786313,0.0000865,,,true,0x0B,false
"I2C","data",408.240878,0.000994812,,0x23,true,,
"I2C","start",408.241883,0.000000063,,,,,
"I2C","address",408.24189325,0.000086438,,,true,0x0B,true
"I2C","data",408.24204,0.000086438,,0x04,true,,
"I2C","data",408.24218775,0.0000865,,0x86,true,,
"I2C","data",408.2423355,0.0000865,,0x03,true,,
"I2C","data",408.24248375,0.000086437,,0x06,true,,
"I2C","data",408.242632437,0.0000865,,0x00,true,,
"I2C","data",408.242777812,0.0000865,,0xD2,false,,
"I2C","stop",408.24293125,0.000000062,,,,,
"I2C","start",408.243461813,0.000000062,,,,,
"I2C","address",408.243472,0.0000865,,,true,0x0B,false
"I2C","data",408.24356375,0.00016025,,0x00,true,,
"I2C","data",408.24372925,0.000134313,,0x55,true,,
"I2C","data",408.243868813,0.00013675,,0x00,true,,
"I2C","data",408.244010812,0.000136312,,0x5E,true,,
"I2C","stop",408.244157562,0.000000063,,,,,
"I2C","start",408.244164625,0.000000063,,,,,
"I2C","address",408.244174875,0.000086437,,,true,0x0B,false
"I2C","data",408.244266563,0.001161625,,0x23,true,,
"I2C","start",408.245438438,0.000000062,,,,,
"I2C","address",408.245448625,0.0000865,,,true,0x0B,true
"I2C","data",408.245612125,0.000086438,,0x02,true,,
"I2C","data",408.245774187,0.0000865,,0x10,true,,
"I2C","data",408.24593625,0.000086437,,0x08,true,,
"I2C","data",408.246081437,0.0000865,,0x16,true,,
"I2C","data",408.246231,0.0000865,,0x16,true,,
"I2C","data",408.246374812,0.0000865,,0x16,false,,
"I2C","stop",408.246520438,0.000000062,,,,,
"I2C","start",408.24653625,0.000000062,,,,,
"I2C","address",408.246546438,0.0000865,,,true,0x0B,false
"I2C","data",408.246638188,0.000184188,,0x09,true,,
"I2C","start",408.246832563,0.000000063,,,,,
"I2C","address",408.24684275,0.0000865,,,true,0x0B,true
"I2C","data",408.246989,0.0000865,,0x5F,true,,
"I2C","data",408.247134812,0.0000865,,0x31,true,,
"I2C","data",408.247291188,0.000086438,,0x33,false,,
"I2C","stop",408.247459312,0.000000063,,,,,
"I2C","start",408.247470313,0.000000062,,,,,
"I2C","address",408.247480563,0.0000865,,,true,0x0B,false
"I2C","data",408.24757225,0.000185437,,0x0A,true,,
"I2C","start",408.247767875,0.000000062,,,,,
"I2C","address",408.247778125,0.0000865,,,true,0x0B,true
"I2C","data",408.247927563,0.0000865,,0x3F,true,,
"I2C","data",408.248073375,0.0000865,,0xFD,true,,
"I2C","data",408.248218688,0.0000865,,0x96,false,,
"I2C","stop",408.248372625,0.000000063,,,,,
"I2C","start",408.248434125,0.000000062,,,,,
"I2C","address",408.248444312,0.0000865,,,true,0x0B,false
"I2C","data",408.248536063,0.000174312,,0x10,true,,
"I2C","start",408.248720563,0.000000062,,,,,
"I2C","address",408.248730813,0.0000865,,,true,0x0B,true
"I2C","data",408.248877063,0.0000865,,0xE4,true,,
"I2C","data",408.249023375,0.000086438,,0x04,true,,
"I2C","data",408.249184,0.000086437,,0xA1,false,,
"I2C","stop",408.249357438,0.000000062,,,,,
"I2C","start",408.251200438,0.000000062,,,,,
"I2C","address",408.251210688,0.000086437,,,true,0x0B,false
"I2C","data",408.251302375,0.000207437,,0x0F,true,,
"I2C","start",408.25152,0.000000062,,,,,
"I2C","address",408.25153025,0.000086438,,,true,0x0B,true
"I2C","data",408.251675813,0.0000865,,0xA7,true,,
"I2C","data",408.251822,0.0000865,,0x04,true,,
"I2C","data",408.25196675,0.0000865,,0x70,false,,
"I2C","stop",408.252120563,0.000000062,,,,,
"I2C","start",408.252131625,0.000000063,,,,,
"I2C","address",408.252141812,0.0000865,,,true,0x0B,false
"I2C","data",408.2522335,0.000219063,,0x08,true,,
"I2C","start",408.25246275,0.000000063,,,,,
"I2C","address",408.252473,0.000086438,,,true,0x0B,true
"I2C","data",408.252619687,0.0000865,,0xB6,true,,
"I2C","data",408.2527655,0.0000865,,0x0B,true,,
"I2C","data",408.252910312,0.0000865,,0x7D,false,,
"I2C","stop",408.253063625,0.000000063,,,,,
"I2C","start",408.253467063,0.000000062,,,,,
"I2C","address",408.253477313,0.0000865,,,true,0x0B,false
"I2C","data",408.253569,0.00017,,0x0D,true,,
"I2C","start",408.253749187,0.000000063,,,,,
"I2C","address",408.253759375,0.0000865,,,true,0x0B,true
"I2C","data",408.25391225,0.0000865,,0x60,true,,
"I2C","data",408.254063813,0.0000865,,0x00,true,,
"I2C","data",408.254214375,0.0000865,,0xC6,false,,
"I2C","stop",408.254373438,0.000000062,,,,,
"I2C","start",408.254383688,0.000000062,,,,,
"I2C","address",408.254393938,0.0000865,,,true,0x0B,false
"I2C","data",408.254485625,0.00028075,,0x51,true,,
"I2C","start",408.254776563,0.000000063,,,,,
"I2C","address",408.254786813,0.0000865,,,true,0x0B,true
"I2C","data",408.2549345,0.000086438,,0x04,true,,
"I2C","data",408.255082188,0.0000865,,0x00,true,,
"I2C","data",408.255231375,0.0000865,,0x00,true,,
"I2C","data",408.255380063,0.0000865,,0x00,true,,
"I2C","data",408.25552825,0.0000865,,0x00,true,,
"I2C","data",408.255673,0.000086437,,0xDA,false,,
"I2C","stop",408.255826688,0.000000063,,,,,
"I2C","start",408.255844813,0.000000062,,,,,
"I2C","address",408.255855,0.0000865,,,true,0x0B,false
"I2C","data",408.25594675,0.000226938,,0xD2,true,,
"I2C","start",408.256183875,0.000000063,,,,,
"I2C","address",408.256194063,0.0000865,,,true,0x0B,true
"I2C","data",408.256340313,0.0000865,,0x00,true,,
"I2C","data",408.256485688,0.000086438,,0x00,true,,
"I2C","data",408.2566305,0.0000865,,0x2C,false,,
"I2C","stop",408.256784375,0.000000063,,,,,
"I2C","start",408.256795,0.000000063,,,,,
"I2C","address",408.256805187,0.0000865,,,true,0x0B,false
"I2C","data",408.256896938,0.000212312,,0x3F,true,,
"I2C","start",408.257119438,0.000000062,,,,,
"I2C","address",408.257129625,0.0000865,,,true,0x0B,true
"I2C","data",408.257276312,0.0000865,,0x72,true,,
"I2C","data",408.257422125,0.000086438,,0x10,true,,
"I2C","data",408.257567437,0.000086438,,0x4E,false,,
"I2C","stop",408.257721688,0.000000062,,,,,
"I2C","start",408.258508875,0.000000063,,,,,
"I2C","address",408.258519062,0.0000865,,,true,0x0B,false
"I2C","data",408.25861075,0.000162625,,0x3E,true,,
"I2C","start",408.258783563,0.000000062,,,,,
"I2C","address",408.25879375,0.0000865,,,true,0x0B,true
"I2C","data",408.258940437,0.0000865,,0x76,true,,
"I2C","data",408.25908625,0.0000865,,0x10,true,,
"I2C","data",408.259231563,0.0000865,,0x0C,false,,
"I2C","stop",408.259385937,0.000000063,,,,,
"I2C","start",408.259408937,0.000000063,,,,,
"I2C","address",408.259419187,0.0000865,,,true,0x0B,false
"I2C","data",408.259510875,0.000196,,0x3D,true,,
"I2C","start",408.259717062,0.000000063,,,,,
"I2C","address",408.259727312,0.000086437,,,true,0x0B,true
"I2C","data",408.259873875,0.0000865,,0x74,true,,
"I2C","data",408.260020063,0.0000865,,0x10,true,,
"I2C","data",408.260165313,0.0000865,,0x1C,false,,
"I2C","stop",408.260319063,0.000000063,,,,,
"I2C","start",408.260889688,0.000000062,,,,,
"I2C","address",408.260899938,0.0000865,,,true,0x0B,false
"I2C","data",408.260991625,0.000163125,,0x3F,true,,
"I2C","start",408.261164937,0.000000063,,,,,
"I2C","address",408.261175187,0.0000865,,,true,0x0B,true
"I2C","data",408.261320813,0.0000865,,0x72,true,,
"I2C","data",408.261467,0.0000865,,0x10,true,,
"I2C","data",408.26161175,0.0000865,,0x4E,false,,
"I2C","stop",408.261766125,0.000000062,,,,,
"I2C","start",408.261776312,0.000000063,,,,,
"I2C","address",408.261786562,0.0000865,,,true,0x0B,false
"I2C","data",408.26187825,0.000208938,,0x3E,true,,
"I2C","start",408.262097375,0.000000063,,,,,
"I2C","address",408.262107562,0.0000865,,,true,0x0B,true
"I2C","data",408.262253875,0.0000865,,0x76,true,,
"I2C","data",408.262399688,0.000086437,,0x10,true,,
"I2C","data",408.262544,0.0000865,,0x0C,false,,
"I2C","stop",408.26269825,0.000000062,,,,,
"I2C","start",408.263456875,0.000000063,,,,,
"I2C","address",408.263467063,0.0000865,,,true,0x0B,false
"I2C","data",408.263558812,0.000189,,0x3D,true,,
"I2C","start",408.263758,0.000000063,,,,,
"I2C","address",408.263768187,0.0000865,,,true,0x0B,true
"I2C","data",408.2640835,0.0000865,,0x74,true,,
"I2C","data",408.264235875,0.0000865,,0x10,true,,
"I2C","data",408.2643845,0.000086438,,0x1C,false,,
"I2C","stop",408.264577062,0.000000063,,,,,
"I2C","start",408.264725312,0.000000063,,,,,
"I2C","address",408.2647355,0.0000865,,,true,0x0B,false
"I2C","data",408.26482725,0.000383625,,0x2F,true,,
"I2C","data",408.265216062,0.00013825,,0x14,true,,
"I2C","data",408.2653595,0.000133938,,0x93,true,,
"I2C","data",408.265498687,0.000133438,,0x8D,true,,
"I2C","data",408.265637313,0.000133437,,0x0C,true,,
"I2C","data",408.265775937,0.000133437,,0x00,true,,
"I2C","data",408.265914625,0.000133437,,0x86,true,,
"I2C","data",408.26605325,0.000133437,,0x08,true,,
"I2C","data",408.266191875,0.000133437,,0x90,true,,
"I2C","data",408.266330563,0.000133375,,0xE6,true,,
"I2C","data",408.266469187,0.000133438,,0xCD,true,,
"I2C","data",408.266607813,0.000133437,,0xC8,true,,
"I2C","data",408.2667465,0.000133437,,0xF8,true,,
"I2C","data",408.266885188,0.000133437,,0xE2,true,,
"I2C","data",408.267023875,0.000133437,,0x98,true,,
"I2C","data",408.2671625,0.0002085,,0xA0,true,,
"I2C","data",408.26737625,0.000200813,,0x8B,true,,
"I2C","data",408.267582312,0.000133437,,0xF2,true,,
"I2C","data",408.267720937,0.000133438,,0x57,true,,
"I2C","data",408.267859625,0.000133375,,0x4B,true,,
"I2C","data",408.267998187,0.000133375,,0x10,true,,
"I2C","data",408.268136813,0.000133313,,0xEE,true,,
"I2C","data",408.268275313,0.000132875,,0x55,true,,
"I2C","stop",408.268418625,0.000000063,,,,,
"I2C","start",409.231988,0.000000063,,,,,
"I2C","address",409.23199825,0.000086437,,,true,0x0B,false
"I2C","data",409.232089938,0.000179062,,0xD5,true,,
"I2C","start",409.232279188,0.000000062,,,,,
"I2C","address",409.232289438,0.000086438,,,true,0x0B,true
"I2C","data",409.232474813,0.0000865,,0x00,true,,
"I2C","data",409.23261775,0.0000865,,0x00,true,,
"I2C","data",409.232759687,0.0000865,,0x4E,false,,
"I2C","stop",409.232910125,0.000000063,,,,,
"I2C","start",409.233681063,0.000000063,,,,,
"I2C","address",409.233691313,0.000086437,,,true,0x0B,false
"I2C","data",409.233783,0.000176938,,0xD3,true,,
"I2C","data",409.233965188,0.000131438,,0x00,true,,
"I2C","data",409.234101875,0.000133813,,0x00,true,,
"I2C","data",409.234240875,0.000174,,0x81,true,,
"I2C","stop",409.234425312,0.000000063,,,,,
"I2C","start",409.234437875,0.000000063,,,,,
"I2C","address",409.234448063,0.0000865,,,true,0x0B,false
"I2C","data",409.234539812,0.000165563,,0x00,true,,
"I2C","data",409.234710625,0.000134375,,0x51,true,,
"I2C","data",409.23485025,0.000136813,,0x00,true,,
"I2C","data",409.23499225,0.000135812,,0x0A,true,,
"I2C","stop",409.2351385,0.000000063,,,,,
"I2C","start",409.23515125,0.000000063,,,,,
"I2C","address",409.2351615,0.0000865,,,true,0x0B,false
"I2C","data",409.235253188,0.001145313,,0x23,true,,
"I2C","start",409.236408687,0.000000063,,,,,
"I2C","address",409.236418875,0.0000865,,,true,0x0B,true
"I2C","data",409.236566063,0.0000865,,0x04,true,,
"I2C","data",409.236713313,0.000086438,,0x00,true,,
"I2C","data",409.236861,0.0000865,,0x00,true,,
"I2C","data",409.237009688,0.0000865,,0x00,true,,
"I2C","data",409.237157875,0.0000865,,0x00,true,,
"I2C","data",409.23730225,0.0000865,,0x54,false,,
"I2C","stop",409.237455688,0.000000062,,,,,
"I2C","start",409.23749125,0.000000063,,,,,
"I2C","address",409.2375015,0.000086437,,,true,0x0B,false
"I2C","data",409.237593188,0.000160062,,0x00,true,,
"I2C","data",409.2377585,0.000134375,,0x53,true,,
"I2C","data",409.237898062,0.000136812,,0x00,true,,
"I2C","data",409.238040062,0.000144875,,0x20,true,,
"I2C","stop",409.238195375,0.000000063,,,,,
"I2C","start",409.238729438,0.000000062,,,,,
"I2C","address",409.238739625,0.0000865,,,true,0x0B,false
"I2C","data",409.238831375,0.000626687,,0x23,true,,
"I2C","start",409.23946825,0.000000062,,,,,
"I2C","address",409.2394785,0.0000865,,,true,0x0B,true
"I2C","data",409.239625625,0.0000865,,0x04,true,,
"I2C","data",409.239772813,0.000086437,,0x00,true,,
"I2C","data",409.239920938,0.0000865,,0x00,true,,
"I2C","data",409.240069063,0.0000865,,0x00,true,,
"I2C","data",409.24021675,0.000086437,,0x00,true,,
"I2C","data",409.240384063,0.0000865,,0x54,false,,
"I2C","stop",409.240538,0.000000062,,,,,
"I2C","start",409.240996437,0.000000063,,,,,
"I2C","address",409.241006687,0.000086438,,,true,0x0B,false
"I2C","data",409.241098375,0.000168688,,0x00,true,,
"I2C","data",409.241272312,0.000133313,,0x54,true,,
"I2C","data",409.241410813,0.00013625,,0x00,true,,
"I2C","data",409.24155225,0.000135875,,0x4B,true,,
"I2C","stop",409.241698563,0.000000063,,,,,
"I2C","start",409.2417065,0.000000062,,,,,
"I2C","address",409.241716688,0.0000865,,,true,0x0B,false
"I2C","data",409.241808375,0.00141225,,0x23,true,,
"I2C","start",409.243230812,0.000000063,,,,,
"I2C","address",409.243241062,0.000086438,,,true,0x0B,true
"I2C","data",409.243388687,0.0000865,,0x04,true,,
"I2C","data",409.24353925,0.0000865,,0x86,true,,
"I2C","data",409.243687875,0.000086438,,0x03,true,,
"I2C","data",409.2438355,0.000086437,,0x06,true,,
"I2C","data",409.243984062,0.000086438,,0x00,true,,
"I2C","data",409.24412875,0.0000865,,0xD2,false,,
"I2C","stop",409.244283,0.000000063,,,,,
"I2C","start",409.244298813,0.000000063,,,,,
"I2C","address",409.244309,0.0000865,,,true,0x0B,false
"I2C","data",409.24440075,0.000175,,0x00,true,,
"I2C","data",409.244581,0.000133812,,0x55,true,,
"I2C","data",409.244720062,0.00013675,,0x00,true,,
"I2C","data",409.244862,0.00013575,,0x5E,true,,
"I2C","stop",409.245008187,0.000000063,,,,,
"I2C","start",409.245014438,0.000000063,,,,,
"I2C","address",409.245024625,0.0000865,,,true,0x0B,false
"I2C","data",409.245116312,0.00116225,,0x23,true,,
"I2C","start",409.24628875,0.000000062,,,,,
"I2C","address",409.246299,0.000086438,,,true,0x0B,true
"I2C","data",409.246446188,0.000086437,,0x02,true,,
"I2C","data",409.246615375,0.0000865,,0x10,true,,
"I2C","data",409.246778375,0.0000865,,0x08,true,,
"I2C","data",409.246936125,0.0000865,,0x16,true,,
"I2C","data",409.24708525,0.0000865,,0x16,true,,
"I2C","data",409.247230125,0.0000865,,0x16,false,,
"I2C","stop",409.247375375,0.000000063,,,,,
"I2C","start",409.247391438,0.000000062,,,,,
"I2C","address",409.247401687,0.000086438,,,true,0x0B,false
"I2C","data",409.247493375,0.000183875,,0x09,true,,
"I2C","start",409.247687438,0.000000062,,,,,
"I2C","address",409.247697688,0.000086437,,,true,0x0B,true
"I2C","data",409.247843312,0.0000865,,0x62,true,,
"I2C","data",409.247989,0.0000865,,0x31,true,,
"I2C","data",409.24813325,0.0000865,,0x23,false,,
"I2C","stop",409.248299438,0.000000062,,,,,
"I2C","start",409.248714188,0.000000062,,,,,
"I2C","address",409.248724438,0.000086438,,,true,0x0B,false
"I2C","data",409.248816125,0.000172812,,0x0A,true,,
"I2C","start",409.248999125,0.000000062,,,,,
"I2C","address",409.249009375,0.000086437,,,true,0x0B,true
"I2C","data",409.249156,0.0000865,,0x5F,true,,
"I2C","data",409.249317937,0.0000865,,0xFD,true,,
"I2C","data",409.2494665,0.0000865,,0x63,false,,
"I2C","stop",409.249623625,0.000000063,,,,,
"I2C","start",409.252003312,0.000000063,,,,,
"I2C","address",409.252013562,0.0000865,,,true,0x0B,false
"I2C","data",409.25210525,0.000174875,,0x10,true,,
"I2C","start",409.252290313,0.000000062,,,,,
"I2C","address",409.252300563,0.000086437,,,true,0x0B,true
"I2C","data",409.252447625,0.000086437,,0xE4,true,,
"I2C","data",409.252593813,0.0000865,,0x04,true,,
"I2C","data",409.252739125,0.000086437,,0xA1,false,,
"I2C","stop",409.252893438,0.000000063,,,,,
"I2C","start",409.25368125,0.000000063,,,,,
"I2C","address",409.253691437,0.0000865,,,true,0x0B,false
"I2C","data",409.253783188,0.000174937,,0x0F,true,,
"I2C","start",409.253968312,0.000000063,,,,,
"I2C","address",409.2539785,0.0000865,,,true,0x0B,true
"I2C","data",409.25412425,0.000086438,,0xA7,true,,
"I2C","data",409.254271,0.000086438,,0x04,true,,
"I2C","data",409.254415312,0.0000865,,0x70,false,,
"I2C","stop",409.254568688,0.000000062,,,,,
"I2C","start",409.254589688,0.000000062,,,,,
"I2C","address",409.254599875,0.0000865,,,true,0x0B,false
"I2C","data",409.254691562,0.000175687,,0x08,true,,
"I2C","start",409.254877437,0.000000063,,,,,
"I2C","address",409.254887688,0.000086438,,,true,0x0B,true
"I2C","data",409.255033875,0.0000865,,0xB6,true,,
"I2C","data",409.255179688,0.0000865,,0x0B,true,,
"I2C","data",409.255324562,0.000086437,,0x7D,false,,
"I2C","stop",409.255478438,0.000000062,,,,,
"I2C","start",409.255982437,0.000000063,,,,,
"I2C","address",409.255992625,0.0000865,,,true,0x0B,false
"I2C","data",409.256084312,0.000170437,,0x0D,true,,
"I2C","start",409.256264938,0.000000063,,,,,
"I2C","address",409.256275188,0.0000865,,,true,0x0B,true
"I2C","data",409.25642175,0.0000865,,0x60,true,,
"I2C","data",409.256567437,0.0000865,,0x00,true,,
"I2C","data",409.256712687,0.0000865,,0xC6,false,,
"I2C","stop",409.256867063,0.000000062,,,,,
"I2C","start",409.256878,0.000000063,,,,,
"I2C","address",409.256888188,0.0000865,,,true,0x0B,false
"I2C","data",409.256979937,0.000246312,,0x51,true,,
"I2C","start",409.257236438,0.000000063,,,,,
"I2C","address",409.257246688,0.000086437,,,true,0x0B,true
"I2C","data",409.257393875,0.0000865,,0x04,true,,
"I2C","data",409.257541875,0.0000865,,0x00,true,,
"I2C","data",409.257689938,0.0000865,,0x00,true,,
"I2C","data",409.257837938,0.0000865,,0x00,true,,
"I2C","data",409.2579865,0.0000865,,0x00,true,,
"I2C","data",409.258131312,0.0000865,,0xDA,false,,
"I2C","stop",409.258285188,0.000000062,,,,,
"I2C","start",409.258730875,0.000000063,,,,,
"I2C","address",409.258741063,0.0000865,,,true,0x0B,false
"I2C","data",409.258832812,0.000178625,,0xD2,true,,
"I2C","start",409.259021625,0.000000063,,,,,
"I2C","address",409.259031812,0.0000865,,,true,0x0B,true
"I2C","data",409.259178,0.0000865,,0x00,true,,
"I2C","data",409.259323687,0.0000865,,0x00,true,,
"I2C","data",409.259468938,0.0000865,,0x2C,false,,
"I2C","stop",409.259623313,0.000000062,,,,,
"I2C","start",409.259637125,0.000000063,,,,,
"I2C","address",409.259647313,0.0000865,,,true,0x0B,false
"I2C","data",409.259739,0.000175563,,0x3F,true,,
"I2C","start",409.25992475,0.000000063,,,,,
"I2C","address",409.259935,0.0000865,,,true,0x0B,true
"I2C","data",409.26008125,0.000086437,,0x71,true,,
"I2C","data",409.260226938,0.0000865,,0x10,true,,
"I2C","data",409.260372625,0.0000865,,0x71,false,,
"I2C","stop",409.260525938,0.000000063,,,,,
"I2C","start",409.261069688,0.000000062,,,,,
"I2C","address",409.261079938,0.0000865,,,true,0x0B,false
"I2C","data",409.261171625,0.00016325,,0x3E,true,,
"I2C","start",409.261345063,0.000000062,,,,,
"I2C","address",409.261355312,0.0000865,,,true,0x0B,true
"I2C","data",409.261501562,0.000086438,,0x76,true,,
"I2C","data",409.261647812,0.0000865,,0x10,true,,
"I2C","data",409.261792688,0.0000865,,0x0C,false,,
"I2C","stop",409.261947062,0.000000063,,,,,
"I2C","start",409.261957437,0.000000063,,,,,
"I2C","address",409.261967687,0.000086438,,,true,0x0B,false
"I2C","data",409.262059375,0.00017525,,0x3D,true,,
"I2C","start",409.262244813,0.000000063,,,,,
"I2C","address",409.262255,0.0000865,,,true,0x0B,true
"I2C","data",409.262401188,0.0000865,,0x76,true,,
"I2C","data",409.262547,0.0000865,,0x10,true,,
"I2C","data",409.262692813,0.000086438,,0x36,false,,
"I2C","stop",409.262846187,0.000000063,,,,,
"I2C","start",409.263687688,0.000000062,,,,,
"I2C","address",409.263697875,0.0000865,,,true,0x0B,false
"I2C","data",409.263789625,0.000252062,,0x3F,true,,
"I2C","start",409.264051875,0.000000063,,,,,
"I2C","address",409.264062125,0.0000865,,,true,0x0B,true
"I2C","data",409.264258438,0.0000865,,0x71,true,,
"I2C","data",409.264404188,0.0000865,,0x10,true,,
"I2C","data",409.264620125,0.0000865,,0x71,false,,
"I2C","stop",409.26484075,0.000000062,,,,,
"I2C","start",409.264852,0.000000062,,,,,
"I2C","address",409.26486225,0.000086438,,,true,0x0B,false
"I2C","data",409.264953938,0.000174375,,0x3E,true,,
"I2C","start",409.2651385,0.000000063,,,,,
"I2C","address",409.265148688,0.0000865,,,true,0x0B,true
"I2C","data",409.265312125,0.0000865,,0x76,true,,
"I2C","data",409.265459875,0.000086438,,0x10,true,,
"I2C","data",409.265604188,0.0000865,,0x0C,false,,
"I2C","stop",409.265757937,0.000000063,,,,,
"I2C","start",409.266046375,0.000000063,,,,,
"I2C","address",409.266056563,0.0000865,,,true,0x0B,false
"I2C","data",409.26614825,0.00016175,,0x3D,true,,
"I2C","start",409.266320188,0.000000062,,,,,
"I2C","address",409.266330375,0.0000865,,,true,0x0B,true
"I2C","data",409.266476625,0.0000865,,0x76,true,,
"I2C","data",409.266622375,0.0000865,,0x10,true,,
"I2C","data",409.26676725,0.0000865,,0x36,false,,
"I2C","stop",409.266920625,0.000000062,,,,,
"I2C","start",409.267071438,0.000000062,,,,,
"I2C","address",409.267081625,0.0000865,,,true,0x0B,false
"I2C","data",409.267173313,0.000385688,,0x2F,true,,
"I2C","start",409.267569187,0.000000063,,,,,
"I2C","address",409.267579375,0.0000865,,,true,0x0B,true
"I2C","data",409.267728,0.0000865,,0x2A,true,,
"I2C","data",409.267875688,0.0000865,,0xE9,true,,
"I2C","data",409.268028125,0.0000865,,0x4D,true,,
"I2C","data",409.268182,0.0000865,,0xEC,true,,
"I2C","data",409.268335938,0.0000865,,0x1C,true,,
"I2C","data",409.26848975,0.0000865,,0x36,true,,
"I2C","data",409.268638313,0.0000865,,0xB1,true,,
"I2C","data",409.268785938,0.000086437,,0xFA,true,,
"I2C","data",409.2689345,0.000086438,,0x2B,true,,
"I2C","data",409.269082187,0.000086438,,0x3F,true,,
"I2C","data",409.269230812,0.0000865,,0x51,true,,
"I2C","data",409.269379,0.000086437,,0xE2,true,,
"I2C","data",409.269527125,0.0000865,,0x59,true,,
"I2C","data",409.269674812,0.0000865,,0xF2,true,,
"I2C","data",409.269823438,0.0000865,,0x8A,true,,
"I2C","data",409.269971563,0.000086438,,0x50,true,,
"I2C","data",409.270120125,0.0000865,,0x79,true,,
"I2C","data",409.27026825,0.0000865,,0x45,true,,
"I2C","data",409.270416937,0.000086437,,0x0F,true,,
"I2C","data",409.270565062,0.0000865,,0xB4,true,,
"I2C","data",409.27071325,0.000086438,,0x27,true,,
"I2C","data",409.270861375,0.0000865,,0x00,true,,
"I2C","data",409.271009563,0.0000865,,0x3F,true,,
"I2C","data",409.27115775,0.0000865,,0xF9,true,,
"I2C","data",409.271305938,0.0000865,,0xD3,true,,
"I2C","data",409.271454563,0.0000865,,0xFE,true,,
"I2C","data",409.27160325,0.000086438,,0x47,true,,
"I2C","data",409.271750937,0.0000865,,0xC4,true,,
"I2C","data",409.271899562,0.0000865,,0x95,true,,
"I2C","data",409.27204725,0.0000865,,0x81,true,,
"I2C","data",409.272195875,0.0000865,,0x68,true,,
"I2C","data",409.272344062,0.0000865,,0x3B,true,,
"I2C","data",409.272492313,0.000086437,,0x7D,true,,
"I2C","data",409.272640375,0.0000865,,0xAF,true,,
"I2C","data",409.272788,0.0000865,,0x6A,true,,
"I2C","data",409.272936562,0.0000865,,0xE8,true,,
"I2C","data",409.273084187,0.0000865,,0xCB,true,,
"I2C","data",409.273232875,0.000086437,,0xC9,true,,
"I2C","data",409.273381062,0.0000865,,0x24,true,,
"I2C","data",409.27352925,0.0000865,,0x70,true,,
"I2C","data",409.273677437,0.0000865,,0x78,true,,
"I2C","data",409.273825625,0.0000865,,0x04,true,,
"I2C","data",409.27397375,0.000086438,,0x03,true,,
"I2C","data",409.274118438,0.0000865,,0xF8,false,,
"I2C","stop",409.27427275,0.000000063,,,,,
"I2C","start",410.57248475,0.000000063,,,,,
"I2C","address",410.572494937,0.0000865,,,true,0x0B,false
"I2C","data",410.572586688,0.000179437,,0xD5,true,,
"I2C","start",410.572776313,0.000000063,,,,,
"I2C","address",410.5727865,0.0000865,,,true,0x0B,true
"I2C","data",410.572972,0.0000865,,0x00,true,,
"I2C","data",410.573115,0.000086438,,0x00,true,,
"I2C","data",410.573257,0.000086438,,0x4E,false,,
"I2C","stop",410.573407562,0.000000063,,,,,
"I2C","start",410.574279375,0.000000063,,,,,
"I2C","address",410.574289625,0.000086437,,,true,0x0B,false
"I2C","data",410.574381313,0.000177188,,0xD3,true,,
"I2C","data",410.57456375,0.0001315,,0x00,true,,
"I2C","data",410.5747005,0.000133875,,0x00,true,,
"I2C","data",410.574839563,0.000132875,,0x81,true,,
"I2C","stop",410.574982875,0.000000063,,,,,
"I2C","start",410.575001438,0.000000063,,,,,
"I2C","address",410.575011625,0.0000865,,,true,0x0B,false
"I2C","data",410.575103313,0.000202688,,0x00,true,,
"I2C","data",410.57531125,0.000131438,,0x51,true,,
"I2C","data",410.575447875,0.000133875,,0x00,true,,
"I2C","data",410.575587,0.000132938,,0x0A,true,,
"I2C","stop",410.575730375,0.000000063,,,,,
"I2C","start",410.576303563,0.000000063,,,,,
"I2C","address",410.576313813,0.000086437,,,true,0x0B,false
"I2C","data",410.5764055,0.00062775,,0x23,true,,
"I2C","start",410.577043437,0.000000063,,,,,
"I2C","address",410.577053625,0.0000865,,,true,0x0B,true
"I2C","data",410.5771985,0.0000865,,0x04,true,,
"I2C","data",410.577342875,0.0000865,,0x00,true,,
"I2C","data",410.57748825,0.000086437,,0x00,true,,
"I2C","data",410.577633563,0.000086437,,0x00,true,,
"I2C","data",410.577778813,0.0000865,,0x00,true,,
"I2C","data",410.57792025,0.000086438,,0x54,false,,
"I2C","stop",410.578070687,0.000000063,,,,,
"I2C","start",410.579260687,0.000000063,,,,,
"I2C","address",410.579270875,0.0000865,,,true,0x0B,false
"I2C","data",410.579362563,0.000156875,,0x00,true,,
"I2C","data",410.579524687,0.0001315,,0x53,true,,
"I2C","data",410.579661438,0.000133937,,0x00,true,,
"I2C","data",410.579800625,0.000132937,,0x20,true,,
"I2C","stop",410.579944,0.000000062,,,,,
"I2C","start",410.5799535,0.000000063,,,,,
"I2C","address",410.579963688,0.0000865,,,true,0x0B,false
"I2C","data",410.580055437,0.00119425,,0x23,true,,
"I2C","start",410.581259812,0.000000063,,,,,
"I2C","address",410.581270062,0.0000865,,,true,0x0B,true
"I2C","data",410.581414437,0.0000865,,0x04,true,,
"I2C","data",410.581558813,0.0000865,,0x00,true,,
"I2C","data",410.58170425,0.000086438,,0x00,true,,
"I2C","data",410.5818495,0.0000865,,0x00,true,,
"I2C","data",410.58199475,0.0000865,,0x00,true,,
"I2C","data",410.58213625,0.0000865,,0x54,false,,
"I2C","stop",410.582286688,0.000000062,,,,,
"I2C","start",410.582304562,0.000000063,,,,,
"I2C","address",410.58231475,0.0000865,,,true,0x0B,false
"I2C","data",410.5824065,0.000215625,,0x00,true,,
"I2C","data",410.582627375,0.000131062,,0x54,true,,
"I2C","data",410.582763625,0.000133938,,0x00,true,,
"I2C","data",410.58290275,0.000133,,0x4B,true,,
"I2C","stop",410.583046187,0.000000063,,,,,
"I2C","start",410.584192687,0.000000063,,,,,
"I2C","address",410.584202875,0.0000865,,,true,0x0B,false
"I2C","data",410.584294563,0.000471625,,0x23,true,,
"I2C","start",410.584776375,0.000000063,,,,,
"I2C","address",410.584786563,0.0000865,,,true,0x0B,true
"I2C","data",410.584933313,0.000086438,,0x04,true,,
"I2C","data",410.585081,0.0000865,,0x86,true,,
"I2C","data",410.585229313,0.0000865,,0x03,true,,
"I2C","data",410.585377125,0.0000865,,0x06,true,,
"I2C","data",410.585525875,0.0000865,,0x00,true,,
"I2C","data",410.58567075,0.0000865,,0xD2,false,,
"I2C","stop",410.585824688,0.000000062,,,,,
"I2C","start",410.586296125,0.000000063,,,,,
"I2C","address",410.586306375,0.000086438,,,true,0x0B,false
"I2C","data",410.586398062,0.000161,,0x00,true,,
"I2C","data",410.586564313,0.000133937,,0x55,true,,
"I2C","data",410.5867035,0.000233375,,0x00,true,,
"I2C","data",410.586942125,0.000207063,,0x5E,true,,
"I2C","stop",410.587159625,0.000000062,,,,,
"I2C","start",410.587167937,0.000000063,,,,,
"I2C","address",410.587178188,0.000086438,,,true,0x0B,false
"I2C","data",410.587269875,0.001160875,,0x23,true,,
"I2C","start",410.588441,0.000000063,,,,,
"I2C","address",410.588451188,0.0000865,,,true,0x0B,true
"I2C","data",410.588618563,0.0000865,,0x02,true,,
"I2C","data",410.588820875,0.000086437,,0x10,true,,
"I2C","data",410.58896675,0.0000865,,0x08,true,,
"I2C","data",410.589108313,0.000086437,,0x16,true,,
"I2C","data",410.589254125,0.0000865,,0x16,true,,
"I2C","data",410.589395625,0.0000865,,0x16,false,,
"I2C","stop",410.589538063,0.000000062,,,,,
"I2C","start",410.592309937,0.000000063,,,,,
"I2C","address",410.592320125,0.0000865,,,true,0x0B,false
"I2C","data",410.592411875,0.000170313,,0x09,true,,
"I2C","start",410.592592375,0.000000063,,,,,
"I2C","address",410.592602563,0.0000865,,,true,0x0B,true
"I2C","data",410.592745438,0.0000865,,0x55,true,,
"I2C","data",410.592888813,0.0000865,,0x31,true,,
"I2C","data",410.593030688,0.0000865,,0xB1,false,,
"I2C","stop",410.593181188,0.000000062,,,,,
"I2C","start",410.594228438,0.000000062,,,,,
"I2C","address",410.594238688,0.000086438,,,true,0x0B,false
"I2C","data",410.594330375,0.000170312,,0x0A,true,,
"I2C","start",410.594510875,0.000000062,,,,,
"I2C","address",410.594521125,0.0000865,,,true,0x0B,true
"I2C","data",410.594663938,0.0000865,,0x42,true,,
"I2C","data",410.594807312,0.0000865,,0xFD,true,,
"I2C","data",410.594949312,0.0000865,,0xDD,false,,
"I2C","stop",410.595099875,0.000000062,,,,,
"I2C","start",410.59511025,0.000000063,,,,,
"I2C","address",410.5951205,0.000086437,,,true,0x0B,false
"I2C","data",410.595212188,0.000230375,,0x10,true,,
"I2C","start",410.59545275,0.000000063,,,,,
"I2C","address",410.595462937,0.0000865,,,true,0x0B,true
"I2C","data",410.595605875,0.0000865,,0xE4,true,,
"I2C","data",410.595749375,0.000086438,,0x04,true,,
"I2C","data",410.595891375,0.0000865,,0xA1,false,,
"I2C","stop",410.596041937,0.000000063,,,,,
"I2C","start",410.596263562,0.000000063,,,,,
"I2C","address",410.59627375,0.0000865,,,true,0x0B,false
"I2C","data",410.5963655,0.000172,,0x0F,true,,
"I2C","start",410.596547687,0.000000063,,,,,
"I2C","address",410.596557937,0.0000865,,,true,0x0B,true
"I2C","data",410.596700812,0.0000865,,0xA6,true,,
"I2C","data",410.596844313,0.000086437,,0x04,true,,
"I2C","data",410.596986313,0.0000865,,0x65,false,,
"I2C","stop",410.597136875,0.000000063,,,,,
"I2C","start",410.597146875,0.000000062,,,,,
"I2C","address",410.597157125,0.000086437,,,true,0x0B,false
"I2C","data",410.597248813,0.00022925,,0x08,true,,
"I2C","start",410.59748825,0.000000062,,,,,
"I2C","address",410.597498438,0.0000865,,,true,0x0B,true
"I2C","data",410.597641875,0.0000865,,0xB6,true,,
"I2C","data",410.597785312,0.0000865,,0x0B,true,,
"I2C","data",410.59792725,0.0000865,,0x7D,false,,
"I2C","stop",410.598077812,0.000000063,,,,,
"I2C","start",410.599244312,0.000000063,,,,,
"I2C","address",410.5992545,0.0000865,,,true,0x0B,false
"I2C","data",410.59934625,0.000167062,,0x0D,true,,
"I2C","start",410.5995235,0.000000063,,,,,
"I2C","address",410.59953375,0.0000865,,,true,0x0B,true
"I2C","data",410.599677,0.0000865,,0x60,true,,
"I2C","data",410.599820375,0.0000865,,0x00,true,,
"I2C","data",410.59996225,0.0000865,,0xC6,false,,
"I2C","stop",410.600112687,0.000000063,,,,,
"I2C","start",410.60012425,0.000000063,,,,,
"I2C","address",410.600134438,0.0000865,,,true,0x0B,false
"I2C","data",410.600226188,0.00028875,,0x51,true,,
"I2C","start",410.600525125,0.000000063,,,,,
"I2C","address",410.600535375,0.000086438,,,true,0x0B,true
"I2C","data",410.600680188,0.0000865,,0x04,true,,
"I2C","data",410.600824563,0.0000865,,0x00,true,,
"I2C","data",410.600969937,0.0000865,,0x00,true,,
"I2C","data",410.60111525,0.0000865,,0x00,true,,
"I2C","data",410.6012605,0.0000865,,0x00,true,,
"I2C","data",410.601402,0.000086437,,0xDA,false,,
"I2C","stop",410.601552438,0.000000063,,,,,
"I2C","start",410.601566938,0.000000062,,,,,
"I2C","address",410.601577125,0.0000865,,,true,0x0B,false
"I2C","data",410.601668813,0.000240625,,0xD2,true,,
"I2C","start",410.601919625,0.000000063,,,,,
"I2C","address",410.601929812,0.0000865,,,true,0x0B,true
"I2C","data",410.602122437,0.0000865,,0x00,true,,
"I2C","data",410.60226875,0.0000865,,0x00,true,,
"I2C","data",410.602504813,0.000086438,,0x2C,false,,
"I2C","stop",410.602658625,0.000000063,,,,,
"I2C","start",410.602670125,0.000000063,,,,,
"I2C","address",410.602680313,0.0000865,,,true,0x0B,false
"I2C","data",410.602772062,0.0002295,,0x3F,true,,
"I2C","start",410.60301175,0.000000062,,,,,
"I2C","address",410.603022,0.000086438,,,true,0x0B,true
"I2C","data",410.603219938,0.0000865,,0x6F,true,,
"I2C","data",410.603363375,0.0000865,,0x10,true,,
"I2C","data",410.603505375,0.0000865,,0xF0,false,,
"I2C","stop",410.603655937,0.000000063,,,,,
"I2C","start",410.604207813,0.000000062,,,,,
"I2C","address",410.604218063,0.000086438,,,true,0x0B,false
"I2C","data",410.60430975,0.000159625,,0x3E,true,,
"I2C","start",410.604479562,0.000000063,,,,,
"I2C","address",410.604489812,0.000086437,,,true,0x0B,true
"I2C","data",410.604633125,0.0000865,,0x74,true,,
"I2C","data",410.604776562,0.0000865,,0x10,true,,
"I2C","data",410.604918563,0.0000865,,0x26,false,,
"I2C","stop",410.605069125,0.000000063,,,,,
"I2C","start",410.605078063,0.000000063,,,,,
"I2C","address",410.605088313,0.0000865,,,true,0x0B,false
"I2C","data",410.60518,0.000219313,,0x3D,true,,
"I2C","start",410.6054095,0.000000062,,,,,
"I2C","address",410.605419687,0.0000865,,,true,0x0B,true
"I2C","data",410.605562625,0.0000865,,0x73,true,,
"I2C","data",410.605706063,0.0000865,,0x10,true,,
"I2C","data",410.605848063,0.0000865,,0x77,false,,
"I2C","stop",410.605998625,0.000000063,,,,,
"I2C","start",410.606322813,0.000000063,,,,,
"I2C","address",410.606333,0.0000865,,,true,0x0B,false
"I2C","data",410.606424688,0.00015975,,0x3F,true,,
"I2C","start",410.606594625,0.000000062,,,,,
"I2C","address",410.606604875,0.0000865,,,true,0x0B,true
"I2C","data",410.606748125,0.0000865,,0x6F,true,,
"I2C","data",410.6068915,0.0000865,,0x10,true,,
"I2C","data",410.607033375,0.0000865,,0xF0,false,,
"I2C","stop",410.607183875,0.000000063,,,,,
"I2C","start",410.607194812,0.000000063,,,,,
"I2C","address",410.607205,0.0000865,,,true,0x0B,false
"I2C","data",410.60729675,0.000217312,,0x3E,true,,
"I2C","start",410.60752425,0.000000063,,,,,
"I2C","address",410.607534438,0.0000865,,,true,0x0B,true
"I2C","data",410.607677313,0.0000865,,0x74,true,,
"I2C","data",410.60782075,0.0000865,,0x10,true,,
"I2C","data",410.607962687,0.0000865,,0x26,false,,
"I2C","stop",410.608113188,0.000000063,,,,,
"I2C","start",410.609354375,0.000000062,,,,,
"I2C","address",410.609364625,0.0000865,,,true,0x0B,false
"I2C","data",410.609456313,0.000159312,,0x3D,true,,
"I2C","start",410.609625812,0.000000063,,,,,
"I2C","address",410.609636062,0.0000865,,,true,0x0B,true
"I2C","data",410.609779312,0.0000865,,0x73,true,,
"I2C","data",410.60992275,0.0000865,,0x10,true,,
"I2C","data",410.610064813,0.0000865,,0x77,false,,
"I2C","stop",410.610215375,0.000000063,,,,,
"I2C","start",410.6125735,0.000000063,,,,,
"I2C","address",410.612583687,0.0000865,,,true,0x0B,false
"I2C","data",410.612675375,0.000382125,,0x2F,true,,
"I2C","data",410.61306275,0.000137687,,0x14,true,,
"I2C","data",410.613205625,0.000133938,,0x13,true,,
"I2C","data",410.613344812,0.000133437,,0x50,true,,
"I2C","data",410.613483438,0.000133437,,0x10,true,,
"I2C","data",410.613622125,0.000133437,,0x00,true,,
"I2C","data",410.613760813,0.000133437,,0x06,true,,
"I2C","data",410.613899437,0.0001335,,0xC6,true,,
"I2C","data",410.614038125,0.0001335,,0x56,true,,
"I2C","data",410.614176812,0.000133438,,0x85,true,,
"I2C","data",410.6143155,0.000133438,,0xCD,true,,
"I2C","data",410.614454125,0.000133437,,0x6D,true,,
"I2C","data",410.614592813,0.000133375,,0xC3,true,,
"I2C","data",410.614731375,0.000133312,,0xE7,true,,
"I2C","data",410.614869937,0.000133312,,0x98,true,,
"I2C","data",410.6150085,0.000133312,,0x25,true,,
"I2C","data",410.615147,0.000133312,,0xA3,true,,
"I2C","data",410.615285562,0.000133437,,0xA2,true,,
"I2C","data",410.615424188,0.000133437,,0xD7,true,,
"I2C","data",410.615562813,0.0001335,,0x0C,true,,
"I2C","data",410.6157015,0.000133437,,0x48,true,,
"I2C","data",410.615840187,0.000133375,,0x0F,true,,
"I2C","data",410.615978812,0.000132875,,0xBB,true,,
"I2C","stop",410.616122125,0.000000063,,,,,
"I2C","start",411.792729812,0.000000063,,,,,
"I2C","address",411.79274,0.0000865,,,true,0x0B,false
"I2C","data",411.792831687,0.000179375,,0xD5,true,,
"I2C","start",411.79302125,0.000000063,,,,,
"I2C","address",411.7930315,0.000086438,,,true,0x0B,true
"I2C","data",411.793216938,0.0000865,,0x00,true,,
"I2C","data",411.793359875,0.0000865,,0x00,true,,
"I2C","data",411.793501938,0.0000865,,0x4E,false,,
"I2C","stop",411.793652437,0.000000063,,,,,
"I2C","start",411.794519625,0.000000062,,,,,
"I2C","address",411.794529875,0.000086438,,,true,0x0B,false
"I2C","data",411.794621563,0.00017725,,0xD3,true,,
"I2C","data",411.794804063,0.0001315,,0x00,true,,
"I2C","data",411.794940812,0.000133813,,0x00,true,,
"I2C","data",411.795079812,0.000132938,,0x81,true,,
"I2C","stop",411.795223188,0.000000062,,,,,
"I2C","start",411.795236875,0.000000063,,,,,
"I2C","address",411.795247062,0.0000865,,,true,0x0B,false
"I2C","data",411.795338813,0.000207437,,0x00,true,,
"I2C","data",411.7955515,0.0001315,,0x51,true,,
"I2C","data",411.795688187,0.000133875,,0x00,true,,
"I2C","data",411.795827313,0.000132937,,0x0A,true,,
"I2C","stop",411.795970688,0.000000062,,,,,
"I2C","start",411.796638125,0.000000063,,,,,
"I2C","address",411.796648375,0.000086438,,,true,0x0B,false
"I2C","data",411.796740063,0.00053325,,0x23,true,,
"I2C","start",411.7972835,0.000000063,,,,,
"I2C","address",411.79729375,0.0000865,,,true,0x0B,true
"I2C","data",411.797485875,0.0000865,,0x04,true,,
"I2C","data",411.797688188,0.0000865,,0x00,true,,
"I2C","data",411.797833562,0.0000865,,0x00,true,,
"I2C","data",411.797978937,0.000086438,,0x00,true,,
"I2C","data",411.79812425,0.0000865,,0x00,true,,
"I2C","data",411.79826575,0.0000865,,0x54,false,,
"I2C","stop",411.798416313,0.000000062,,,,,
"I2C","start",411.799559812,0.000000063,,,,,
"I2C","address",411.79957,0.0000865,,,true,0x0B,false
"I2C","data",411.799661688,0.000157375,,0x00,true,,
"I2C","data",411.799824312,0.0001315,,0x53,true,,
"I2C","data",411.799961063,0.000133875,,0x00,true,,
"I2C","data",411.800100125,0.000132938,,0x20,true,,
"I2C","stop",411.8002435,0.000000062,,,,,
"I2C","start",411.8002555,0.000000063,,,,,
"I2C","address",411.800265687,0.0000865,,,true,0x0B,false
"I2C","data",411.800357375,0.001191125,,0x23,true,,
"I2C","start",411.801558688,0.000000063,,,,,
"I2C","address",411.801568875,0.0000865,,,true,0x0B,true
"I2C","data",411.801738188,0.000086438,,0x04,true,,
"I2C","data",411.801885813,0.0000865,,0x00,true,,
"I2C","data",411.802034438,0.0000865,,0x00,true,,
"I2C","data",411.802182625,0.000086437,,0x00,true,,
"I2C","data",411.80233125,0.000086438,,0x00,true,,
"I2C","data",411.8024765,0.0000865,,0x54,false,,
"I2C","stop",411.802630437,0.000000063,,,,,
"I2C","start",411.802657813,0.000000063,,,,,
"I2C","address",411.802668,0.0000865,,,true,0x0B,false
"I2C","data",411.802759687,0.00016375,,0x00,true,,
"I2C","data",411.802928625,0.000133937,,0x54,true,,
"I2C","data",411.80306775,0.000136375,,0x00,true,,
"I2C","data",411.803209312,0.00013575,,0x4B,true,,
"I2C","stop",411.8033555,0.000000062,,,,,
"I2C","start",411.804469438,0.000000063,,,,,
"I2C","address",411.804479625,0.0000865,,,true,0x0B,false
"I2C","data",411.804571375,0.00047175,,0x23,true,,
"I2C","start",411.805053313,0.000000063,,,,,
"I2C","address",411.805063562,0.0000865,,,true,0x0B,true
"I2C","data",411.805210687,0.0000865,,0x04,true,,
"I2C","data",411.805358,0.0000865,,0x86,true,,
"I2C","data",411.80550575,0.0000865,,0x03,true,,
"I2C","data",411.805653937,0.0000865,,0x06,true,,
"I2C","data",411.805827062,0.0000865,,0x00,true,,
"I2C","data",411.805972437,0.0000865,,0xD2,false,,
"I2C","stop",411.806126312,0.000000063,,,,,
"I2C","start",411.80673275,0.000000063,,,,,
"I2C","address",411.806742938,0.0000865,,,true,0x0B,false
"I2C","data",411.806834625,0.00016025,,0x00,true,,
"I2C","data",411.807000125,0.000134375,,0x55,true,,
"I2C","data",411.80713975,0.00013725,,0x00,true,,
"I2C","data",411.80728225,0.000236688,,0x5E,true,,
"I2C","stop",411.807529312,0.000000063,,,,,
"I2C","start",411.807536625,0.000000062,,,,,
"I2C","address",411.807546875,0.000086438,,,true,0x0B,false
"I2C","data",411.807638563,0.001213375,,0x23,true,,
"I2C","start",411.808862125,0.000000062,,,,,
"I2C","address",411.808872313,0.0000865,,,true,0x0B,true
"I2C","data",411.809115562,0.000086438,,0x02,true,,
"I2C","data",411.80926325,0.000086437,,0x10,true,,
"I2C","data",411.809463563,0.0000865,,0x08,true,,
"I2C","data",411.809605625,0.000086437,,0x16,true,,
"I2C","data",411.809751437,0.0000865,,0x16,true,,
"I2C","data",411.809892938,0.0000865,,0x16,false,,
"I2C","stop",411.810035375,0.000000063,,,,,
"I2C","start",411.813100062,0.000000063,,,,,
"I2C","address",411.81311025,0.0000865,,,true,0x0B,false
"I2C","data",411.813201938,0.000170312,,0x09,true,,
"I2C","start",411.813382438,0.000000063,,,,,
"I2C","address",411.813392688,0.0000865,,,true,0x0B,true
"I2C","data",411.813535563,0.0000865,,0x17,true,,
"I2C","data",411.813679,0.0000865,,0x31,true,,
"I2C","data",411.813821062,0.0000865,,0xC0,false,,
"I2C","stop",411.813971625,0.000000062,,,,,
"I2C","start",411.814481188,0.000000062,,,,,
"I2C","address",411.814491438,0.000086438,,,true,0x0B,false
"I2C","data",411.814583125,0.000171,,0x0A,true,,
"I2C","start",411.814764313,0.000000062,,,,,
"I2C","address",411.8147745,0.0000865,,,true,0x0B,true
"I2C","data",411.814917375,0.0000865,,0x50,true,,
"I2C","data",411.815060875,0.000086438,,0xFC,true,,
"I2C","data",411.815202875,0.0000865,,0xA7,false,,
"I2C","stop",411.815353437,0.000000063,,,,,
"I2C","start",411.815363125,0.000000063,,,,,
"I2C","address",411.815373375,0.000086438,,,true,0x0B,false
"I2C","data",411.815465062,0.000231063,,0x10,true,,
"I2C","start",411.815706313,0.000000063,,,,,
"I2C","address",411.8157165,0.0000865,,,true,0x0B,true
"I2C","data",411.815859438,0.0000865,,0xE4,true,,
"I2C","data",411.816002875,0.0000865,,0x04,true,,
"I2C","data",411.816144875,0.0000865,,0xA1,false,,
"I2C","stop",411.816295438,0.000000063,,,,,
"I2C","start",411.816561687,0.000000063,,,,,
"I2C","address",411.816571875,0.0000865,,,true,0x0B,false
"I2C","data",411.816663563,0.000171562,,0x0F,true,,
"I2C","start",411.816845312,0.000000063,,,,,
"I2C","address",411.8168555,0.0000865,,,true,0x0B,true
"I2C","data",411.816998375,0.0000865,,0xA6,true,,
"I2C","data",411.81714175,0.0000865,,0x04,true,,
"I2C","data",411.817283687,0.0000865,,0x65,false,,
"I2C","stop",411.817434187,0.000000063,,,,,
"I2C","start",411.817447625,0.000000063,,,,,
"I2C","address",411.817457875,0.0000865,,,true,0x0B,false
"I2C","data",411.817549563,0.00022575,,0x08,true,,
"I2C","start",411.8177855,0.000000062,,,,,
"I2C","address",411.817795687,0.0000865,,,true,0x0B,true
"I2C","data",411.817939062,0.0000865,,0xB6,true,,
"I2C","data",411.8180825,0.0000865,,0x0B,true,,
"I2C","data",411.8182245,0.0000865,,0x7D,false,,
"I2C","stop",411.818375,0.000000063,,,,,
"I2C","start",411.8195735,0.000000063,,,,,
"I2C","address",411.819583688,0.0000865,,,true,0x0B,false
"I2C","data",411.819675375,0.000166812,,0x0D,true,,
"I2C","start",411.819852375,0.000000063,,,,,
"I2C","address",411.819862563,0.0000865,,,true,0x0B,true
"I2C","data",411.820005875,0.0000865,,0x60,true,,
"I2C","data",411.82014925,0.0000865,,0x00,true,,
"I2C","data",411.820291125,0.0000865,,0xC6,false,,
"I2C","stop",411.820441688,0.000000062,,,,,
"I2C","start",411.820455,0.000000063,,,,,
"I2C","address",411.820465188,0.0000865,,,true,0x0B,false
"I2C","data",411.820556937,0.000287125,,0x51,true,,
"I2C","start",411.82085425,0.000000062,,,,,
"I2C","address",411.820864438,0.0000865,,,true,0x0B,true
"I2C","data",411.82100925,0.0000865,,0x04,true,,
"I2C","data",411.821153563,0.000086437,,0x00,true,,
"I2C","data",411.821298813,0.0000865,,0x00,true,,
"I2C","data",411.821444063,0.000086437,,0x00,true,,
"I2C","data",411.821589313,0.0000865,,0x00,true,,
"I2C","data",411.82173075,0.0000865,,0xDA,false,,
"I2C","stop",411.821881375,0.000000063,,,,,
"I2C","start",411.821897438,0.000000062,,,,,
"I2C","address",411.821907688,0.000086438,,,true,0x0B,false
"I2C","data",411.821999375,0.000238937,,0xD2,true,,
"I2C","start",411.8222485,0.000000063,,,,,
"I2C","address",411.82225875,0.000086438,,,true,0x0B,true
"I2C","data",411.822401625,0.0000865,,0x00,true,,
"I2C","data",411.822545063,0.0000865,,0x00,true,,
"I2C","data",411.822687,0.0000865,,0x2C,false,,
"I2C","stop",411.822837563,0.000000062,,,,,
"I2C","start",411.822848625,0.000000063,,,,,
"I2C","address",411.822858875,0.000086437,,,true,0x0B,false
"I2C","data",411.822950563,0.000220875,,0x3F,true,,
"I2C","start",411.823181625,0.000000062,,,,,
"I2C","address",411.823191875,0.0000865,,,true,0x0B,true
"I2C","data",411.82333475,0.0000865,,0x5B,true,,
"I2C","data",411.823478187,0.0000865,,0x10,true,,
"I2C","data",411.82362025,0.000086438,,0x5D,false,,
"I2C","stop",411.82377075,0.000000063,,,,,
"I2C","start",411.8245005,0.000000063,,,,,
"I2C","address",411.824510687,0.0000865,,,true,0x0B,false
"I2C","data",411.824602375,0.000159625,,0x3E,true,,
"I2C","start",411.824772188,0.000000063,,,,,
"I2C","address",411.824782438,0.0000865,,,true,0x0B,true
"I2C","data",411.824925812,0.0000865,,0x62,true,,
"I2C","data",411.825069312,0.000086438,,0x10,true,,
"I2C","data",411.82521125,0.000086437,,0x0F,false,,
"I2C","stop",411.825361687,0.000000063,,,,,
"I2C","start",411.825372062,0.000000063,,,,,
"I2C","address",411.82538225,0.0000865,,,true,0x0B,false
"I2C","data",411.825473938,0.000217625,,0x3D,true,,
"I2C","start",411.82570175,0.000000062,,,,,
"I2C","address",411.825712,0.0000865,,,true,0x0B,true
"I2C","data",411.825854812,0.0000865,,0x5A,true,,
"I2C","data",411.825998313,0.000086437,,0x10,true,,
"I2C","data",411.826140313,0.0000865,,0x64,false,,
"I2C","stop",411.826290875,0.000000063,,,,,
"I2C","start",411.826612188,0.000000063,,,,,
"I2C","address",411.826622375,0.0000865,,,true,0x0B,false
"I2C","data",411.826714063,0.00015975,,0x3F,true,,
"I2C","start",411.826884,0.000000063,,,,,
"I2C","address",411.826894187,0.0000865,,,true,0x0B,true
"I2C","data",411.827037438,0.0000865,,0x5B,true,,
"I2C","data",411.827180875,0.000086437,,0x10,true,,
"I2C","data",411.827322875,0.0000865,,0x5D,false,,
"I2C","stop",411.8275385,0.000000063,,,,,
"I2C","start",411.827549875,0.000000063,,,,,
"I2C","address",411.827560063,0.0000865,,,true,0x0B,false
"I2C","data",411.827651812,0.000225938,,0x3E,true,,
"I2C","start",411.827887938,0.000000062,,,,,
"I2C","address",411.827898125,0.0000865,,,true,0x0B,true
"I2C","data",411.82808875,0.000086438,,0x62,true,,
"I2C","data",411.828231562,0.0000865,,0x10,true,,
"I2C","data",411.8283735,0.0000865,,0x0F,false,,
"I2C","stop",411.828523937,0.000000063,,,,,
"I2C","start",411.829590125,0.000000063,,,,,
"I2C","address",411.829600313,0.0000865,,,true,0x0B,false
"I2C","data",411.829692062,0.000159125,,0x3D,true,,
"I2C","start",411.829861375,0.000000063,,,,,
"I2C","address",411.829871625,0.0000865,,,true,0x0B,true
"I2C","data",411.830014937,0.0000865,,0x5A,true,,
"I2C","data",411.830158375,0.000086437,,0x10,true,,
"I2C","data",411.830300375,0.000086438,,0x64,false,,
"I2C","stop",411.830450875,0.000000063,,,,,
"I2C","start",411.832983062,0.000000063,,,,,
"I2C","address",411.832993312,0.0000865,,,true,0x0B,false
"I2C","data",411.833085,0.000382313,,0x2F,true,,
"I2C","start",411.8334775,0.000000062,,,,,
"I2C","address",411.83348775,0.0000865,,,true,0x0B,true
"I2C","data",411.833633937,0.000086437,,0x2A,true,,
"I2C","data",411.833778688,0.0000865,,0xA8,true,,
"I2C","data",411.833924,0.0000865,,0x18,true,,
"I2C","data",411.83406925,0.0000865,,0xA6,true,,
"I2C","data",411.834214625,0.0000865,,0xD0,true,,
"I2C","data",411.83436,0.0000865,,0x55,true,,
"I2C","data",411.834505375,0.0000865,,0x15,true,,
"I2C","data",411.834650688,0.0000865,,0x84,true,,
"I2C","data",411.834796063,0.000086438,,0x17,true,,
"I2C","data",411.834941313,0.0000865,,0xB3,true,,
"I2C","data",411.835086563,0.0000865,,0xB9,true,,
"I2C","data",411.835296375,0.000086438,,0x9E,true,,
"I2C","data",411.8354995,0.0000865,,0xEB,true,,
"I2C","data",411.835644875,0.0000865,,0x10,true,,
"I2C","data",411.83579025,0.0000865,,0x2E,true,,
"I2C","data",411.835935625,0.0000865,,0xBD,true,,
"I2C","data",411.836081,0.0000865,,0x4D,true,,
"I2C","data",411.836226313,0.0000865,,0x4C,true,,
"I2C","data",411.836371625,0.000086437,,0x51,true,,
"I2C","data",411.836516875,0.000086438,,0x1A,true,,
"I2C","data",411.836662125,0.0000865,,0x1E,true,,
"I2C","data",411.836807375,0.0000865,,0x00,true,,
"I2C","data",411.83695275,0.0000865,,0x23,true,,
"I2C","data",411.837098187,0.000086438,,0x99,true,,
"I2C","data",411.8372435,0.0000865,,0x95,true,,
"I2C","data",411.837388875,0.0000865,,0xFD,true,,
"I2C","data",411.83753425,0.0000865,,0x22,true,,
"I2C","data",411.837679562,0.0000865,,0x7D,true,,
"I2C","data",411.837824813,0.0000865,,0x61,true,,
"I2C","data",411.838011687,0.000086437,,0x63,true,,
"I2C","data",411.838160188,0.0000865,,0x20,true,,
"I2C","data",411.838307938,0.000086438,,0xF1,true,,
"I2C","data",411.838456625,0.000086437,,0xC1,true,,
"I2C","data",411.838604375,0.000086437,,0xCD,true,,
"I2C","data",411.838753063,0.0000865,,0x79,true,,
"I2C","data",411.838901313,0.0000865,,0xAD,true,,
"I2C","data",411.8390495,0.0000865,,0x3C,true,,
"I2C","data",411.83919775,0.0000865,,0x9B,true,,
"I2C","data",411.839346,0.000086438,,0x4A,true,,
"I2C","data",411.839494188,0.0000865,,0x72,true,,
"I2C","data",411.839641938,0.0000865,,0xCF,true,,
"I2C","data",411.839790625,0.0000865,,0x2A,true,,
"I2C","data",411.839938875,0.0000865,,0x02,true,,
"I2C","data",411.84008325,0.0000865,,0xB4,false,,
"I2C","stop",411.840237125,0.000000063,,,,,
"I2C","start",412.607168312,0.000000063,,,,,
"I2C","address",412.607178562,0.0000865,,,true,0x0B,false
"I2C","data",412.60727025,0.000163125,,0xC1,true,,
"I2C","start",412.607443563,0.000000062,,,,,
"I2C","address",412.60745375,0.0000865,,,true,0x0B,true
"I2C","data",412.6075995,0.000086437,,0x04,true,,
"I2C","data",412.60774425,0.0000865,,0xA4,true,,
"I2C","data",412.607889563,0.0000865,,0x48,true,,
"I2C","data",412.608034813,0.0000865,,0xFA,true,,
"I2C","data",412.608244688,0.0000865,,0x63,true,,
"I2C","data",412.608444125,0.000086438,,0x4B,false,,
"I2C","stop",412.608594625,0.000000062,,,,,
"I2C","start",412.833144125,0.000000063,,,,,
"I2C","address",412.833154375,0.000086438,,,true,0x0B,false
"I2C","data",412.833246062,0.000166938,,0xC2,true,,
"I2C","start",412.833423187,0.000000063,,,,,
"I2C","address",412.833433437,0.0000865,,,true,0x0B,true
"I2C","data",412.833581125,0.0000865,,0x08,true,,
"I2C","data",412.833728875,0.0000865,,0x01,true,,
"I2C","data",412.8338775,0.0000865,,0x00,true,,
"I2C","data",412.834026125,0.0000865,,0x00,true,,
"I2C","data",412.83417475,0.000086437,,0x00,true,,
"I2C","data",412.834322875,0.0000865,,0x55,true,,
"I2C","data",412.83453325,0.000086438,,0x00,true,,
"I2C","data",412.834695813,0.0000865,,0x00,true,,
"I2C","data",412.8349115,0.000086438,,0x01,true,,
"I2C","data",412.835092687,0.0000865,,0xAE,false,,
"I2C","stop",412.835301188,0.000000062,,,,,
"I2C","start",413.573471438,0.000000062,,,,,
"I2C","address",413.573481625,0.0000865,,,true,0x0B,false
"I2C","data",413.573573375,0.000178812,,0xD5,true,,
"I2C","start",413.573762375,0.000000063,,,,,
"I2C","address",413.573772625,0.0000865,,,true,0x0B,true
"I2C","data",413.573957875,0.000086437,,0x00,true,,
"I2C","data",413.57410075,0.0000865,,0x00,true,,
"I2C","data",413.574242687,0.0000865,,0x4E,false,,
"I2C","stop",413.57439325,0.000000062,,,,,
"I2C","start",413.57520375,0.000000063,,,,,
"I2C","address",413.575214,0.0000865,,,true,0x0B,false
"I2C","data",413.575305688,0.000177312,,0xD3,true,,
"I2C","data",413.575488188,0.0001315,,0x00,true,,
"I2C","data",413.575624937,0.000133875,,0x00,true,,
"I2C","data",413.575764,0.000133,,0x81,true,,
"I2C","stop",413.575907438,0.000000063,,,,,
"I2C","start",413.575923,0.000000063,,,,,
"I2C","address",413.57593325,0.000086437,,,true,0x0B,false
"I2C","data",413.576024937,0.00020575,,0x00,true,,
"I2C","data",413.576235937,0.000200813,,0x51,true,,
"I2C","data",413.576441938,0.000196062,,0x00,true,,
"I2C","data",413.57664325,0.000133437,,0x0A,true,,
"I2C","stop",413.576787062,0.000000063,,,,,
"I2C","start",413.576940438,0.000000062,,,,,
"I2C","address",413.576950625,0.0000865,,,true,0x0B,false
"I2C","data",413.577042312,0.001047687,,0x23,true,,
"I2C","start",413.578100188,0.000000062,,,,,
"I2C","address",413.578110438,0.0000865,,,true,0x0B,true
"I2C","data",413.57825525,0.0000865,,0x04,true,,
"I2C","data",413.578399687,0.000086438,,0x00,true,,
"I2C","data",413.578545,0.0000865,,0x00,true,,
"I2C","data",413.578690312,0.0000865,,0x00,true,,
"I2C","data",413.578835687,0.0000865,,0x00,true,,
"I2C","data",413.578977125,0.0000865,,0x54,false,,
"I2C","stop",413.579127562,0.000000063,,,,,
"I2C","start",413.580237062,0.000000063,,,,,
"I2C","address",413.58024725,0.0000865,,,true,0x0B,false
"I2C","data",413.580339,0.000157625,,0x00,true,,
"I2C","data",413.580501875,0.000131375,,0x53,true,,
"I2C","data",413.580638437,0.000133875,,0x00,true,,
"I2C","data",413.5807775,0.000132875,,0x20,true,,
"I2C","stop",413.580920812,0.000000063,,,,,
"I2C","start",413.580927875,0.000000063,,,,,
"I2C","address",413.580938125,0.0000865,,,true,0x0B,false
"I2C","data",413.581029812,0.001196,,0x23,true,,
"I2C","start",413.582236,0.000000062,,,,,
"I2C","address",413.58224625,0.0000865,,,true,0x0B,true
"I2C","data",413.582390562,0.0000865,,0x04,true,,
"I2C","data",413.582534937,0.0000865,,0x00,true,,
"I2C","data",413.582680312,0.000086438,,0x00,true,,
"I2C","data",413.582825688,0.000086438,,0x00,true,,
"I2C","data",413.582971,0.0000865,,0x00,true,,
"I2C","data",413.583112438,0.0000865,,0x54,false,,
"I2C","stop",413.583262938,0.000000062,,,,,
"I2C","start",413.583280563,0.000000063,,,,,
"I2C","address",413.58329075,0.0000865,,,true,0x0B,false
"I2C","data",413.5833825,0.000215688,,0x00,true,,
"I2C","data",413.583603375,0.000131063,,0x54,true,,
"I2C","data",413.583739625,0.000133937,,0x00,true,,
"I2C","data",413.58387875,0.000201813,,0x4B,true,,
"I2C","stop",413.584091,0.000000063,,,,,
"I2C","start",413.585094875,0.000000063,,,,,
"I2C","address",413.585105125,0.0000865,,,true,0x0B,false
"I2C","data",413.585196812,0.000472312,,0x23,true,,
"I2C","start",413.585679313,0.000000063,,,,,
"I2C","address",413.5856895,0.0000865,,,true,0x0B,true
"I2C","data",413.58592475,0.0000865,,0x04,true,,
"I2C","data",413.5860725,0.000086437,,0x86,true,,
"I2C","data",413.586221187,0.000086438,,0x03,true,,
"I2C","data",413.586369875,0.0000865,,0x06,true,,
"I2C","data",413.586517625,0.000086438,,0x00,true,,
"I2C","data",413.5866625,0.000086438,,0xD2,false,,
"I2C","stop",413.586815875,0.000000062,,,,,
"I2C","start",413.587023812,0.000000063,,,,,
"I2C","address",413.587034062,0.0000865,,,true,0x0B,false
"I2C","data",413.58712575,0.000179875,,0x00,true,,
"I2C","data",413.587310812,0.000134312,,0x55,true,,
"I2C","data",413.587450375,0.000138062,,0x00,true,,
"I2C","data",413.587593687,0.000226,,0x5E,true,,
"I2C","stop",413.587830125,0.000000063,,,,,
"I2C","start",413.587838313,0.000000062,,,,,
"I2C","address",413.5878485,0.0000865,,,true,0x0B,false
"I2C","data",413.58794025,0.001212125,,0x23,true,,
"I2C","start",413.589162563,0.000000063,,,,,
"I2C","address",413.589172813,0.0000865,,,true,0x0B,true
"I2C","data",413.589346813,0.0000865,,0x02,true,,
"I2C","data",413.5894945,0.0000865,,0x10,true,,
"I2C","data",413.589643187,0.0000865,,0x08,true,,
"I2C","data",413.589787563,0.0000865,,0x16,true,,
"I2C","data",413.589936187,0.0000865,,0x16,true,,
"I2C","data",413.590080937,0.0000865,,0x16,false,,
"I2C","stop",413.590225625,0.000000062,,,,,
"I2C","start",413.593352687,0.000000063,,,,,
"I2C","address",413.593362937,0.0000865,,,true,0x0B,false
"I2C","data",413.593454625,0.0001705,,0x09,true,,
"I2C","start",413.593635312,0.000000063,,,,,
"I2C","address",413.5936455,0.0000865,,,true,0x0B,true
"I2C","data",413.593788437,0.0000865,,0x10,true,,
"I2C","data",413.593931875,0.0000865,,0x31,true,,
"I2C","data",413.594073875,0.0000865,,0xAB,false,,
"I2C","stop",413.594224437,0.000000063,,,,,
"I2C","start",413.595154125,0.000000063,,,,,
"I2C","address",413.595164313,0.0000865,,,true,0x0B,false
"I2C","data",413.595256,0.000170625,,0x0A,true,,
"I2C","start",413.595436812,0.000000063,,,,,
"I2C","address",413.595447062,0.0000865,,,true,0x0B,true
"I2C","data",413.595589875,0.0000865,,0x1B,true,,
"I2C","data",413.59573325,0.0000865,,0xFC,true,,
"I2C","data",413.595875187,0.000086438,,0x6B,false,,
"I2C","stop",413.596025625,0.000000063,,,,,
"I2C","start",413.596042313,0.000000063,,,,,
"I2C","address",413.596052563,0.000086437,,,true,0x0B,false
"I2C","data",413.59614425,0.000223937,,0x10,true,,
"I2C","start",413.596378375,0.000000063,,,,,
"I2C","address",413.596388625,0.000086438,,,true,0x0B,true
"I2C","data",413.5965315,0.0000865,,0xE4,true,,
"I2C","data",413.596674937,0.0000865,,0x04,true,,
"I2C","data",413.596816875,0.0000865,,0xA1,false,,
"I2C","stop",413.596967312,0.000000063,,,,,
"I2C","start",413.597031062,0.000000063,,,,,
"I2C","address",413.597041312,0.000086438,,,true,0x0B,false
"I2C","data",413.597133,0.00017675,,0x0F,true,,
"I2C","start",413.597319938,0.000000063,,,,,
"I2C","address",413.597330125,0.0000865,,,true,0x0B,true
"I2C","data",413.597473,0.000086438,,0xA5,true,,
"I2C","data",413.597616437,0.0000865,,0x04,true,,
"I2C","data",413.5977585,0.0000865,,0x5A,false,,
"I2C","stop",413.597909062,0.000000063,,,,,
"I2C","start",413.597918875,0.000000063,,,,,
"I2C","address",413.597929125,0.000086437,,,true,0x0B,false
"I2C","data",413.598020813,0.000229437,,0x08,true,,
"I2C","start",413.598260438,0.000000062,,,,,
"I2C","address",413.598270625,0.0000865,,,true,0x0B,true
"I2C","data",413.598414,0.0000865,,0xB6,true,,
"I2C","data",413.598557375,0.0000865,,0x0B,true,,
"I2C","data",413.598699313,0.0000865,,0x7D,false,,
"I2C","stop",413.598849875,0.000000063,,,,,
"I2C","start",413.600272937,0.000000063,,,,,
"I2C","address",413.600283125,0.0000865,,,true,0x0B,false
"I2C","data",413.600374812,0.000166938,,0x0D,true,,
"I2C","start",413.600551937,0.000000063,,,,,
"I2C","address",413.600562125,0.0000865,,,true,0x0B,true
"I2C","data",413.6007055,0.0000865,,0x5F,true,,
"I2C","data",413.600848938,0.000086437,,0x00,true,,
"I2C","data",413.600990875,0.0000865,,0xFC,false,,
"I2C","stop",413.601141438,0.000000062,,,,,
"I2C","start",413.601152625,0.000000063,,,,,
"I2C","address",413.601162812,0.0000865,,,true,0x0B,false
"I2C","data",413.601254563,0.00028925,,0x51,true,,
"I2C","start",413.601554,0.000000063,,,,,
"I2C","address",413.601564188,0.0000865,,,true,0x0B,true
"I2C","data",413.601709062,0.000086438,,0x04,true,,
"I2C","data",413.601853437,0.0000865,,0x00,true,,
"I2C","data",413.60199875,0.0000865,,0x00,true,,
"I2C","data",413.602144062,0.0000865,,0x00,true,,
"I2C","data",413.602289375,0.0000865,,0x00,true,,
"I2C","data",413.602430875,0.0000865,,0xDA,false,,
"I2C","stop",413.602581438,0.000000062,,,,,
"I2C","start",413.60260125,0.000000062,,,,,
"I2C","address",413.6026115,0.000086438,,,true,0x0B,false
"I2C","data",413.602703188,0.000235188,,0xD2,true,,
"I2C","start",413.602948562,0.000000063,,,,,
"I2C","address",413.602958812,0.0000865,,,true,0x0B,true
"I2C","data",413.603101687,0.0000865,,0x00,true,,
"I2C","data",413.603245125,0.0000865,,0x00,true,,
"I2C","data",413.603387063,0.0000865,,0x2C,false,,
"I2C","stop",413.603537625,0.000000063,,,,,
"I2C","start",413.603559125,0.000000063,,,,,
"I2C","address",413.603569312,0.0000865,,,true,0x0B,false
"I2C","data",413.603661063,0.000210375,,0x3F,true,,
"I2C","start",413.603881625,0.000000063,,,,,
"I2C","address",413.603891875,0.000086438,,,true,0x0B,true
"I2C","data",413.604034688,0.0000865,,0x5A,true,,
"I2C","data",413.604178,0.0000865,,0x10,true,,
"I2C","data",413.60432,0.0000865,,0x48,false,,
"I2C","stop",413.604470563,0.000000062,,,,,
"I2C","start",413.605142688,0.000000063,,,,,
"I2C","address",413.605152938,0.0000865,,,true,0x0B,false
"I2C","data",413.605244625,0.000159625,,0x3E,true,,
"I2C","start",413.605414437,0.000000063,,,,,
"I2C","address",413.605424687,0.0000865,,,true,0x0B,true
"I2C","data",413.605567937,0.0000865,,0x5A,true,,
"I2C","data",413.605711375,0.0000865,,0x10,true,,
"I2C","data",413.605853375,0.0000865,,0x5E,false,,
"I2C","stop",413.606003938,0.000000062,,,,,
"I2C","start",413.6060145,0.000000063,,,,,
"I2C","address",413.60602475,0.000086437,,,true,0x0B,false
"I2C","data",413.606116438,0.000217625,,0x3D,true,,
"I2C","start",413.60634425,0.000000063,,,,,
"I2C","address",413.6063545,0.000086437,,,true,0x0B,true
"I2C","data",413.60649725,0.0000865,,0x5B,true,,
"I2C","data",413.606640625,0.0000865,,0x10,true,,
"I2C","data",413.6067825,0.0000865,,0x71,false,,
"I2C","stop",413.606933,0.000000062,,,,,
"I2C","start",413.607118188,0.000000062,,,,,
"I2C","address",413.607128375,0.0000865,,,true,0x0B,false
"I2C","data",413.607220125,0.00021075,,0x3F,true,,
"I2C","start",413.607441063,0.000000062,,,,,
"I2C","address",413.607451313,0.000086438,,,true,0x0B,true
"I2C","data",413.607642063,0.0000865,,0x5A,true,,
"I2C","data",413.607785,0.0000865,,0x10,true,,
"I2C","data",413.607926937,0.0000865,,0x48,false,,
"I2C","stop",413.608077438,0.000000062,,,,,
"I2C","start",413.608088125,0.000000063,,,,,
"I2C","address",413.608098312,0.0000865,,,true,0x0B,false
"I2C","data",413.608190063,0.000217312,,0x3E,true,,
"I2C","start",413.608417562,0.000000063,,,,,
"I2C","address",413.608427812,0.0000865,,,true,0x0B,true
"I2C","data",413.60857075,0.000086437,,0x5A,true,,
"I2C","data",413.608714188,0.000086438,,0x10,true,,
"I2C","data",413.608856188,0.0000865,,0x5E,false,,
"I2C","stop",413.60900675,0.000000063,,,,,
"I2C","start",413.613434438,0.000000062,,,,,
"I2C","address",413.613444625,0.0000865,,,true,0x0B,false
"I2C","data",413.613536313,0.000159937,,0x3D,true,,
"I2C","start",413.613706438,0.000000062,,,,,
"I2C","address",413.613716688,0.000086437,,,true,0x0B,true
"I2C","data",413.61386,0.000086437,,0x5B,true,,
"I2C","data",413.614003375,0.0000865,,0x10,true,,
"I2C","data",413.614145375,0.0000865,,0x71,false,,
"I2C","stop",413.614295938,0.000000063,,,,,
"I2C","start",414.593726875,0.000000063,,,,,
"I2C","address",414.593737062,0.0000865,,,true,0x0B,false
"I2C","data",414.593828813,0.000179625,,0xD5,true,,
"I2C","start",414.594018625,0.000000063,,,,,
"I2C","address",414.594028875,0.000086437,,,true,0x0B,true
"I2C","data",414.594214313,0.000086437,,0x00,true,,
"I2C","data",414.594357188,0.0000865,,0x00,true,,
"I2C","data",414.594499063,0.0000865,,0x4E,false,,
"I2C","stop",414.5946495,0.000000063,,,,,
"I2C","start",414.595373625,0.000000063,,,,,
"I2C","address",414.595383813,0.0000865,,,true,0x0B,false
"I2C","data",414.595475562,0.000176875,,0xD3,true,,
"I2C","data",414.595657688,0.000131438,,0x00,true,,
"I2C","data",414.595794375,0.000133813,,0x00,true,,
"I2C","data",414.595933375,0.000132875,,0x81,true,,
"I2C","stop",414.596076687,0.000000063,,,,,
"I2C","start",414.59608925,0.000000063,,,,,
"I2C","address",414.596099438,0.0000865,,,true,0x0B,false
"I2C","data",414.596191187,0.000208563,,0x00,true,,
"I2C","data",414.596404937,0.0001315,,0x51,true,,
"I2C","data",414.596541625,0.000133875,,0x00,true,,
"I2C","data",414.59668075,0.000132938,,0x0A,true,,
"I2C","stop",414.596824125,0.000000063,,,,,
"I2C","start",414.597273313,0.000000062,,,,,
"I2C","address",414.597283563,0.0000865,,,true,0x0B,false
"I2C","data",414.59737525,0.000751687,,0x23,true,,
"I2C","start",414.598137125,0.000000063,,,,,
"I2C","address",414.598147312,0.0000865,,,true,0x0B,true
"I2C","data",414.598292125,0.0000865,,0x04,true,,
"I2C","data",414.598436563,0.0000865,,0x00,true,,
"I2C","data",414.598581938,0.000086438,,0x00,true,,
"I2C","data",414.59872725,0.0000865,,0x00,true,,
"I2C","data",414.598937187,0.0000865,,0x00,true,,
"I2C","data",414.599082062,0.0000865,,0x54,false,,
"I2C","stop",414.599327313,0.000000063,,,,,
"I2C","start",414.600450625,0.000000062,,,,,
"I2C","address",414.600460812,0.0000865,,,true,0x0B,false
"I2C","data",414.6005525,0.000157125,,0x00,true,,
"I2C","data",414.600714875,0.000131437,,0x53,true,,
"I2C","data",414.600851562,0.000133875,,0x00,true,,
"I2C","data",414.600990687,0.000132938,,0x20,true,,
"I2C","stop",414.601134,0.000000063,,,,,
"I2C","start",414.601141875,0.000000063,,,,,
"I2C","address",414.601152062,0.0000865,,,true,0x0B,false
"I2C","data",414.601243813,0.001194875,,0x23,true,,
"I2C","start",414.602448875,0.000000063,,,,,
"I2C","address",414.602459062,0.0000865,,,true,0x0B,true
"I2C","data",414.602603312,0.0000865,,0x04,true,,
"I2C","data",414.602747625,0.000086437,,0x00,true,,
"I2C","data",414.602892812,0.0000865,,0x00,true,,
"I2C","data",414.603038,0.0000865,,0x00,true,,
"I2C","data",414.603183188,0.0000865,,0x00,true,,
"I2C","data",414.603324625,0.0000865,,0x54,false,,
"I2C","stop",414.603475188,0.000000062,,,,,
"I2C","start",414.603494625,0.000000063,,,,,
"I2C","address",414.603504875,0.0000865,,,true,0x0B,false
"I2C","data",414.603596563,0.000213938,,0x00,true,,
"I2C","data",414.60381575,0.000131,,0x54,true,,
"I2C","data",414.603952,0.00013375,,0x00,true,,
"I2C","data",414.604091,0.000132875,,0x4B,true,,
"I2C","stop",414.60423425,0.000000063,,,,,
"I2C","start",414.6053635,0.000000062,,,,,
"I2C","address",414.60537375,0.000086437,,,true,0x0B,false
"I2C","data",414.605465438,0.000469312,,0x23,true,,
"I2C","start",414.605944937,0.000000063,,,,,
"I2C","address",414.605955125,0.0000865,,,true,0x0B,true
"I2C","data",414.6060995,0.000086438,,0x04,true,,
"I2C","data",414.606243875,0.000086437,,0x86,true,,
"I2C","data",414.606389187,0.0000865,,0x03,true,,
"I2C","data",414.6065345,0.0000865,,0x06,true,,
"I2C","data",414.606744375,0.000086437,,0x00,true,,
"I2C","data",414.606943688,0.000086437,,0xD2,false,,
"I2C","stop",414.607094188,0.000000062,,,,,
"I2C","start",414.60738025,0.000000063,,,,,
"I2C","address",414.6073905,0.000086438,,,true,0x0B,false
"I2C","data",414.607482188,0.000157188,,0x00,true,,
"I2C","data",414.607644563,0.0001315,,0x55,true,,
"I2C","data",414.60778125,0.000133875,,0x00,true,,
"I2C","data",414.607920313,0.000132937,,0x5E,true,,
"I2C","stop",414.608063688,0.000000062,,,,,
"I2C","start",414.60807125,0.000000062,,,,,
"I2C","address",414.6080815,0.0000865,,,true,0x0B,false
"I2C","data",414.608173187,0.00120325,,0x23,true,,
"I2C","start",414.609386625,0.000000063,,,,,
"I2C","address",414.609396812,0.0000865,,,true,0x0B,true
"I2C","data",414.6095415,0.0000865,,0x02,true,,
"I2C","data",414.60968575,0.0000865,,0x10,true,,
"I2C","data",414.609831,0.000086437,,0x08,true,,
"I2C","data",414.609972375,0.0000865,,0x16,true,,
"I2C","data",414.610118063,0.000086437,,0x16,true,,
"I2C","data",414.6102595,0.0000865,,0x16,false,,
"I2C","stop",414.610401875,0.000000063,,,,,
"I2C","start",414.613854063,0.000000063,,,,,
"I2C","address",414.613864313,0.0000865,,,true,0x0B,false
"I2C","data",414.613956,0.000170375,,0x09,true,,
"I2C","start",414.614136562,0.000000063,,,,,
"I2C","address",414.614146813,0.0000865,,,true,0x0B,true
"I2C","data",414.614289625,0.0000865,,0x0A,true,,
"I2C","data",414.6144975,0.0000865,,0x31,true,,
"I2C","data",414.614696812,0.0000865,,0x7E,false,,
"I2C","stop",414.61484775,0.000000062,,,,,
"I2C","start",414.615336,0.000000062,,,,,
"I2C","address",414.615346187,0.0000865,,,true,0x0B,false
"I2C","data",414.615437938,0.000171,,0x0A,true,,
"I2C","start",414.615619125,0.000000062,,,,,
"I2C","address",414.615629375,0.0000865,,,true,0x0B,true
"I2C","data",414.615772188,0.0000865,,0x1A,true,,
"I2C","data",414.615915562,0.0000865,,0xFC,true,,
"I2C","data",414.6160575,0.0000865,,0x7E,false,,
"I2C","stop",414.616208,0.000000063,,,,,
"I2C","start",414.61622725,0.000000062,,,,,
"I2C","address",414.616237437,0.0000865,,,true,0x0B,false
"I2C","data",414.616329188,0.000221125,,0x10,true,,
"I2C","start",414.6165605,0.000000063,,,,,
"I2C","address",414.616570687,0.0000865,,,true,0x0B,true
"I2C","data",414.616714312,0.0000865,,0xE4,true,,
"I2C","data",414.616857625,0.000086438,,0x04,true,,
"I2C","data",414.616999437,0.0000865,,0xA1,false,,
"I2C","stop",414.617149938,0.000000062,,,,,
"I2C","start",414.617174813,0.000000062,,,,,
"I2C","address",414.617185,0.0000865,,,true,0x0B,false
"I2C","data",414.61727675,0.000215563,,0x0F,true,,
"I2C","start",414.6175025,0.000000063,,,,,
"I2C","address",414.61751275,0.000086438,,,true,0x0B,true
"I2C","data",414.617655562,0.0000865,,0xA5,true,,
"I2C","data",414.617798875,0.000086438,,0x04,true,,
"I2C","data",414.617940687,0.0000865,,0x5A,false,,
"I2C","stop",414.618091063,0.000000062,,,,,
"I2C","start",414.618101562,0.000000063,,,,,
"I2C","address",414.61811175,0.0000865,,,true,0x0B,false
"I2C","data",414.6182035,0.000228312,,0x08,true,,
"I2C","start",414.618442,0.000000062,,,,,
"I2C","address",414.61845225,0.000086437,,,true,0x0B,true
"I2C","data",414.6185955,0.0000865,,0xB6,true,,
"I2C","data",414.618738875,0.0000865,,0x0B,true,,
"I2C","data",414.618880812,0.0000865,,0x7D,false,,
"I2C","stop",414.619031312,0.000000063,,,,,
"I2C","start",414.620477188,0.000000063,,,,,
"I2C","address",414.620487438,0.0000865,,,true,0x0B,false
"I2C","data",414.620579125,0.000167688,,0x0D,true,,
"I2C","start",414.620757,0.000000062,,,,,
"I2C","address",414.620767188,0.0000865,,,true,0x0B,true
"I2C","data",414.620910375,0.0000865,,0x5F,true,,
"I2C","data",414.621053688,0.000086438,,0x00,true,,
"I2C","data",414.621195563,0.0000865,,0xFC,false,,
"I2C","stop",414.621346062,0.000000063,,,,,
"I2C","start",414.621356812,0.000000063,,,,,
"I2C","address",414.621367062,0.0000865,,,true,0x0B,false
"I2C","data",414.62145875,0.000289438,,0x51,true,,
"I2C","start",414.621758375,0.000000062,,,,,
"I2C","address",414.621768562,0.0000865,,,true,0x0B,true
"I2C","data",414.621913312,0.0000865,,0x04,true,,
"I2C","data",414.622057625,0.0000865,,0x00,true,,
"I2C","data",414.62227175,0.0000865,,0x00,true,,
"I2C","data",414.622474375,0.0000865,,0x00,true,,
"I2C","data",414.622619625,0.0000865,,0x00,true,,
"I2C","data",414.622761062,0.0000865,,0xDA,false,,
"I2C","stop",414.622911563,0.000000062,,,,,
"I2C","start",414.62292725,0.000000063,,,,,
"I2C","address",414.6229375,0.000086438,,,true,0x0B,false
"I2C","data",414.623029187,0.000239125,,0xD2,true,,
"I2C","start",414.6232785,0.000000062,,,,,
"I2C","address",414.623288688,0.0000865,,,true,0x0B,true
"I2C","data",414.623432437,0.0000865,,0x00,true,,
"I2C","data",414.62357575,0.0000865,,0x00,true,,
"I2C","data",414.623717688,0.0000865,,0x2C,false,,
"I2C","stop",414.623868125,0.000000063,,,,,
"I2C","start",414.623880625,0.000000062,,,,,
"I2C","address",414.623890813,0.0000865,,,true,0x0B,false
"I2C","data",414.6239825,0.000219437,,0x3F,true,,
"I2C","start",414.624212125,0.000000063,,,,,
"I2C","address",414.624222313,0.0000865,,,true,0x0B,true
"I2C","data",414.624365125,0.0000865,,0x5A,true,,
"I2C","data",414.624508438,0.0000865,,0x10,true,,
"I2C","data",414.624650313,0.0000865,,0x48,false,,
"I2C","stop",414.62480075,0.000000063,,,,,
"I2C","start",414.625367625,0.000000062,,,,,
"I2C","address",414.625377875,0.000086438,,,true,0x0B,false
"I2C","data",414.625469562,0.00015925,,0x3E,true,,
"I2C","start",414.625639,0.000000063,,,,,
"I2C","address",414.625649188,0.0000865,,,true,0x0B,true
"I2C","data",414.6257925,0.0000865,,0x58,true,,
"I2C","data",414.625935875,0.0000865,,0x10,true,,
"I2C","data",414.626077688,0.0000865,,0x74,false,,
"I2C","stop",414.626228062,0.000000063,,,,,
"I2C","start",414.626238063,0.000000062,,,,,
"I2C","address",414.626248313,0.0000865,,,true,0x0B,false
"I2C","data",414.62634,0.000217875,,0x3D,true,,
"I2C","start",414.626568062,0.000000063,,,,,
"I2C","address",414.626578312,0.000086438,,,true,0x0B,true
"I2C","data",414.626721062,0.0000865,,0x58,true,,
"I2C","data",414.626864437,0.0000865,,0x10,true,,
"I2C","data",414.627006375,0.0000865,,0x4E,false,,
"I2C","stop",414.627156875,0.000000062,,,,,
"I2C","start",414.627207563,0.000000062,,,,,
"I2C","address",414.627217813,0.000086437,,,true,0x0B,false
"I2C","data",414.6273095,0.00017725,,0x3F,true,,
"I2C","start",414.627496937,0.000000063,,,,,
"I2C","address",414.627507125,0.0000865,,,true,0x0B,true
"I2C","data",414.627650813,0.000086438,,0x5A,true,,
"I2C","data",414.627794,0.0000865,,0x10,true,,
"I2C","data",414.627935813,0.0000865,,0x48,false,,
"I2C","stop",414.628086312,0.000000063,,,,,
"I2C","start",414.628097687,0.000000063,,,,,
"I2C","address",414.628107937,0.000086438,,,true,0x0B,false
"I2C","data",414.628199625,0.000216688,,0x3E,true,,
"I2C","start",414.6284265,0.000000063,,,,,
"I2C","address",414.62843675,0.000086437,,,true,0x0B,true
"I2C","data",414.628579563,0.0000865,,0x58,true,,
"I2C","data",414.628722875,0.0000865,,0x10,true,,
"I2C","data",414.62886475,0.0000865,,0x74,false,,
"I2C","stop",414.629015187,0.000000063,,,,,
"I2C","start",414.633658,0.000000062,,,,,
"I2C","address",414.63366825,0.0000865,,,true,0x0B,false
"I2C","data",414.633759937,0.000159875,,0x3D,true,,
"I2C","start",414.63393,0.000000063,,,,,
"I2C","address",414.63394025,0.0000865,,,true,0x0B,true
"I2C","data",414.634083562,0.0000865,,0x58,true,,
"I2C","data",414.634226875,0.0000865,,0x10,true,,
"I2C","data",414.634368688,0.0000865,,0x4E,false,,
"I2C","stop",414.634519125,0.000000063,,,,,
"I2C","start",415.614098688,0.000000063,,,,,
"I2C","address",415.614108938,0.0000865,,,true,0x0B,false
"I2C","data",415.614200625,0.000179187,,0xD5,true,,
"I2C","start",415.61439,0.000000062,,,,,
"I2C","address",415.614400187,0.0000865,,,true,0x0B,true
"I2C","data",415.614585562,0.0000865,,0x00,true,,
"I2C","data",415.6147285,0.0000865,,0x00,true,,
"I2C","data",415.6148705,0.0000865,,0x4E,false,,
"I2C","stop",415.615021062,0.000000063,,,,,
"I2C","start",415.615605875,0.000000063,,,,,
"I2C","address",415.615616063,0.0000865,,,true,0x0B,false
"I2C","data",415.615707812,0.0001775,,0xD3,true,,
"I2C","data",415.615890562,0.000131438,,0x00,true,,
"I2C","data",415.61602725,0.000133875,,0x00,true,,
"I2C","data",415.616166375,0.000132938,,0x81,true,,
"I2C","stop",415.61630975,0.000000062,,,,,
"I2C","start",415.616324188,0.000000062,,,,,
"I2C","address",415.616334437,0.0000865,,,true,0x0B,false
"I2C","data",415.616426125,0.000206937,,0x00,true,,
"I2C","data",415.61663825,0.0001315,,0x51,true,,
"I2C","data",415.616774937,0.000133812,,0x00,true,,
"I2C","data",415.616914,0.000132875,,0x0A,true,,
"I2C","stop",415.617057312,0.000000063,,,,,
"I2C","start",415.617388812,0.000000063,,,,,
"I2C","address",415.617399,0.0000865,,,true,0x0B,false
"I2C","data",415.617490687,0.000869438,,0x23,true,,
"I2C","start",415.618370313,0.000000062,,,,,
"I2C","address",415.6183805,0.0000865,,,true,0x0B,true
"I2C","data",415.618525375,0.0000865,,0x04,true,,
"I2C","data",415.618669813,0.0000865,,0x00,true,,
"I2C","data",415.618815187,0.0000865,,0x00,true,,
"I2C","data",415.618960625,0.000086437,,0x00,true,,
"I2C","data",415.619106,0.0000865,,0x00,true,,
"I2C","data",415.619247562,0.0000865,,0x54,false,,
"I2C","stop",415.619398125,0.000000063,,,,,
"I2C","start",415.62068075,0.000000063,,,,,
"I2C","address",415.620690938,0.0000865,,,true,0x0B,false
"I2C","data",415.620782688,0.000157,,0x00,true,,
"I2C","data",415.620944875,0.0001315,,0x53,true,,
"I2C","data",415.621081563,0.000133875,,0x00,true,,
"I2C","data",415.621220625,0.000132938,,0x20,true,,
"I2C","stop",415.621363938,0.000000063,,,,,
"I2C","start",415.621372188,0.000000062,,,,,
"I2C","address",415.621382438,0.000086438,,,true,0x0B,false
"I2C","data",415.621474125,0.001195125,,0x23,true,,
"I2C","start",415.622679437,0.000000063,,,,,
"I2C","address",415.622689625,0.0000865,,,true,0x0B,true
"I2C","data",415.62285875,0.0000865,,0x04,true,,
"I2C","data",415.623020375,0.0000865,,0x00,true,,
"I2C","data",415.623169125,0.000086437,,0x00,true,,
"I2C","data",415.623327875,0.0000865,,0x00,true,,
"I2C","data",415.623476125,0.0000865,,0x00,true,,
"I2C","data",415.623621,0.0000865,,0x54,false,,
"I2C","stop",415.623778625,0.000000063,,,,,
"I2C","start",415.623840313,0.000000062,,,,,
"I2C","address",415.6238505,0.0000865,,,true,0x0B,false
"I2C","data",415.623942188,0.000235625,,0x00,true,,
"I2C","data",415.624183062,0.000206063,,0x54,true,,
"I2C","data",415.624394375,0.000177937,,0x00,true,,
"I2C","data",415.6245775,0.000194625,,0x4B,true,,
"I2C","stop",415.624782563,0.000000063,,,,,
"I2C","start",415.625572813,0.000000063,,,,,
"I2C","address",415.625583,0.0000865,,,true,0x0B,false
"I2C","data",415.625674688,0.00067325,,0x23,true,,
"I2C","start",415.626358125,0.000000062,,,,,
"I2C","address",415.626368313,0.0000865,,,true,0x0B,true
"I2C","data",415.626513125,0.0000865,,0x04,true,,
"I2C","data",415.626657562,0.000086437,,0x86,true,,
"I2C","data",415.626802875,0.0000865,,0x03,true,,
"I2C","data",415.626948313,0.000086437,,0x06,true,,
"I2C","data",415.627093688,0.000086438,,0x00,true,,
"I2C","data",415.62723525,0.000086437,,0xD2,false,,
"I2C","stop",415.627385812,0.000000063,,,,,
"I2C","start",415.627456188,0.000000063,,,,,
"I2C","address",415.627466438,0.000086437,,,true,0x0B,false
"I2C","data",415.627558125,0.000163188,,0x00,true,,
"I2C","data",415.6277265,0.000131063,,0x55,true,,
"I2C","data",415.627862812,0.000133938,,0x00,true,,
"I2C","data",415.628001938,0.000133,,0x5E,true,,
"I2C","stop",415.628145375,0.000000063,,,,,
"I2C","start",415.628152312,0.000000063,,,,,
"I2C","address",415.6281625,0.0000865,,,true,0x0B,false
"I2C","data",415.62825425,0.001204813,,0x23,true,,
"I2C","start",415.62946925,0.000000063,,,,,
"I2C","address",415.629479437,0.0000865,,,true,0x0B,true
"I2C","data",415.629672,0.0000865,,0x02,true,,
"I2C","data",415.629874313,0.0000865,,0x10,true,,
"I2C","data",415.63002025,0.000086438,,0x08,true,,
"I2C","data",415.63016175,0.0000865,,0x16,true,,
"I2C","data",415.630307625,0.0000865,,0x16,true,,
"I2C","data",415.63044925,0.000086438,,0x16,false,,
"I2C","stop",415.630591625,0.000000063,,,,,
"I2C","start",415.633879875,0.000000063,,,,,
"I2C","address",415.633890062,0.0000865,,,true,0x0B,false
"I2C","data",415.633981812,0.000170125,,0x09,true,,
"I2C","start",415.634162125,0.000000063,,,,,
"I2C","address",415.634172375,0.0000865,,,true,0x0B,true
"I2C","data",415.634315313,0.0000865,,0x05,true,,
"I2C","data",415.63445875,0.0000865,,0x31,true,,
"I2C","data",415.63460075,0.0000865,,0xBD,false,,
"I2C","stop",415.634751312,0.000000063,,,,,
"I2C","start",415.63557725,0.000000063,,,,,
"I2C","address",415.635587438,0.0000865,,,true,0x0B,false
"I2C","data",415.635679187,0.000170188,,0x0A,true,,
"I2C","start",415.635859563,0.000000063,,,,,
"I2C","address",415.63586975,0.0000865,,,true,0x0B,true
"I2C","data",415.63601275,0.000086438,,0x16,true,,
"I2C","data",415.63615625,0.000086437,,0xFC,true,,
"I2C","data",415.636298313,0.000086437,,0x82,false,,
"I2C","stop",415.636448875,0.000000063,,,,,
"I2C","start",415.63646,0.000000063,,,,,
"I2C","address",415.636470187,0.0000865,,,true,0x0B,false
"I2C","data",415.636561875,0.000229688,,0x10,true,,
"I2C","start",415.63680175,0.000000062,,,,,
"I2C","address",415.636812,0.0000865,,,true,0x0B,true
"I2C","data",415.636955,0.000086437,,0xE4,true,,
"I2C","data",415.637163063,0.0000865,,0x04,true,,
"I2C","data",415.6373625,0.0000865,,0xA1,false,,
"I2C","stop",415.6375135,0.000000062,,,,,
"I2C","start",415.637532062,0.000000063,,,,,
"I2C","address",415.63754225,0.0000865,,,true,0x0B,false
"I2C","data",415.637633938,0.000222,,0x0F,true,,
"I2C","start",415.637866125,0.000000062,,,,,
"I2C","address",415.637876375,0.0000865,,,true,0x0B,true
"I2C","data",415.63801925,0.0000865,,0xA5,true,,
"I2C","data",415.63816275,0.0000865,,0x04,true,,
"I2C","data",415.638304812,0.000086437,,0x5A,false,,
"I2C","stop",415.638455375,0.000000063,,,,,
"I2C","start",415.63847375,0.000000063,,,,,
"I2C","address",415.638483937,0.0000865,,,true,0x0B,false
"I2C","data",415.638575688,0.000220938,,0x08,true,,
"I2C","start",415.638806812,0.000000063,,,,,
"I2C","address",415.638817,0.0000865,,,true,0x0B,true
"I2C","data",415.638960312,0.0000865,,0xB6,true,,
"I2C","data",415.63910375,0.000086437,,0x0B,true,,
"I2C","data",415.639245688,0.0000865,,0x7D,false,,
"I2C","stop",415.639396187,0.000000063,,,,,
"I2C","start",415.640692688,0.000000063,,,,,
"I2C","address",415.640702938,0.0000865,,,true,0x0B,false
"I2C","data",415.640794625,0.00016725,,0x0D,true,,
"I2C","start",415.640972062,0.000000063,,,,,
"I2C","address",415.640982313,0.000086437,,,true,0x0B,true
"I2C","data",415.641125687,0.0000865,,0x5F,true,,
"I2C","data",415.641269187,0.000086438,,0x00,true,,
"I2C","data",415.641411188,0.0000865,,0xFC,false,,
"I2C","stop",415.641561687,0.000000063,,,,,
"I2C","start",415.64157325,0.000000062,,,,,
"I2C","address",415.641583438,0.0000865,,,true,0x0B,false
"I2C","data",415.641675125,0.000288813,,0x51,true,,
"I2C","start",415.641974125,0.000000063,,,,,
"I2C","address",415.641984375,0.000086437,,,true,0x0B,true
"I2C","data",415.642129125,0.0000865,,0x04,true,,
"I2C","data",415.642273563,0.0000865,,0x00,true,,
"I2C","data",415.642418937,0.0000865,,0x00,true,,
"I2C","data",415.642564312,0.0000865,,0x00,true,,
"I2C","data",415.642709687,0.0000865,,0x00,true,,
"I2C","data",415.64285125,0.0000865,,0xDA,false,,
"I2C","stop",415.643001875,0.000000063,,,,,
"I2C","start",415.643022187,0.000000063,,,,,
"I2C","address",415.643032375,0.0000865,,,true,0x0B,false
"I2C","data",415.643124125,0.000234813,,0xD2,true,,
"I2C","start",415.643369125,0.000000063,,,,,
"I2C","address",415.643379312,0.0000865,,,true,0x0B,true
"I2C","data",415.643522313,0.000086438,,0x00,true,,
"I2C","data",415.643665812,0.000086437,,0x00,true,,
"I2C","data",415.643807875,0.000086437,,0x2C,false,,
"I2C","stop",415.6439585,0.000000063,,,,,
"I2C","start",415.643980625,0.000000063,,,,,
"I2C","address",415.643990813,0.0000865,,,true,0x0B,false
"I2C","data",415.644082562,0.00021,,0x3F,true,,
"I2C","start",415.64430275,0.000000062,,,,,
"I2C","address",415.644313,0.0000865,,,true,0x0B,true
"I2C","data",415.644455938,0.0000865,,0x57,true,,
"I2C","data",415.644599438,0.0000865,,0x10,true,,
"I2C","data",415.6447415,0.000086437,,0xA1,false,,
"I2C","stop",415.64497,0.000000063,,,,,
"I2C","start",415.64560025,0.000000063,,,,,
"I2C","address",415.645610438,0.0000865,,,true,0x0B,false
"I2C","data",415.645702125,0.00015925,,0x3E,true,,
"I2C","start",415.645871563,0.000000062,,,,,
"I2C","address",415.64588175,0.0000865,,,true,0x0B,true
"I2C","data",415.646025125,0.000086438,,0x56,true,,
"I2C","data",415.6461685,0.000086438,,0x10,true,,
"I2C","data",415.6463105,0.0000865,,0xA2,false,,
"I2C","stop",415.646461125,0.000000063,,,,,
"I2C","start",415.6464815,0.000000063,,,,,
"I2C","address",415.646491687,0.0000865,,,true,0x0B,false
"I2C","data",415.646583437,0.000207938,,0x3D,true,,
"I2C","start",415.646801563,0.000000063,,,,,
"I2C","address",415.64681175,0.0000865,,,true,0x0B,true
"I2C","data",415.646954687,0.0000865,,0x58,true,,
"I2C","data",415.647098125,0.0000865,,0x10,true,,
"I2C","data",415.64724,0.000086438,,0x4E,false,,
"I2C","stop",415.647390438,0.000000062,,,,,
"I2C","start",415.647585563,0.000000062,,,,,
"I2C","address",415.64759575,0.0000865,,,true,0x0B,false
"I2C","data",415.647687437,0.000159813,,0x3F,true,,
"I2C","start",415.647857438,0.000000062,,,,,
"I2C","address",415.647867625,0.0000865,,,true,0x0B,true
"I2C","data",415.648011063,0.0000865,,0x57,true,,
"I2C","data",415.648154562,0.0000865,,0x10,true,,
"I2C","data",415.648296625,0.0000865,,0xA1,false,,
"I2C","stop",415.648447125,0.000000062,,,,,
"I2C","start",415.648458125,0.000000063,,,,,
"I2C","address",415.648468375,0.0000865,,,true,0x0B,false
"I2C","data",415.648560062,0.000217125,,0x3E,true,,
"I2C","start",415.648787375,0.000000063,,,,,
"I2C","address",415.648797563,0.0000865,,,true,0x0B,true
"I2C","data",415.648940438,0.000086437,,0x56,true,,
"I2C","data",415.649083875,0.0000865,,0x10,true,,
"I2C","data",415.649225937,0.0000865,,0xA2,false,,
"I2C","stop",415.649376562,0.000000063,,,,,
"I2C","start",415.6540445,0.000000063,,,,,
"I2C","address",415.654054687,0.0000865,,,true,0x0B,false
"I2C","data",415.654146375,0.000159437,,0x3D,true,,
"I2C","start",415.654316,0.000000063,,,,,
"I2C","address",415.654326187,0.0000865,,,true,0x0B,true
"I2C","data",415.654469563,0.000086438,,0x58,true,,
"I2C","data",415.654613,0.0000865,,0x10,true,,
"I2C","data",415.654755062,0.000086437,,0x4E,false,,
"I2C","stop",415.654905625,0.000000062,,,,,
"I2C","start",416.63406775,0.000000063,,,,,
"I2C","address",416.634078,0.000086438,,,true,0x0B,false
"I2C","data",416.634169687,0.000179,,0xD5,true,,
"I2C","start",416.634358875,0.000000063,,,,,
"I2C","address",416.634369125,0.0000865,,,true,0x0B,true
"I2C","data",416.634554687,0.000086437,,0x00,true,,
"I2C","data",416.634697625,0.0000865,,0x00,true,,
"I2C","data",416.634839625,0.0000865,,0x4E,false,,
"I2C","stop",416.634990188,0.000000062,,,,,
"I2C","start",416.635772687,0.000000063,,,,,
"I2C","address",416.635782875,0.0000865,,,true,0x0B,false
"I2C","data",416.635874563,0.000177125,,0xD3,true,,
"I2C","data",416.636056875,0.000131562,,0x00,true,,
"I2C","data",416.636193687,0.000203187,,0x00,true,,
"I2C","data",416.636402125,0.000194062,,0x81,true,,
"I2C","stop",416.636606625,0.000000062,,,,,
"I2C","start",416.636619812,0.000000063,,,,,
"I2C","address",416.63663,0.0000865,,,true,0x0B,false
"I2C","data",416.636721688,0.000208188,,0x00,true,,
"I2C","data",416.636935125,0.000131063,,0x51,true,,
"I2C","data",416.637071375,0.000134,,0x00,true,,
"I2C","data",416.637210625,0.000133,,0x0A,true,,
"I2C","stop",416.637354062,0.000000063,,,,,
"I2C","start",416.637613563,0.000000063,,,,,
"I2C","address",416.637623813,0.000086437,,,true,0x0B,false
"I2C","data",416.6377155,0.000941438,,0x23,true,,
"I2C","start",416.638667125,0.000000063,,,,,
"I2C","address",416.638677375,0.000086438,,,true,0x0B,true
"I2C","data",416.638822188,0.0000865,,0x04,true,,
"I2C","data",416.638966687,0.0000865,,0x00,true,,
"I2C","data",416.639112062,0.0000865,,0x00,true,,
"I2C","data",416.6392575,0.0000865,,0x00,true,,
"I2C","data",416.639402937,0.0000865,,0x00,true,,
"I2C","data",416.639544563,0.000086437,,0x54,false,,
"I2C","stop",416.639695125,0.000000063,,,,,
"I2C","start",416.640894812,0.000000063,,,,,
"I2C","address",416.640905062,0.0000865,,,true,0x0B,false
"I2C","data",416.64099675,0.000157312,,0x00,true,,
"I2C","data",416.64115925,0.000131563,,0x53,true,,
"I2C","data",416.641296062,0.000133938,,0x00,true,,
"I2C","data",416.64143525,0.000133,,0x20,true,,
"I2C","stop",416.641578687,0.000000063,,,,,
"I2C","start",416.641587375,0.000000063,,,,,
"I2C","address",416.641597625,0.000086438,,,true,0x0B,false
"I2C","data",416.641689313,0.001194813,,0x23,true,,
"I2C","start",416.642894313,0.000000063,,,,,
"I2C","address",416.6429045,0.0000865,,,true,0x0B,true
"I2C","data",416.643048875,0.0000865,,0x04,true,,
"I2C","data",416.643193312,0.0000865,,0x00,true,,
"I2C","data",416.643338562,0.0000865,,0x00,true,,
"I2C","data",416.643483875,0.0000865,,0x00,true,,
"I2C","data",416.643629187,0.0000865,,0x00,true,,
"I2C","data",416.643770688,0.0000865,,0x54,false,,
"I2C","stop",416.643921313,0.000000062,,,,,
"I2C","start",416.6439385,0.000000063,,,,,
"I2C","address",416.643948687,0.0000865,,,true,0x0B,false
"I2C","data",416.644040437,0.000216438,,0x00,true,,
"I2C","data",416.644262125,0.000201,,0x54,true,,
"I2C","data",416.644468313,0.000196063,,0x00,true,,
"I2C","data",416.644669625,0.000132875,,0x4B,true,,
"I2C","stop",416.644812937,0.000000063,,,,,
"I2C","start",416.645771938,0.000000063,,,,,
"I2C","address",416.645782188,0.000086438,,,true,0x0B,false
"I2C","data",416.645873875,0.000504562,,0x23,true,,
"I2C","start",416.646388625,0.000000063,,,,,
"I2C","address",416.646398875,0.000086437,,,true,0x0B,true
"I2C","data",416.646543125,0.0000865,,0x04,true,,
"I2C","data",416.646687563,0.0000865,,0x86,true,,
"I2C","data",416.646832937,0.0000865,,0x03,true,,
"I2C","data",416.646978312,0.0000865,,0x06,true,,
"I2C","data",416.647123688,0.0000865,,0x00,true,,
"I2C","data",416.647265188,0.0000865,,0xD2,false,,
"I2C","stop",416.647415813,0.000000063,,,,,
"I2C","start",416.647680438,0.000000062,,,,,
"I2C","address",416.647690625,0.0000865,,,true,0x0B,false
"I2C","data",416.647782312,0.000156937,,0x00,true,,
"I2C","data",416.647944437,0.000131563,,0x55,true,,
"I2C","data",416.64808125,0.000133937,,0x00,true,,
"I2C","data",416.648220438,0.000132937,,0x5E,true,,
"I2C","stop",416.648363813,0.000000062,,,,,
"I2C","start",416.648371437,0.000000063,,,,,
"I2C","address",416.648381687,0.000086438,,,true,0x0B,false
"I2C","data",416.648473375,0.001204437,,0x23,true,,
"I2C","start",416.649688,0.000000062,,,,,
"I2C","address",416.649698188,0.0000865,,,true,0x0B,true
"I2C","data",416.649843,0.0000865,,0x02,true,,
"I2C","data",416.649987437,0.000086438,,0x10,true,,
"I2C","data",416.650191937,0.0000865,,0x08,true,,
"I2C","data",416.65033625,0.0000865,,0x16,true,,
"I2C","data",416.650485375,0.0000865,,0x16,true,,
"I2C","data",416.65062975,0.0000865,,0x16,false,,
"I2C","stop",416.650774625,0.000000063,,,,,
"I2C","start",416.654111,0.000000063,,,,,
"I2C","address",416.65412125,0.0000865,,,true,0x0B,false
"I2C","data",416.654212938,0.00017025,,0x09,true,,
"I2C","start",416.654393375,0.000000063,,,,,
"I2C","address",416.654403625,0.0000865,,,true,0x0B,true
"I2C","data",416.6545465,0.0000865,,0x19,true,,
"I2C","data",416.654689875,0.0000865,,0x31,true,,
"I2C","data",416.654831875,0.000086437,,0x16,false,,
"I2C","stop",416.654982437,0.000000063,,,,,
"I2C","start",416.655821812,0.000000063,,,,,
"I2C","address",416.655832062,0.0000865,,,true,0x0B,false
"I2C","data",416.65592375,0.000170437,,0x0A,true,,
"I2C","start",416.656104375,0.000000063,,,,,
"I2C","address",416.656114563,0.0000865,,,true,0x0B,true
"I2C","data",416.656257563,0.000086437,,0x5E,true,,
"I2C","data",416.656401,0.0000865,,0xFC,true,,
"I2C","data",416.656543063,0.0000865,,0x71,false,,
"I2C","stop",416.656693625,0.000000063,,,,,
"I2C","start",416.6567035,0.000000063,,,,,
"I2C","address",416.65671375,0.0000865,,,true,0x0B,false
"I2C","data",416.656805437,0.000230938,,0x10,true,,
"I2C","start",416.657046562,0.000000063,,,,,
"I2C","address",416.657056813,0.0000865,,,true,0x0B,true
"I2C","data",416.657199812,0.0000865,,0xE4,true,,
"I2C","data",416.657343313,0.0000865,,0x04,true,,
"I2C","data",416.657485375,0.0000865,,0xA1,false,,
"I2C","stop",416.657636,0.000000063,,,,,
"I2C","start",416.657669312,0.000000063,,,,,
"I2C","address",416.657679562,0.0000865,,,true,0x0B,false
"I2C","data",416.65777125,0.0002075,,0x0F,true,,
"I2C","start",416.657988938,0.000000062,,,,,
"I2C","address",416.657999125,0.0000865,,,true,0x0B,true
"I2C","data",416.658142063,0.0000865,,0xA5,true,,
"I2C","data",416.658285562,0.000086437,,0x04,true,,
"I2C","data",416.6584275,0.0000865,,0x5A,false,,
"I2C","stop",416.658578,0.000000063,,,,,
"I2C","start",416.658587125,0.000000063,,,,,
"I2C","address",416.658597312,0.0000865,,,true,0x0B,false
"I2C","data",416.658689,0.000230063,,0x08,true,,
"I2C","start",416.65892925,0.000000062,,,,,
"I2C","address",416.658939438,0.0000865,,,true,0x0B,true
"I2C","data",416.659082875,0.0000865,,0xB6,true,,
"I2C","data",416.659226375,0.0000865,,0x0B,true,,
"I2C","data",416.659368438,0.000086437,,0x7D,false,,
"I2C","stop",416.659519,0.000000063,,,,,
"I2C","start",416.660851438,0.000000062,,,,,
"I2C","address",416.660861688,0.000086437,,,true,0x0B,false
"I2C","data",416.660953375,0.000166812,,0x0D,true,,
"I2C","start",416.661130375,0.000000063,,,,,
"I2C","address",416.661140625,0.0000865,,,true,0x0B,true
"I2C","data",416.661284,0.000086437,,0x5F,true,,
"I2C","data",416.661427375,0.0000865,,0x00,true,,
"I2C","data",416.661569375,0.0000865,,0xFC,false,,
"I2C","stop",416.661719937,0.000000063,,,,,
"I2C","start",416.661735313,0.000000062,,,,,
"I2C","address",416.6617455,0.0000865,,,true,0x0B,false
"I2C","data",416.66183725,0.000285187,,0x51,true,,
"I2C","start",416.662132625,0.000000062,,,,,
"I2C","address",416.662142813,0.0000865,,,true,0x0B,true
"I2C","data",416.662287687,0.0000865,,0x04,true,,
"I2C","data",416.662432062,0.0000865,,0x00,true,,
"I2C","data",416.662577375,0.0000865,,0x00,true,,
"I2C","data",416.662722625,0.0000865,,0x00,true,,
"I2C","data",416.662867937,0.0000865,,0x00,true,,
"I2C","data",416.663009375,0.0000865,,0xDA,false,,
"I2C","stop",416.66316,0.000000063,,,,,
"I2C","start",416.663177062,0.000000063,,,,,
"I2C","address",416.663187312,0.0000865,,,true,0x0B,false
"I2C","data",416.663279,0.000238,,0xD2,true,,
"I2C","start",416.663527187,0.000000063,,,,,
"I2C","address",416.663537437,0.000086437,,,true,0x0B,true
"I2C","data",416.663680375,0.0000865,,0x00,true,,
"I2C","data",416.663823875,0.000086437,,0x00,true,,
"I2C","data",416.663965875,0.0000865,,0x2C,false,,
"I2C","stop",416.6641165,0.000000063,,,,,
"I2C","start",416.664129625,0.000000063,,,,,
"I2C","address",416.664139813,0.0000865,,,true,0x0B,false
"I2C","data",416.6642315,0.000219125,,0x3F,true,,
"I2C","start",416.664460813,0.000000062,,,,,
"I2C","address",416.664471,0.0000865,,,true,0x0B,true
"I2C","data",416.664614,0.0000865,,0x5C,true,,
"I2C","data",416.6647575,0.000086437,,0x10,true,,
"I2C","data",416.664899563,0.000086437,,0x36,false,,
"I2C","stop",416.665050125,0.000000063,,,,,
"I2C","start",416.665768938,0.000000063,,,,,
"I2C","address",416.665779125,0.0000865,,,true,0x0B,false
"I2C","data",416.665870875,0.00015925,,0x3E,true,,
"I2C","start",416.666040313,0.000000063,,,,,
"I2C","address",416.666050563,0.0000865,,,true,0x0B,true
"I2C","data",416.666194,0.0000865,,0x5E,true,,
"I2C","data",416.6663375,0.000086437,,0x10,true,,
"I2C","data",416.666479563,0.0000865,,0x0A,false,,
"I2C","stop",416.666630063,0.000000062,,,,,
"I2C","start",416.666640187,0.000000063,,,,,
"I2C","address",416.666650437,0.0000865,,,true,0x0B,false
"I2C","data",416.666742125,0.000218,,0x3D,true,,
"I2C","start",416.666970312,0.000000063,,,,,
"I2C","address",416.666980563,0.0000865,,,true,0x0B,true
"I2C","data",416.667155,0.000086438,,0x5E,true,,
"I2C","data",416.667300875,0.0000865,,0x10,true,,
"I2C","data",416.66745825,0.000086438,,0x30,false,,
"I2C","stop",416.6676265,0.000000063,,,,,
"I2C","start",416.66770175,0.000000063,,,,,
"I2C","address",416.667711937,0.0000865,,,true,0x0B,false
"I2C","data",416.667803687,0.000243313,,0x3F,true,,
"I2C","start",416.668057187,0.000000063,,,,,
"I2C","address",416.668067437,0.000086437,,,true,0x0B,true
"I2C","data",416.668270437,0.0000865,,0x5C,true,,
"I2C","data",416.668453,0.0000865,,0x10,true,,
"I2C","data",416.668652375,0.0000865,,0x36,false,,
"I2C","stop",416.668803438,0.000000063,,,,,
"I2C","start",416.668813375,0.000000062,,,,,
"I2C","address",416.668823625,0.000086437,,,true,0x0B,false
"I2C","data",416.668915313,0.000218438,,0x3E,true,,
"I2C","start",416.669143937,0.000000063,,,,,
"I2C","address",416.669154125,0.0000865,,,true,0x0B,true
"I2C","data",416.669297062,0.000086438,,0x5E,true,,
"I2C","data",416.669440375,0.0000865,,0x10,true,,
"I2C","data",416.669582312,0.0000865,,0x0A,false,,
"I2C","stop",416.669732813,0.000000063,,,,,
"I2C","start",416.675919625,0.000000063,,,,,
"I2C","address",416.675929812,0.0000865,,,true,0x0B,false
"I2C","data",416.676021563,0.000159188,,0x3D,true,,
"I2C","start",416.676190937,0.000000063,,,,,
"I2C","address",416.676201125,0.0000865,,,true,0x0B,true
"I2C","data",416.6763445,0.0000865,,0x5E,true,,
"I2C","data",416.676487875,0.0000865,,0x10,true,,
"I2C","data",416.676629812,0.0000865,,0x30,false,,
"I2C","stop",416.676780313,0.000000063,,,,,
"I2C","start",417.6542955,0.000000063,,,,,
"I2C","address",417.65430575,0.000086437,,,true,0x0B,false
"I2C","data",417.654397437,0.000179625,,0xD5,true,,
"I2C","start",417.65458725,0.000000062,,,,,
"I2C","address",417.654597438,0.0000865,,,true,0x0B,true
"I2C","data",417.654782688,0.0000865,,0x00,true,,
"I2C","data",417.654925563,0.0000865,,0x00,true,,
"I2C","data",417.655067438,0.0000865,,0x4E,false,,
"I2C","stop",417.655218,0.000000063,,,,,
"I2C","start",417.656000437,0.000000063,,,,,
"I2C","address",417.656010687,0.000086437,,,true,0x0B,false
"I2C","data",417.656102375,0.000177,,0xD3,true,,
"I2C","data",417.656284625,0.000131437,,0x00,true,,
"I2C","data",417.65642125,0.000133875,,0x00,true,,
"I2C","data",417.656560375,0.000132938,,0x81,true,,
"I2C","stop",417.65670375,0.000000062,,,,,
"I2C","start",417.656716375,0.000000063,,,,,
"I2C","address",417.656726625,0.000086438,,,true,0x0B,false
"I2C","data",417.656818312,0.000208813,,0x00,true,,
"I2C","data",417.657032313,0.000131562,,0x51,true,,
"I2C","data",417.657169062,0.000133813,,0x00,true,,
"I2C","data",417.657308125,0.000132875,,0x0A,true,,
"I2C","stop",417.657451438,0.000000062,,,,,
"I2C","start",417.657828312,0.000000063,,,,,
"I2C","address",417.6578385,0.0000865,,,true,0x0B,false
"I2C","data",417.65793025,0.000824063,,0x23,true,,
"I2C","start",417.6587645,0.000000063,,,,,
"I2C","address",417.65877475,0.000086437,,,true,0x0B,true
"I2C","data",417.658981125,0.0000865,,0x04,true,,
"I2C","data",417.659183312,0.0000865,,0x00,true,,
"I2C","data",417.659328688,0.0000865,,0x00,true,,
"I2C","data",417.659474063,0.0000865,,0x00,true,,
"I2C","data",417.659619437,0.000086437,,0x00,true,,
"I2C","data",417.659761,0.000086437,,0x54,false,,
"I2C","stop",417.659911562,0.000000063,,,,,
"I2C","start",417.661082375,0.000000063,,,,,
"I2C","address",417.661092563,0.0000865,,,true,0x0B,false
"I2C","data",417.66118425,0.000157063,,0x00,true,,
"I2C","data",417.6613465,0.000131563,,0x53,true,,
"I2C","data",417.66148325,0.000133938,,0x00,true,,
"I2C","data",417.661622375,0.000133,,0x20,true,,
"I2C","stop",417.661765812,0.000000063,,,,,
"I2C","start",417.66177475,0.000000063,,,,,
"I2C","address",417.661784937,0.0000865,,,true,0x0B,false
"I2C","data",417.661876688,0.001194062,,0x23,true,,
"I2C","start",417.663080938,0.000000063,,,,,
"I2C","address",417.663091188,0.000086438,,,true,0x0B,true
"I2C","data",417.663235375,0.0000865,,0x04,true,,
"I2C","data",417.663379688,0.0000865,,0x00,true,,
"I2C","data",417.663525,0.0000865,,0x00,true,,
"I2C","data",417.663670375,0.0000865,,0x00,true,,
"I2C","data",417.663815688,0.0000865,,0x00,true,,
"I2C","data",417.66395725,0.0000865,,0x54,false,,
"I2C","stop",417.66410775,0.000000062,,,,,
"I2C","start",417.6641255,0.000000062,,,,,
"I2C","address",417.66413575,0.0000865,,,true,0x0B,false
"I2C","data",417.664227438,0.000215563,,0x00,true,,
"I2C","data",417.66444825,0.000130937,,0x54,true,,
"I2C","data",417.664584438,0.000133812,,0x00,true,,
"I2C","data",417.6647235,0.000132938,,0x4B,true,,
"I2C","stop",417.664866875,0.000000063,,,,,
"I2C","start",417.665979125,0.000000063,,,,,
"I2C","address",417.665989375,0.000086438,,,true,0x0B,false
"I2C","data",417.666081062,0.000695188,,0x23,true,,
"I2C","start",417.666786437,0.000000063,,,,,
"I2C","address",417.666796687,0.0000865,,,true,0x0B,true
"I2C","data",417.666943375,0.0000865,,0x04,true,,
"I2C","data",417.667305625,0.0000865,,0x86,true,,
"I2C","data",417.66745425,0.0000865,,0x03,true,,
"I2C","data",417.667602937,0.0000865,,0x06,true,,
"I2C","data",417.667751625,0.0000865,,0x00,true,,
"I2C","data",417.6678965,0.0000865,,0xD2,false,,
"I2C","stop",417.668050875,0.000000063,,,,,
"I2C","start",417.66806975,0.000000063,,,,,
"I2C","address",417.66808,0.000086438,,,true,0x0B,false
"I2C","data",417.668171687,0.000171563,,0x00,true,,
"I2C","data",417.6683485,0.000134375,,0x55,true,,
"I2C","data",417.668488062,0.00013725,,0x00,true,,
"I2C","data",417.668630563,0.000136312,,0x5E,true,,
"I2C","stop",417.66877725,0.000000063,,,,,
"I2C","start",417.66878425,0.000000063,,,,,
"I2C","address",417.6687945,0.0000865,,,true,0x0B,false
"I2C","data",417.668886187,0.001162125,,0x23,true,,
"I2C","start",417.6700585,0.000000063,,,,,
"I2C","address",417.670068688,0.0000865,,,true,0x0B,true
"I2C","data",417.670216,0.000086438,,0x02,true,,
"I2C","data",417.67036325,0.0000865,,0x10,true,,
"I2C","data",417.6705115,0.0000865,,0x08,true,,
"I2C","data",417.670655937,0.0000865,,0x16,true,,
"I2C","data",417.670804687,0.000086438,,0x16,true,,
"I2C","data",417.670949062,0.0000865,,0x16,false,,
"I2C","stop",417.671094312,0.000000063,,,,,
"I2C","start",417.676137375,0.000000063,,,,,
"I2C","address",417.676147625,0.000086438,,,true,0x0B,false
"I2C","data",417.676239313,0.00017025,,0x09,true,,
"I2C","start",417.676419813,0.000000063,,,,,
"I2C","address",417.67643,0.0000865,,,true,0x0B,true
"I2C","data",417.676572937,0.0000865,,0x19,true,,
"I2C","data",417.676716437,0.000086438,,0x31,true,,
"I2C","data",417.676858438,0.0000865,,0x16,false,,
"I2C","stop",417.677009,0.000000063,,,,,
"I2C","start",417.67701975,0.000000063,,,,,
"I2C","address",417.67703,0.0000865,,,true,0x0B,false
"I2C","data",417.677121688,0.000228563,,0x0A,true,,
"I2C","start",417.677360437,0.000000063,,,,,
"I2C","address",417.677370625,0.0000865,,,true,0x0B,true
"I2C","data",417.677514062,0.0000865,,0xA7,true,,
"I2C","data",417.6776575,0.0000865,,0xFC,true,,
"I2C","data",417.6777995,0.0000865,,0xD8,false,,
"I2C","stop",417.677950125,0.000000063,,,,,
"I2C","start",417.677968,0.000000063,,,,,
"I2C","address",417.677978188,0.0000865,,,true,0x0B,false
"I2C","data",417.678069938,0.000222812,,0x10,true,,
"I2C","start",417.678302938,0.000000063,,,,,
"I2C","address",417.678313125,0.0000865,,,true,0x0B,true
"I2C","data",417.678456063,0.0000865,,0xE4,true,,
"I2C","data",417.6785995,0.000086438,,0x04,true,,
"I2C","data",417.6787415,0.0000865,,0xA1,false,,
"I2C","stop",417.678892125,0.000000063,,,,,
"I2C","start",417.678910438,0.000000063,,,,,
"I2C","address",417.678920625,0.0000865,,,true,0x0B,false
"I2C","data",417.679012375,0.000222313,,0x0F,true,,
"I2C","start",417.679244875,0.000000063,,,,,
"I2C","address",417.679255125,0.0000865,,,true,0x0B,true
"I2C","data",417.679397938,0.0000865,,0xA4,true,,
"I2C","data",417.679541313,0.0000865,,0x04,true,,
"I2C","data",417.67968325,0.0000865,,0x4F,false,,
"I2C","stop",417.67983375,0.000000063,,,,,
"I2C","start",417.681077125,0.000000063,,,,,
"I2C","address",417.681087312,0.0000865,,,true,0x0B,false
"I2C","data",417.681179063,0.00017025,,0x08,true,,
"I2C","start",417.6813595,0.000000063,,,,,
"I2C","address",417.68136975,0.000086437,,,true,0x0B,true
"I2C","data",417.681512688,0.000086438,,0xB6,true,,
"I2C","data",417.681656125,0.0000865,,0x0B,true,,
"I2C","data",417.681798188,0.000086437,,0x7D,false,,
"I2C","stop",417.681948687,0.000000063,,,,,
"I2C","start",417.681960188,0.000000063,,,,,
"I2C","address",417.681970375,0.0000865,,,true,0x0B,false
"I2C","data",417.682062062,0.000224375,,0x0D,true,,
"I2C","start",417.682296625,0.000000063,,,,,
"I2C","address",417.682306812,0.0000865,,,true,0x0B,true
"I2C","data",417.682504625,0.0000865,,0x5F,true,,
"I2C","data",417.682705,0.000086437,,0x00,true,,
"I2C","data",417.682847,0.0000865,,0xFC,false,,
"I2C","stop",417.682997563,0.000000062,,,,,
"I2C","start",417.683012,0.000000062,,,,,
"I2C","address",417.683022188,0.0000865,,,true,0x0B,false
"I2C","data",417.683113875,0.000286063,,0x51,true,,
"I2C","start",417.683410125,0.000000063,,,,,
"I2C","address",417.683420375,0.000086437,,,true,0x0B,true
"I2C","data",417.683565125,0.000086438,,0x04,true,,
"I2C","data",417.683709437,0.0000865,,0x00,true,,
"I2C","data",417.68385475,0.0000865,,0x00,true,,
"I2C","data",417.684000062,0.000086437,,0x00,true,,
"I2C","data",417.684145375,0.0000865,,0x00,true,,
"I2C","data",417.684286938,0.0000865,,0xDA,false,,
"I2C","stop",417.6844375,0.000000063,,,,,
"I2C","start",417.68445675,0.000000063,,,,,
"I2C","address",417.684467,0.000086438,,,true,0x0B,false
"I2C","data",417.684558688,0.000235875,,0xD2,true,,
"I2C","start",417.68480475,0.000000062,,,,,
"I2C","address",417.684814937,0.0000865,,,true,0x0B,true
"I2C","data",417.684957937,0.000086438,,0x00,true,,
"I2C","data",417.685101375,0.0000865,,0x00,true,,
"I2C","data",417.685243375,0.0000865,,0x2C,false,,
"I2C","stop",417.685394,0.000000063,,,,,
"I2C","start",417.685996187,0.000000063,,,,,
"I2C","address",417.686006375,0.0000865,,,true,0x0B,false
"I2C","data",417.686098063,0.000159313,,0x3F,true,,
"I2C","start",417.686267563,0.000000063,,,,,
"I2C","address",417.686277813,0.0000865,,,true,0x0B,true
"I2C","data",417.68642125,0.0000865,,0x5D,true,,
"I2C","data",417.686564687,0.0000865,,0x10,true,,
"I2C","data",417.686706688,0.0000865,,0x23,false,,
"I2C","stop",417.686857313,0.000000062,,,,,
"I2C","start",417.686878438,0.000000062,,,,,
"I2C","address",417.686888625,0.0000865,,,true,0x0B,false
"I2C","data",417.686980312,0.00020725,,0x3E,true,,
"I2C","start",417.68719775,0.000000063,,,,,
"I2C","address",417.687207937,0.0000865,,,true,0x0B,true
"I2C","data",417.687350875,0.0000865,,0x5E,true,,
"I2C","data",417.687494313,0.000086438,,0x10,true,,
"I2C","data",417.68763625,0.0000865,,0x0A,false,,
"I2C","stop",417.687786688,0.000000062,,,,,
"I2C","start",417.687982625,0.000000062,,,,,
"I2C","address",417.687992875,0.0000865,,,true,0x0B,false
"I2C","data",417.688084563,0.000190937,,0x3D,true,,
"I2C","start",417.688285688,0.000000062,,,,,
"I2C","address",417.688295938,0.0000865,,,true,0x0B,true
"I2C","data",417.68844175,0.0000865,,0x5E,true,,
"I2C","data",417.688590438,0.0000865,,0x10,true,,
"I2C","data",417.68881375,0.0000865,,0x30,false,,
"I2C","stop",417.6890345,0.000000063,,,,,
"I2C","start",417.689045625,0.000000063,,,,,
"I2C","address",417.689055875,0.0000865,,,true,0x0B,false
"I2C","data",417.689147563,0.000174437,,0x3F,true,,
"I2C","start",417.689332187,0.000000063,,,,,
"I2C","address",417.689342375,0.0000865,,,true,0x0B,true
"I2C","data",417.689511625,0.000086437,,0x5D,true,,
"I2C","data",417.689655062,0.000086438,,0x10,true,,
"I2C","data",417.689797063,0.0000865,,0x23,false,,
"I2C","stop",417.689947625,0.000000063,,,,,
"I2C","start",417.694475375,0.000000062,,,,,
"I2C","address",417.694485625,0.000086437,,,true,0x0B,false
"I2C","data",417.694577312,0.000159437,,0x3E,true,,
"I2C","start",417.694746937,0.000000063,,,,,
"I2C","address",417.694757125,0.0000865,,,true,0x0B,true
"I2C","data",417.6949005,0.0000865,,0x5E,true,,
"I2C","data",417.695043937,0.0000865,,0x10,true,,
"I2C","data",417.695185938,0.0000865,,0x0A,false,,
"I2C","stop",417.6953365,0.000000063,,,,,
"I2C","start",417.696062312,0.000000063,,,,,
"I2C","address",417.6960725,0.0000865,,,true,0x0B,false
"I2C","data",417.696164188,0.000159562,,0x3D,true,,
"I2C","start",417.696333938,0.000000062,,,,,
"I2C","address",417.696344125,0.0000865,,,true,0x0B,true
"I2C","data",417.696487563,0.0000865,,0x5E,true,,
"I2C","data",417.696631,0.0000865,,0x10,true,,
"I2C","data",417.696773,0.0000865,,0x30,false,,
"I2C","stop",417.696923562,0.000000063,,,,,
"I2C","start",418.676403,0.000000063,,,,,
"I2C","address",418.676413187,0.0000865,,,true,0x0B,false
"I2C","data",418.676504875,0.00017975,,0xD5,true,,
"I2C","start",418.676694812,0.000000063,,,,,
"I2C","address",418.676705,0.0000865,,,true,0x0B,true
"I2C","data",418.676890375,0.0000865,,0x00,true,,
"I2C","data",418.67703325,0.0000865,,0x00,true,,
"I2C","data",418.677175187,0.0000865,,0x4E,false,,
"I2C","stop",418.677325688,0.000000063,,,,,
"I2C","start",418.6780205,0.000000063,,,,,
"I2C","address",418.678030687,0.0000865,,,true,0x0B,false
"I2C","data",418.678122438,0.000176938,,0xD3,true,,
"I2C","data",418.678304562,0.000131438,,0x00,true,,
"I2C","data",418.67844125,0.000133812,,0x00,true,,
"I2C","data",418.678580313,0.000132875,,0x81,true,,
"I2C","stop",418.678723625,0.000000063,,,,,
"I2C","start",418.678737625,0.000000063,,,,,
"I2C","address",418.678747812,0.0000865,,,true,0x0B,false
"I2C","data",418.6788395,0.000207438,,0x00,true,,
"I2C","data",418.679052188,0.0001315,,0x51,true,,
"I2C","data",418.679188875,0.000133937,,0x00,true,,
"I2C","data",418.679328,0.000132938,,0x0A,true,,
"I2C","stop",418.679471375,0.000000063,,,,,
"I2C","start",418.67948975,0.000000062,,,,,
"I2C","address",418.679499937,0.0000865,,,true,0x0B,false
"I2C","data",418.679591688,0.0011825,,0x23,true,,
"I2C","start",418.680784437,0.000000063,,,,,
"I2C","address",418.680794625,0.0000865,,,true,0x0B,true
"I2C","data",418.680939438,0.0000865,,0x04,true,,
"I2C","data",418.681083875,0.0000865,,0x00,true,,
"I2C","data",418.68122925,0.0000865,,0x00,true,,
"I2C","data",418.681374625,0.0000865,,0x00,true,,
"I2C","data",418.681584625,0.0000865,,0x00,true,,
"I2C","data",418.681784125,0.000086438,,0x54,false,,
"I2C","stop",418.681934688,0.000000062,,,,,
"I2C","start",418.681953188,0.000000063,,,,,
"I2C","address",418.681963438,0.0000865,,,true,0x0B,false
"I2C","data",418.682055125,0.000215188,,0x00,true,,
"I2C","data",418.6822755,0.000131125,,0x53,true,,
"I2C","data",418.682411812,0.000133938,,0x00,true,,
"I2C","data",418.682551,0.000132938,,0x20,true,,
"I2C","stop",418.682694375,0.000000063,,,,,
"I2C","start",418.68304025,0.000000063,,,,,
"I2C","address",418.683050438,0.0000865,,,true,0x0B,false
"I2C","data",418.683142125,0.000857688,,0x23,true,,
"I2C","start",418.68401,0.000000063,,,,,
"I2C","address",418.684020187,0.0000865,,,true,0x0B,true
"I2C","data",418.684189375,0.0000865,,0x04,true,,
"I2C","data",418.68457775,0.0000865,,0x00,true,,
"I2C","data",418.684943062,0.0000865,,0x00,true,,
"I2C","data",418.685091188,0.0000865,,0x00,true,,
"I2C","data",418.685239313,0.0000865,,0x00,true,,
"I2C","data",418.685384125,0.0000865,,0x54,false,,
"I2C","stop",418.685538437,0.000000063,,,,,
"I2C","start",418.686223625,0.000000062,,,,,
"I2C","address",418.686233813,0.0000865,,,true,0x0B,false
"I2C","data",418.686325562,0.000160813,,0x00,true,,
"I2C","data",418.686491563,0.000133375,,0x54,true,,
"I2C","data",418.686630187,0.00013625,,0x00,true,,
"I2C","data",418.686771625,0.00013575,,0x4B,true,,
"I2C","stop",418.686917812,0.000000063,,,,,
"I2C","start",418.686925687,0.000000063,,,,,
"I2C","address",418.686935875,0.0000865,,,true,0x0B,false
"I2C","data",418.687027563,0.001413125,,0x23,true,,
"I2C","start",418.688450875,0.000000063,,,,,
"I2C","address",418.688461125,0.000086437,,,true,0x0B,true
"I2C","data",418.688608438,0.0000865,,0x04,true,,
"I2C","data",418.68875625,0.000086438,,0x86,true,,
"I2C","data",418.6889045,0.0000865,,0x03,true,,
"I2C","data",418.689052812,0.000086438,,0x06,true,,
"I2C","data",418.689200562,0.0000865,,0x00,true,,
"I2C","data",418.689359875,0.0000865,,0xD2,false,,
"I2C","stop",418.689513313,0.000000062,,,,,
"I2C","start",418.689528688,0.000000063,,,,,
"I2C","address",418.689538938,0.0000865,,,true,0x0B,false
"I2C","data",418.689630625,0.000175625,,0x00,true,,
"I2C","data",418.6898115,0.000134437,,0x55,true,,
"I2C","data",418.689951188,0.000137312,,0x00,true,,
"I2C","data",418.690093687,0.000136875,,0x5E,true,,
"I2C","stop",418.690241,0.000000062,,,,,
"I2C","start",418.694643438,0.000000063,,,,,
"I2C","address",418.694653625,0.0000865,,,true,0x0B,false
"I2C","data",418.694745313,0.000217438,,0x23,true,,
"I2C","start",418.694972937,0.000000063,,,,,
"I2C","address",418.694983125,0.0000865,,,true,0x0B,true
"I2C","data",418.695127875,0.0000865,,0x02,true,,
"I2C","data",418.69527225,0.0000865,,0x10,true,,
"I2C","data",418.695417688,0.000086438,,0x08,true,,
"I2C","data",418.69555925,0.0000865,,0x16,true,,
"I2C","data",418.695705125,0.0000865,,0x16,true,,
"I2C","data",418.69584675,0.000086438,,0x16,false,,
"I2C","stop",418.695989125,0.000000063,,,,,
"I2C","start",418.69637225,0.000000062,,,,,
"I2C","address",418.696382438,0.0000865,,,true,0x0B,false
"I2C","data",418.696474187,0.000170875,,0x09,true,,
"I2C","start",418.69665525,0.000000063,,,,,
"I2C","address",418.696665437,0.0000865,,,true,0x0B,true
"I2C","data",418.696808375,0.0000865,,0x16,true,,
"I2C","data",418.696951813,0.0000865,,0x31,true,,
"I2C","data",418.697093812,0.0000865,,0xD5,false,,
"I2C","stop",418.6973095,0.000000062,,,,,
"I2C","start",418.698062438,0.000000062,,,,,
"I2C","address",418.698072625,0.0000865,,,true,0x0B,false
"I2C","data",418.698164313,0.000170687,,0x0A,true,,
"I2C","start",418.698345188,0.000000063,,,,,
"I2C","address",418.698355375,0.0000865,,,true,0x0B,true
"I2C","data",418.698498375,0.000086438,,0xA6,true,,
"I2C","data",418.698641813,0.0000865,,0xFC,true,,
"I2C","data",418.698783875,0.0000865,,0xCD,false,,
"I2C","stop",418.698934437,0.000000063,,,,,
"I2C","start",418.698944,0.000000063,,,,,
"I2C","address",418.698954188,0.0000865,,,true,0x0B,false
"I2C","data",418.699045937,0.000231188,,0x10,true,,
"I2C","start",418.699287313,0.000000062,,,,,
"I2C","address",418.6992975,0.0000865,,,true,0x0B,true
"I2C","data",418.6994405,0.0000865,,0xE4,true,,
"I2C","data",418.699583937,0.0000865,,0x04,true,,
"I2C","data",418.699726,0.0000865,,0xA1,false,,
"I2C","stop",418.699876625,0.000000063,,,,,
"I2C","start",418.701284563,0.000000063,,,,,
"I2C","address",418.701294813,0.000086437,,,true,0x0B,false
"I2C","data",418.7013865,0.000171625,,0x0F,true,,
"I2C","start",418.701568313,0.000000063,,,,,
"I2C","address",418.7015785,0.0000865,,,true,0x0B,true
"I2C","data",418.701721437,0.0000865,,0xA4,true,,
"I2C","data",418.701864875,0.0000865,,0x04,true,,
"I2C","data",418.702006875,0.0000865,,0x4F,false,,
"I2C","stop",418.702157437,0.000000063,,,,,
"I2C","start",418.70217125,0.000000063,,,,,
"I2C","address",418.702181437,0.0000865,,,true,0x0B,false
"I2C","data",418.702273187,0.000225563,,0x08,true,,
"I2C","start",418.702508937,0.000000063,,,,,
"I2C","address",418.702519188,0.0000865,,,true,0x0B,true
"I2C","data",418.702662625,0.0000865,,0xB7,true,,
"I2C","data",418.702806125,0.0000865,,0x0B,true,,
"I2C","data",418.702948063,0.0000865,,0x68,false,,
"I2C","stop",418.703098562,0.000000063,,,,,
"I2C","start",418.703120813,0.000000063,,,,,
"I2C","address",418.703131,0.0000865,,,true,0x0B,false
"I2C","data",418.70322275,0.000213562,,0x0D,true,,
"I2C","start",418.7034465,0.000000063,,,,,
"I2C","address",418.703456688,0.0000865,,,true,0x0B,true
"I2C","data",418.703599688,0.0000865,,0x5F,true,,
"I2C","data",418.703743187,0.0000865,,0x00,true,,
"I2C","data",418.70388525,0.0000865,,0xFC,false,,
"I2C","stop",418.704035875,0.000000063,,,,,
"I2C","start",418.704045875,0.000000062,,,,,
"I2C","address",418.704056125,0.0000865,,,true,0x0B,false
"I2C","data",418.704147813,0.000290375,,0x51,true,,
"I2C","start",418.704448375,0.000000062,,,,,
"I2C","address",418.704458563,0.0000865,,,true,0x0B,true
"I2C","data",418.704603375,0.0000865,,0x04,true,,
"I2C","data",418.704747688,0.0000865,,0x00,true,,
"I2C","data",418.704893062,0.0000865,,0x00,true,,
"I2C","data",418.705103062,0.0000865,,0x00,true,,
"I2C","data",418.705306312,0.0000865,,0x00,true,,
"I2C","data",418.705447875,0.0000865,,0xDA,false,,
"I2C","stop",418.705598437,0.000000063,,,,,
"I2C","start",418.70625,0.000000062,,,,,
"I2C","address",418.706260187,0.0000865,,,true,0x0B,false
"I2C","data",418.706351875,0.0001765,,0xD2,true,,
"I2C","start",418.706538562,0.000000063,,,,,
"I2C","address",418.70654875,0.0000865,,,true,0x0B,true
"I2C","data",418.70669175,0.000086437,,0x00,true,,
"I2C","data",418.706835188,0.0000865,,0x00,true,,
"I2C","data",418.70697725,0.000086438,,0x2C,false,,
"I2C","stop",418.707127813,0.000000063,,,,,
"I2C","start",418.707139875,0.000000063,,,,,
"I2C","address",418.707150125,0.0000865,,,true,0x0B,false
"I2C","data",418.707241813,0.000220062,,0x3F,true,,
"I2C","start",418.707472063,0.000000062,,,,,
"I2C","address",418.70748225,0.0000865,,,true,0x0B,true
"I2C","data",418.707625188,0.000086437,,0x5C,true,,
"I2C","data",418.707768625,0.0000865,,0x10,true,,
"I2C","data",418.707910625,0.0000865,,0x36,false,,
"I2C","stop",418.708061187,0.000000063,,,,,
"I2C","start",418.708172875,0.000000063,,,,,
"I2C","address",418.708183062,0.0000865,,,true,0x0B,false
"I2C","data",418.70827475,0.000160063,,0x3E,true,,
"I2C","start",418.708445,0.000000063,,,,,
"I2C","address",418.70845525,0.000086437,,,true,0x0B,true
"I2C","data",418.7085985,0.0000865,,0x5D,true,,
"I2C","data",418.708741875,0.0000865,,0x10,true,,
"I2C","data",418.708883813,0.000086438,,0x35,false,,
"I2C","stop",418.709034375,0.000000063,,,,,
"I2C","start",418.709047,0.000000063,,,,,
"I2C","address",418.709057187,0.0000865,,,true,0x0B,false
"I2C","data",418.709148938,0.000215625,,0x3D,true,,
"I2C","start",418.70937475,0.000000063,,,,,
"I2C","address",418.709385,0.000086437,,,true,0x0B,true
"I2C","data",418.709527875,0.0000865,,0x5D,true,,
"I2C","data",418.709671313,0.0000865,,0x10,true,,
"I2C","data",418.709813312,0.000086437,,0x0F,false,,
"I2C","stop",418.709963813,0.000000063,,,,,
"I2C","start",418.714561125,0.000000063,,,,,
"I2C","address",418.714571375,0.0000865,,,true,0x0B,false
"I2C","data",418.714663062,0.000159187,,0x3F,true,,
"I2C","start",418.714832437,0.000000063,,,,,
"I2C","address",418.714842687,0.000086438,,,true,0x0B,true
"I2C","data",418.714986062,0.000086438,,0x5C,true,,
"I2C","data",418.7151295,0.000086438,,0x10,true,,
"I2C","data",418.7152715,0.0000865,,0x36,false,,
"I2C","stop",418.715422063,0.000000062,,,,,
"I2C","start",418.716220937,0.000000063,,,,,
"I2C","address",418.716231188,0.000086437,,,true,0x0B,false
"I2C","data",418.716322875,0.000159312,,0x3E,true,,
"I2C","start",418.716492375,0.000000063,,,,,
"I2C","address",418.716502625,0.000086438,,,true,0x0B,true
"I2C","data",418.716645875,0.0000865,,0x5D,true,,
"I2C","data",418.71678925,0.0000865,,0x10,true,,
"I2C","data",418.716931187,0.0000865,,0x35,false,,
"I2C","stop",418.717081688,0.000000062,,,,,
"I2C","start",418.717101688,0.000000062,,,,,
"I2C","address",418.717111938,0.0000865,,,true,0x0B,false
"I2C","data",418.717203625,0.000208188,,0x3D,true,,
"I2C","start",418.717422,0.000000063,,,,,
"I2C","address",418.717432187,0.0000865,,,true,0x0B,true
"I2C","data",418.717575188,0.000086437,,0x5D,true,,
"I2C","data",418.717718625,0.0000865,,0x10,true,,
"I2C","data",418.717860625,0.0000865,,0x0F,false,,
"I2C","stop",418.718011125,0.000000063,,,,,
"I2C","start",419.694918187,0.000000063,,,,,
"I2C","address",419.694928375,0.0000865,,,true,0x0B,false
"I2C","data",419.695020125,0.000179563,,0xD5,true,,
"I2C","start",419.695209875,0.000000063,,,,,
"I2C","address",419.695220063,0.0000865,,,true,0x0B,true
"I2C","data",419.695405625,0.0000865,,0x00,true,,
"I2C","data",419.695548625,0.000086438,,0x00,true,,
"I2C","data",419.695690688,0.0000865,,0x4E,false,,
"I2C","stop",419.695841313,0.000000062,,,,,
"I2C","start",419.696445063,0.000000063,,,,,
"I2C","address",419.696455313,0.000086437,,,true,0x0B,false
"I2C","data",419.696547,0.000177125,,0xD3,true,,
"I2C","data",419.696729312,0.000131563,,0x00,true,,
"I2C","data",419.696866125,0.000133938,,0x00,true,,
"I2C","data",419.697005312,0.000133,,0x81,true,,
"I2C","stop",419.69714875,0.000000063,,,,,
"I2C","start",419.697161188,0.000000063,,,,,
"I2C","address",419.697171438,0.000086438,,,true,0x0B,false
"I2C","data",419.697263125,0.000209063,,0x00,true,,
"I2C","data",419.697477438,0.000131438,,0x51,true,,
"I2C","data",419.697614125,0.000133875,,0x00,true,,
"I2C","data",419.69775325,0.000132875,,0x0A,true,,
"I2C","stop",419.697896562,0.000000063,,,,,
"I2C","start",419.698374188,0.000000063,,,,,
"I2C","address",419.698384438,0.000086437,,,true,0x0B,false
"I2C","data",419.698476125,0.000723563,,0x23,true,,
"I2C","start",419.699209875,0.000000062,,,,,
"I2C","address",419.699220125,0.0000865,,,true,0x0B,true
"I2C","data",419.699364875,0.0000865,,0x04,true,,
"I2C","data",419.69950925,0.0000865,,0x00,true,,
"I2C","data",419.699654625,0.0000865,,0x00,true,,
"I2C","data",419.699800063,0.0000865,,0x00,true,,
"I2C","data",419.6999455,0.0000865,,0x00,true,,
"I2C","data",419.700087063,0.0000865,,0x54,false,,
"I2C","stop",419.70023775,0.000000063,,,,,
"I2C","start",419.701577375,0.000000063,,,,,
"I2C","address",419.701587562,0.0000865,,,true,0x0B,false
"I2C","data",419.701679313,0.00015775,,0x00,true,,
"I2C","data",419.70184225,0.000131562,,0x53,true,,
"I2C","data",419.701979063,0.000133938,,0x00,true,,
"I2C","data",419.702118187,0.000133,,0x20,true,,
"I2C","stop",419.702261625,0.000000063,,,,,
"I2C","start",419.702269812,0.000000063,,,,,
"I2C","address",419.70228,0.0000865,,,true,0x0B,false
"I2C","data",419.70237175,0.001195625,,0x23,true,,
"I2C","start",419.703577563,0.000000062,,,,,
"I2C","address",419.70358775,0.0000865,,,true,0x0B,true
"I2C","data",419.703732188,0.0000865,,0x04,true,,
"I2C","data",419.703876625,0.0000865,,0x00,true,,
"I2C","data",419.704092375,0.0000865,,0x00,true,,
"I2C","data",419.704295188,0.000086437,,0x00,true,,
"I2C","data",419.704441,0.0000865,,0x00,true,,
"I2C","data",419.7045825,0.000086437,,0x54,false,,
"I2C","stop",419.704733,0.000000063,,,,,
"I2C","start",419.704754625,0.000000063,,,,,
"I2C","address",419.704764875,0.000086437,,,true,0x0B,false
"I2C","data",419.704856563,0.000211812,,0x00,true,,
"I2C","data",419.705073625,0.000131062,,0x54,true,,
"I2C","data",419.705209938,0.000133937,,0x00,true,,
"I2C","data",419.705349125,0.000133,,0x4B,true,,
"I2C","stop",419.705492563,0.000000062,,,,,
"I2C","start",419.706461438,0.000000062,,,,,
"I2C","address",419.706471688,0.0000865,,,true,0x0B,false
"I2C","data",419.706563375,0.000495125,,0x23,true,,
"I2C","start",419.707068687,0.000000063,,,,,
"I2C","address",419.707078875,0.0000865,,,true,0x0B,true
"I2C","data",419.707223188,0.0000865,,0x04,true,,
"I2C","data",419.707367625,0.000086437,,0x86,true,,
"I2C","data",419.707512937,0.0000865,,0x03,true,,
"I2C","data",419.70765825,0.0000865,,0x06,true,,
"I2C","data",419.707803625,0.000086437,,0x00,true,,
"I2C","data",419.707945188,0.0000865,,0xD2,false,,
"I2C","stop",419.708095813,0.000000063,,,,,
"I2C","start",419.70839425,0.000000062,,,,,
"I2C","address",419.7084045,0.000086438,,,true,0x0B,false
"I2C","data",419.708496187,0.000157563,,0x00,true,,
"I2C","data",419.708659,0.0001315,,0x55,true,,
"I2C","data",419.708795688,0.000133937,,0x00,true,,
"I2C","data",419.708934875,0.000132937,,0x5E,true,,
"I2C","stop",419.70907825,0.000000063,,,,,
"I2C","start",419.70908575,0.000000063,,,,,
"I2C","address",419.709096,0.0000865,,,true,0x0B,false
"I2C","data",419.709187687,0.001205063,,0x23,true,,
"I2C","start",419.710402938,0.000000062,,,,,
"I2C","address",419.710413125,0.0000865,,,true,0x0B,true
"I2C","data",419.710558063,0.000086437,,0x02,true,,
"I2C","data",419.710702562,0.000086438,,0x10,true,,
"I2C","data",419.710847937,0.0000865,,0x08,true,,
"I2C","data",419.710989563,0.0000865,,0x16,true,,
"I2C","data",419.7111355,0.0000865,,0x16,true,,
"I2C","data",419.711277063,0.0000865,,0x16,false,,
"I2C","stop",419.711419625,0.000000062,,,,,
"I2C","start",419.71493875,0.000000063,,,,,
"I2C","address",419.714948938,0.0000865,,,true,0x0B,false
"I2C","data",419.715040687,0.000170813,,0x09,true,,
"I2C","start",419.715221687,0.000000063,,,,,
"I2C","address",419.715231937,0.000086437,,,true,0x0B,true
"I2C","data",419.715374937,0.0000865,,0x14,true,,
"I2C","data",419.715518375,0.000086437,,0x31,true,,
"I2C","data",419.715660375,0.000086437,,0xFF,false,,
"I2C","stop",419.715810938,0.000000062,,,,,
"I2C","start",419.716440875,0.000000063,,,,,
"I2C","address",419.716451063,0.0000865,,,true,0x0B,false
"I2C","data",419.71654275,0.000170375,,0x0A,true,,
"I2C","start",419.716723312,0.000000063,,,,,
"I2C","address",419.7167335,0.0000865,,,true,0x0B,true
"I2C","data",419.716876437,0.000086437,,0xA1,true,,
"I2C","data",419.717019812,0.0000865,,0xFC,true,,
"I2C","data",419.71716175,0.0000865,,0xA6,false,,
"I2C","stop",419.71731225,0.000000062,,,,,
"I2C","start",419.717322,0.000000062,,,,,
"I2C","address",419.717332188,0.0000865,,,true,0x0B,false
"I2C","data",419.717423937,0.000231,,0x10,true,,
"I2C","start",419.717665125,0.000000063,,,,,
"I2C","address",419.717675312,0.0000865,,,true,0x0B,true
"I2C","data",419.717818313,0.0000865,,0xE4,true,,
"I2C","data",419.717961812,0.0000865,,0x04,true,,
"I2C","data",419.718103875,0.0000865,,0xA1,false,,
"I2C","stop",419.7182545,0.000000063,,,,,
"I2C","start",419.718269562,0.000000063,,,,,
"I2C","address",419.71827975,0.0000865,,,true,0x0B,false
"I2C","data",419.718371438,0.00022575,,0x0F,true,,
"I2C","start",419.718607375,0.000000063,,,,,
"I2C","address",419.718617625,0.0000865,,,true,0x0B,true
"I2C","data",419.718760562,0.0000865,,0xA4,true,,
"I2C","data",419.718904062,0.0000865,,0x04,true,,
"I2C","data",419.719046187,0.000086437,,0x4F,false,,
"I2C","stop",419.719196813,0.000000063,,,,,
"I2C","start",419.719207312,0.000000063,,,,,
"I2C","address",419.719217562,0.000086438,,,true,0x0B,false
"I2C","data",419.71930925,0.000228938,,0x08,true,,
"I2C","start",419.719548375,0.000000063,,,,,
"I2C","address",419.719558563,0.0000865,,,true,0x0B,true
"I2C","data",419.719756562,0.0000865,,0xB7,true,,
"I2C","data",419.719957,0.000086438,,0x0B,true,,
"I2C","data",419.720098563,0.0000865,,0x68,false,,
"I2C","stop",419.720249125,0.000000062,,,,,
"I2C","start",419.721483625,0.000000063,,,,,
"I2C","address",419.721493875,0.0000865,,,true,0x0B,false
"I2C","data",419.721585563,0.000167437,,0x0D,true,,
"I2C","start",419.721763188,0.000000062,,,,,
"I2C","address",419.721773438,0.000086438,,,true,0x0B,true
"I2C","data",419.721916875,0.000086438,,0x5F,true,,
"I2C","data",419.722060375,0.0000865,,0x00,true,,
"I2C","data",419.722202438,0.0000865,,0xFC,false,,
"I2C","stop",419.722352937,0.000000063,,,,,
"I2C","start",419.722363813,0.000000062,,,,,
"I2C","address",419.722374,0.0000865,,,true,0x0B,false
"I2C","data",419.72246575,0.000289438,,0x51,true,,
"I2C","start",419.722765375,0.000000063,,,,,
"I2C","address",419.722775625,0.000086437,,,true,0x0B,true
"I2C","data",419.722920375,0.0000865,,0x04,true,,
"I2C","data",419.723064875,0.0000865,,0x00,true,,
"I2C","data",419.72321025,0.0000865,,0x00,true,,
"I2C","data",419.723355687,0.0000865,,0x00,true,,
"I2C","data",419.723501063,0.0000865,,0x00,true,,
"I2C","data",419.723642625,0.0000865,,0xDA,false,,
"I2C","stop",419.723793188,0.000000063,,,,,
"I2C","start",419.723816937,0.000000063,,,,,
"I2C","address",419.723827187,0.0000865,,,true,0x0B,false
"I2C","data",419.723918875,0.00023125,,0xD2,true,,
"I2C","start",419.724160312,0.000000063,,,,,
"I2C","address",419.7241705,0.0000865,,,true,0x0B,true
"I2C","data",419.7243135,0.000086437,,0x00,true,,
"I2C","data",419.724457,0.0000865,,0x00,true,,
"I2C","data",419.724599062,0.0000865,,0x2C,false,,
"I2C","stop",419.724749687,0.000000063,,,,,
"I2C","start",419.724761625,0.000000063,,,,,
"I2C","address",419.724771875,0.0000865,,,true,0x0B,false
"I2C","data",419.724863562,0.000220188,,0x3F,true,,
"I2C","start",419.725093937,0.000000063,,,,,
"I2C","address",419.725104188,0.0000865,,,true,0x0B,true
"I2C","data",419.725247062,0.0000865,,0x5B,true,,
"I2C","data",419.7253905,0.0000865,,0x10,true,,
"I2C","data",419.7255325,0.000086438,,0x5D,false,,
"I2C","stop",419.725683063,0.000000062,,,,,
"I2C","start",419.726424188,0.000000062,,,,,
"I2C","address",419.726434375,0.0000865,,,true,0x0B,false
"I2C","data",419.726526062,0.000162375,,0x3E,true,,
"I2C","start",419.726698625,0.000000063,,,,,
"I2C","address",419.726708813,0.0000865,,,true,0x0B,true
"I2C","data",419.726855188,0.000086437,,0x5D,true,,
"I2C","data",419.727001562,0.000086438,,0x10,true,,
"I2C","data",419.7271465,0.0000865,,0x35,false,,
"I2C","stop",419.7273005,0.000000062,,,,,
"I2C","start",419.727322312,0.000000063,,,,,
"I2C","address",419.7273325,0.0000865,,,true,0x0B,false
"I2C","data",419.727424187,0.000164062,,0x3D,true,,
"I2C","start",419.727598437,0.000000063,,,,,
"I2C","address",419.727608687,0.000086438,,,true,0x0B,true
"I2C","data",419.727758812,0.000086437,,0x5C,true,,
"I2C","data",419.727905188,0.0000865,,0x10,true,,
"I2C","data",419.728049625,0.0000865,,0x1A,false,,
"I2C","stop",419.728203563,0.000000062,,,,,
"I2C","start",419.728330375,0.000000063,,,,,
"I2C","address",419.728340563,0.0000865,,,true,0x0B,false
"I2C","data",419.72843225,0.000162812,,0x3F,true,,
"I2C","start",419.72860525,0.000000063,,,,,
"I2C","address",419.728615438,0.0000865,,,true,0x0B,true
"I2C","data",419.72876225,0.0000865,,0x5B,true,,
"I2C","data",419.728908625,0.0000865,,0x10,true,,
"I2C","data",419.7290535,0.0000865,,0x5D,false,,
"I2C","stop",419.729207875,0.000000063,,,,,
"I2C","start",419.729221812,0.000000063,,,,,
"I2C","address",419.729232062,0.000086438,,,true,0x0B,false
"I2C","data",419.72932375,0.000171688,,0x3E,true,,
"I2C","start",419.729505625,0.000000063,,,,,
"I2C","address",419.729515812,0.0000865,,,true,0x0B,true
"I2C","data",419.729662062,0.0000865,,0x5D,true,,
"I2C","data",419.729820313,0.000086438,,0x10,true,,
"I2C","data",419.729965687,0.0000865,,0x35,false,,
"I2C","stop",419.730120125,0.000000063,,,,,
"I2C","start",419.734831938,0.000000062,,,,,
"I2C","address",419.734842125,0.0000865,,,true,0x0B,false
"I2C","data",419.734933813,0.000163375,,0x3D,true,,
"I2C","start",419.735107375,0.000000063,,,,,
"I2C","address",419.735117625,0.000086437,,,true,0x0B,true
"I2C","data",419.735263438,0.0000865,,0x5E,true,,
"I2C","data",419.735409812,0.0000865,,0x10,true,,
"I2C","data",419.73555475,0.0000865,,0x30,false,,
"I2C","stop",419.73570825,0.000000062,,,,,
"I2C","start",420.715005062,0.000000063,,,,,
"I2C","address",420.71501525,0.0000865,,,true,0x0B,false
"I2C","data",420.715107,0.000179312,,0xD5,true,,
"I2C","start",420.7152965,0.000000063,,,,,
"I2C","address",420.715306688,0.0000865,,,true,0x0B,true
"I2C","data",420.71549225,0.0000865,,0x00,true,,
"I2C","data",420.71563525,0.000086437,,0x00,true,,
"I2C","data",420.71577725,0.0000865,,0x4E,false,,
"I2C","stop",420.715927813,0.000000062,,,,,
"I2C","start",420.716639687,0.000000063,,,,,
"I2C","address",420.716649875,0.0000865,,,true,0x0B,false
"I2C","data",420.716741562,0.000177313,,0xD3,true,,
"I2C","data",420.716924125,0.000131437,,0x00,true,,
"I2C","data",420.71706075,0.000133875,,0x00,true,,
"I2C","data",420.717199875,0.000132875,,0x81,true,,
"I2C","stop",420.717343187,0.000000063,,,,,
"I2C","start",420.717355375,0.000000063,,,,,
"I2C","address",420.717365562,0.0000865,,,true,0x0B,false
"I2C","data",420.71745725,0.000209125,,0x00,true,,
"I2C","data",420.717671625,0.0001315,,0x51,true,,
"I2C","data",420.717808375,0.000133937,,0x00,true,,
"I2C","data",420.717947563,0.000132937,,0x0A,true,,
"I2C","stop",420.718090937,0.000000063,,,,,
"I2C","start",420.718566188,0.000000062,,,,,
"I2C","address",420.718576438,0.0000865,,,true,0x0B,false
"I2C","data",420.718668125,0.000725562,,0x23,true,,
"I2C","start",420.719403875,0.000000062,,,,,
"I2C","address",420.719414062,0.0000865,,,true,0x0B,true
"I2C","data",420.71960625,0.0000865,,0x04,true,,
"I2C","data",420.719808437,0.0000865,,0x00,true,,
"I2C","data",420.719953687,0.0000865,,0x00,true,,
"I2C","data",420.720099,0.000086438,,0x00,true,,
"I2C","data",420.72024425,0.000086438,,0x00,true,,
"I2C","data",420.720385688,0.000086438,,0x54,false,,
"I2C","stop",420.72053625,0.000000062,,,,,
"I2C","start",420.721715,0.000000062,,,,,
"I2C","address",420.721725187,0.0000865,,,true,0x0B,false
"I2C","data",420.721816875,0.000157312,,0x00,true,,
"I2C","data",420.721979375,0.000131563,,0x53,true,,
"I2C","data",420.722116125,0.000133938,,0x00,true,,
"I2C","data",420.72225525,0.000133063,,0x20,true,,
"I2C","stop",420.722398688,0.000000063,,,,,
"I2C","start",420.722407687,0.000000063,,,,,
"I2C","address",420.722417875,0.0000865,,,true,0x0B,false
"I2C","data",420.722509563,0.00119475,,0x23,true,,
"I2C","start",420.7237145,0.000000063,,,,,
"I2C","address",420.72372475,0.0000865,,,true,0x0B,true
"I2C","data",420.723869125,0.0000865,,0x04,true,,
"I2C","data",420.724013562,0.0000865,,0x00,true,,
"I2C","data",420.724158938,0.0000865,,0x00,true,,
"I2C","data",420.724304313,0.0000865,,0x00,true,,
"I2C","data",420.724449687,0.0000865,,0x00,true,,
"I2C","data",420.72459125,0.0000865,,0x54,false,,
"I2C","stop",420.724741812,0.000000063,,,,,
"I2C","start",420.724759188,0.000000063,,,,,
"I2C","address",420.724769375,0.0000865,,,true,0x0B,false
"I2C","data",420.724861125,0.00021625,,0x00,true,,
"I2C","data",420.725082563,0.000131062,,0x54,true,,
"I2C","data",420.725218875,0.000133875,,0x00,true,,
"I2C","data",420.725357938,0.000132938,,0x4B,true,,
"I2C","stop",420.725501313,0.000000063,,,,,
"I2C","start",420.72662575,0.000000063,,,,,
"I2C","address",420.726635938,0.0000865,,,true,0x0B,false
"I2C","data",420.726727625,0.000472,,0x23,true,,
"I2C","start",420.727209813,0.000000063,,,,,
"I2C","address",420.72722,0.0000865,,,true,0x0B,true
"I2C","data",420.727367313,0.000086437,,0x04,true,,
"I2C","data",420.727514563,0.0000865,,0x86,true,,
"I2C","data",420.727662875,0.000086437,,0x03,true,,
"I2C","data",420.727811562,0.0000865,,0x06,true,,
"I2C","data",420.727960312,0.0000865,,0x00,true,,
"I2C","data",420.728104687,0.0000865,,0xD2,false,,
"I2C","stop",420.728258063,0.000000063,,,,,
"I2C","start",420.7285465,0.000000063,,,,,
"I2C","address",420.728556687,0.0000865,,,true,0x0B,false
"I2C","data",420.728648437,0.00016025,,0x00,true,,
"I2C","data",420.728813875,0.0001335,,0x55,true,,
"I2C","data",420.728952625,0.000136375,,0x00,true,,
"I2C","data",420.729094187,0.000136375,,0x5E,true,,
"I2C","stop",420.729241,0.000000063,,,,,
"I2C","start",420.729247938,0.000000062,,,,,
"I2C","address",420.729258125,0.0000865,,,true,0x0B,false
"I2C","data",420.729349813,0.001162187,,0x23,true,,
"I2C","start",420.730522188,0.000000062,,,,,
"I2C","address",420.730532438,0.000086437,,,true,0x0B,true
"I2C","data",420.730679688,0.000086438,,0x02,true,,
"I2C","data",420.730833188,0.0000865,,0x10,true,,
"I2C","data",420.730980938,0.0000865,,0x08,true,,
"I2C","data",420.731126375,0.0000865,,0x16,true,,
"I2C","data",420.731276063,0.0000865,,0x16,true,,
"I2C","data",420.73142,0.0000865,,0x16,false,,
"I2C","stop",420.731565375,0.000000063,,,,,
"I2C","start",420.735093437,0.000000063,,,,,
"I2C","address",420.735103625,0.0000865,,,true,0x0B,false
"I2C","data",420.735195313,0.000189187,,0x09,true,,
"I2C","start",420.735394687,0.000000063,,,,,
"I2C","address",420.735404875,0.0000865,,,true,0x0B,true
"I2C","data",420.735568313,0.0000865,,0x16,true,,
"I2C","data",420.735716125,0.000086437,,0x31,true,,
"I2C","data",420.7358615,0.0000865,,0xD5,false,,
"I2C","stop",420.736015875,0.000000062,,,,,
"I2C","start",420.736631187,0.000000063,,,,,
"I2C","address",420.736641437,0.0000865,,,true,0x0B,false
"I2C","data",420.736733125,0.0001835,,0x0A,true,,
"I2C","start",420.736926812,0.000000063,,,,,
"I2C","address",420.736937,0.0000865,,,true,0x0B,true
"I2C","data",420.737083812,0.000086438,,0xA3,true,,
"I2C","data",420.737230562,0.0000865,,0xFC,true,,
"I2C","data",420.737375938,0.0000865,,0x8C,false,,
"I2C","stop",420.737530375,0.000000063,,,,,
"I2C","start",420.737541062,0.000000063,,,,,
"I2C","address",420.73755125,0.0000865,,,true,0x0B,false
"I2C","data",420.737642938,0.00022075,,0x10,true,,
"I2C","start",420.737873875,0.000000063,,,,,
"I2C","address",420.737884125,0.000086438,,,true,0x0B,true
"I2C","data",420.738029812,0.0000865,,0xE4,true,,
"I2C","data",420.738176562,0.0000865,,0x04,true,,
"I2C","data",420.738320938,0.0000865,,0xA1,false,,
"I2C","stop",420.738474875,0.000000062,,,,,
"I2C","start",420.738490437,0.000000063,,,,,
"I2C","address",420.738500687,0.0000865,,,true,0x0B,false
"I2C","data",420.738592375,0.0002155,,0x0F,true,,
"I2C","start",420.738818063,0.000000063,,,,,
"I2C","address",420.738828313,0.0000865,,,true,0x0B,true
"I2C","data",420.738975063,0.0000865,,0xA4,true,,
"I2C","data",420.739120875,0.0000865,,0x04,true,,
"I2C","data",420.73926575,0.0000865,,0x4F,false,,
"I2C","stop",420.739419188,0.000000063,,,,,
"I2C","start",420.739429813,0.000000062,,,,,
"I2C","address",420.73944,0.0000865,,,true,0x0B,false
"I2C","data",420.739531688,0.000219625,,0x08,true,,
"I2C","start",420.7397615,0.000000063,,,,,
"I2C","address",420.739771688,0.0000865,,,true,0x0B,true
"I2C","data",420.7399175,0.0000865,,0xB7,true,,
"I2C","data",420.740063812,0.0000865,,0x0B,true,,
"I2C","data",420.74020875,0.000086437,,0x68,false,,
"I2C","stop",420.740362625,0.000000063,,,,,
"I2C","start",420.74177875,0.000000063,,,,,
"I2C","address",420.741788938,0.0000865,,,true,0x0B,false
"I2C","data",420.741880625,0.000170562,,0x0D,true,,
"I2C","start",420.742061375,0.000000063,,,,,
"I2C","address",420.742071562,0.0000865,,,true,0x0B,true
"I2C","data",420.742217312,0.0000865,,0x5F,true,,
"I2C","data",420.742363562,0.000086438,,0x00,true,,
"I2C","data",420.742508438,0.0000865,,0xFC,false,,
"I2C","stop",420.742662312,0.000000063,,,,,
"I2C","start",420.742672938,0.000000063,,,,,
"I2C","address",420.742683125,0.0000865,,,true,0x0B,false
"I2C","data",420.742774812,0.000280437,,0x51,true,,
"I2C","start",420.743065437,0.000000063,,,,,
"I2C","address",420.743075625,0.0000865,,,true,0x0B,true
"I2C","data",420.74322325,0.0000865,,0x04,true,,
"I2C","data",420.743370938,0.0000865,,0x00,true,,
"I2C","data",420.743519563,0.0000865,,0x00,true,,
"I2C","data",420.743668188,0.0000865,,0x00,true,,
"I2C","data",420.743816,0.0000865,,0x00,true,,
"I2C","data",420.743961375,0.0000865,,0xDA,false,,
"I2C","stop",420.744115313,0.000000062,,,,,
"I2C","start",420.744130375,0.000000063,,,,,
"I2C","address",420.744140562,0.0000865,,,true,0x0B,false
"I2C","data",420.74423225,0.000230938,,0xD2,true,,
"I2C","start",420.744473375,0.000000063,,,,,
"I2C","address",420.744483625,0.000086437,,,true,0x0B,true
"I2C","data",420.744629813,0.000086437,,0x00,true,,
"I2C","data",420.744776063,0.0000865,,0x00,true,,
"I2C","data",420.744920875,0.000086437,,0x2C,false,,
"I2C","stop",420.745074687,0.000000063,,,,,
"I2C","start",420.745089563,0.000000062,,,,,
"I2C","address",420.745099812,0.000086438,,,true,0x0B,false
"I2C","data",420.7451915,0.000208125,,0x3F,true,,
"I2C","start",420.745409812,0.000000063,,,,,
"I2C","address",420.745420062,0.000086437,,,true,0x0B,true
"I2C","data",420.745566375,0.000086438,,0x59,true,,
"I2C","data",420.745712687,0.0000865,,0x10,true,,
"I2C","data",420.745857563,0.0000865,,0x77,false,,
"I2C","stop",420.746011937,0.000000063,,,,,
"I2C","start",420.746632562,0.000000063,,,,,
"I2C","address",420.74664275,0.0000865,,,true,0x0B,false
"I2C","data",420.746734438,0.000163125,,0x3E,true,,
"I2C","start",420.74690775,0.000000063,,,,,
"I2C","address",420.746918,0.0000865,,,true,0x0B,true
"I2C","data",420.747234125,0.0000865,,0x5F,true,,
"I2C","data",420.747386688,0.0000865,,0x10,true,,
"I2C","data",420.747535438,0.0000865,,0x1F,false,,
"I2C","stop",420.747727688,0.000000063,,,,,
"I2C","start",420.748508562,0.000000063,,,,,
"I2C","address",420.748518812,0.000086438,,,true,0x0B,false
"I2C","data",420.7486105,0.00016,,0x3D,true,,
"I2C","start",420.748780688,0.000000062,,,,,
"I2C","address",420.748790875,0.0000865,,,true,0x0B,true
"I2C","data",420.748934313,0.0000865,,0x5E,true,,
"I2C","data",420.74907775,0.0000865,,0x10,true,,
"I2C","data",420.749219812,0.0000865,,0x30,false,,
"I2C","stop",420.749370375,0.000000062,,,,,
"I2C","start",420.749383125,0.000000062,,,,,
"I2C","address",420.749393312,0.0000865,,,true,0x0B,false
"I2C","data",420.749485,0.000215625,,0x3F,true,,
"I2C","start",420.749710812,0.000000063,,,,,
"I2C","address",420.749721,0.0000865,,,true,0x0B,true
"I2C","data",420.749864,0.0000865,,0x59,true,,
"I2C","data",420.750071938,0.0000865,,0x10,true,,
"I2C","data",420.750271188,0.0000865,,0x77,false,,
"I2C","stop",420.750422188,0.000000063,,,,,
"I2C","start",420.75497125,0.000000063,,,,,
"I2C","address",420.7549815,0.0000865,,,true,0x0B,false
"I2C","data",420.755073187,0.000159375,,0x3E,true,,
"I2C","start",420.75524275,0.000000063,,,,,
"I2C","address",420.755253,0.0000865,,,true,0x0B,true
"I2C","data",420.755396437,0.0000865,,0x5F,true,,
"I2C","data",420.755539937,0.000086438,,0x10,true,,
"I2C","data",420.755682,0.0000865,,0x1F,false,,
"I2C","stop",420.755832563,0.000000062,,,,,
"I2C","start",420.756671375,0.000000063,,,,,
"I2C","address",420.756681562,0.0000865,,,true,0x0B,false
"I2C","data",420.756773313,0.000159188,,0x3D,true,,
"I2C","start",420.756942687,0.000000063,,,,,
"I2C","address",420.756952937,0.000086438,,,true,0x0B,true
"I2C","data",420.757096375,0.0000865,,0x5E,true,,
"I2C","data",420.757239875,0.0000865,,0x10,true,,
"I2C","data",420.757381937,0.0000865,,0x30,false,,
"I2C","stop",420.7575325,0.000000062,,,,,
"I2C","start",421.7353015,0.000000063,,,,,
"I2C","address",421.735311687,0.0000865,,,true,0x0B,false
"I2C","data",421.735403375,0.0001795,,0xD5,true,,
"I2C","start",421.735593063,0.000000062,,,,,
"I2C","address",421.735603313,0.0000865,,,true,0x0B,true
"I2C","data",421.735788875,0.000086437,,0x00,true,,
"I2C","data",421.735931875,0.000086437,,0x00,true,,
"I2C","data",421.736073938,0.000086437,,0x4E,false,,
"I2C","stop",421.7362245,0.000000063,,,,,
"I2C","start",421.736848313,0.000000063,,,,,
"I2C","address",421.736858563,0.000086438,,,true,0x0B,false
"I2C","data",421.73695025,0.0001775,,0xD3,true,,
"I2C","data",421.737132938,0.000131625,,0x00,true,,
"I2C","data",421.73726975,0.000134,,0x00,true,,
"I2C","data",421.737409,0.000132938,,0x81,true,,
"I2C","stop",421.737552375,0.000000063,,,,,
"I2C","start",421.73756425,0.000000063,,,,,
"I2C","address",421.7375745,0.000086437,,,true,0x0B,false
"I2C","data",421.737666187,0.000209563,,0x00,true,,
"I2C","data",421.737881,0.0001315,,0x51,true,,
"I2C","data",421.738017688,0.000133875,,0x00,true,,
"I2C","data",421.738156812,0.000132938,,0x0A,true,,
"I2C","stop",421.738300187,0.000000063,,,,,
"I2C","start",421.738711125,0.000000062,,,,,
"I2C","address",421.738721312,0.0000865,,,true,0x0B,false
"I2C","data",421.738813063,0.00079025,,0x23,true,,
"I2C","start",421.7396135,0.000000062,,,,,
"I2C","address",421.739623687,0.0000865,,,true,0x0B,true
"I2C","data",421.739768438,0.0000865,,0x04,true,,
"I2C","data",421.739912812,0.0000865,,0x00,true,,
"I2C","data",421.740058187,0.0000865,,0x00,true,,
"I2C","data",421.740203625,0.000086438,,0x00,true,,
"I2C","data",421.740349,0.000086438,,0x00,true,,
"I2C","data",421.7404905,0.0000865,,0x54,false,,
"I2C","stop",421.740641,0.000000063,,,,,
"I2C","start",421.741993063,0.000000063,,,,,
"I2C","address",421.74200325,0.0000865,,,true,0x0B,false
"I2C","data",421.742095,0.000157125,,0x00,true,,
"I2C","data",421.742257375,0.000131438,,0x53,true,,
"I2C","data",421.742394063,0.000133812,,0x00,true,,
"I2C","data",421.742533125,0.000133,,0x20,true,,
"I2C","stop",421.7426765,0.000000062,,,,,
"I2C","start",421.742684625,0.000000063,,,,,
"I2C","address",421.742694875,0.0000865,,,true,0x0B,false
"I2C","data",421.742786562,0.001195562,,0x23,true,,
"I2C","start",421.743992312,0.000000063,,,,,
"I2C","address",421.744002562,0.0000865,,,true,0x0B,true
"I2C","data",421.744146937,0.000086438,,0x04,true,,
"I2C","data",421.744291313,0.0000865,,0x00,true,,
"I2C","data",421.744436625,0.0000865,,0x00,true,,
"I2C","data",421.744582,0.0000865,,0x00,true,,
"I2C","data",421.744727375,0.0000865,,0x00,true,,
"I2C","data",421.744868937,0.0000865,,0x54,false,,
"I2C","stop",421.745019563,0.000000063,,,,,
"I2C","start",421.745036438,0.000000063,,,,,
"I2C","address",421.745046688,0.000086437,,,true,0x0B,false
"I2C","data",421.745138375,0.00021675,,0x00,true,,
"I2C","data",421.745360312,0.000131063,,0x54,true,,
"I2C","data",421.745496625,0.000133938,,0x00,true,,
"I2C","data",421.745635812,0.000133,,0x4B,true,,
"I2C","stop",421.745779187,0.000000063,,,,,
"I2C","start",421.746840375,0.000000063,,,,,
"I2C","address",421.746850625,0.0000865,,,true,0x0B,false
"I2C","data",421.746942312,0.000469438,,0x23,true,,
"I2C","start",421.747421938,0.000000062,,,,,
"I2C","address",421.747432125,0.0000865,,,true,0x0B,true
"I2C","data",421.747576438,0.0000865,,0x04,true,,
"I2C","data",421.747720813,0.0000865,,0x86,true,,
"I2C","data",421.747866125,0.000086438,,0x03,true,,
"I2C","data",421.748011375,0.0000865,,0x06,true,,
"I2C","data",421.748156687,0.0000865,,0x00,true,,
"I2C","data",421.748298187,0.0000865,,0xD2,false,,
"I2C","stop",421.748448812,0.000000063,,,,,
"I2C","start",421.748751375,0.000000063,,,,,
"I2C","address",421.748761563,0.0000865,,,true,0x0B,false
"I2C","data",421.74885325,0.000157062,,0x00,true,,
"I2C","data",421.7490155,0.000200813,,0x55,true,,
"I2C","data",421.7492215,0.000196063,,0x00,true,,
"I2C","data",421.74942275,0.0001335,,0x5E,true,,
"I2C","stop",421.749566688,0.000000062,,,,,
"I2C","start",421.749575375,0.000000063,,,,,
"I2C","address",421.749585562,0.0000865,,,true,0x0B,false
"I2C","data",421.74967725,0.001202937,,0x23,true,,
"I2C","start",421.750890375,0.000000063,,,,,
"I2C","address",421.750900563,0.0000865,,,true,0x0B,true
"I2C","data",421.751045438,0.0000865,,0x02,true,,
"I2C","data",421.751189875,0.0000865,,0x10,true,,
"I2C","data",421.751335312,0.000086438,,0x08,true,,
"I2C","data",421.751476875,0.000086438,,0x16,true,,
"I2C","data",421.751622688,0.0000865,,0x16,true,,
"I2C","data",421.75176425,0.0000865,,0x16,false,,
"I2C","stop",421.75190675,0.000000063,,,,,
"I2C","start",421.755167,0.000000063,,,,,
"I2C","address",421.755177188,0.0000865,,,true,0x0B,false
"I2C","data",421.755268937,0.000170688,,0x09,true,,
"I2C","start",421.755449812,0.000000063,,,,,
"I2C","address",421.75546,0.0000865,,,true,0x0B,true
"I2C","data",421.755602937,0.0000865,,0x15,true,,
"I2C","data",421.755746312,0.0000865,,0x31,true,,
"I2C","data",421.75588825,0.000086437,,0xEA,false,,
"I2C","stop",421.75603875,0.000000062,,,,,
"I2C","start",421.756883437,0.000000063,,,,,
"I2C","address",421.756893687,0.0000865,,,true,0x0B,false
"I2C","data",421.756985375,0.000170313,,0x0A,true,,
"I2C","start",421.757165875,0.000000063,,,,,
"I2C","address",421.757176062,0.0000865,,,true,0x0B,true
"I2C","data",421.757318937,0.0000865,,0xA5,true,,
"I2C","data",421.757462313,0.0000865,,0xFC,true,,
"I2C","data",421.757604188,0.0000865,,0xF2,false,,
"I2C","stop",421.75775475,0.000000063,,,,,
"I2C","start",421.7577675,0.000000063,,,,,
"I2C","address",421.757777687,0.0000865,,,true,0x0B,false
"I2C","data",421.757869438,0.000227875,,0x10,true,,
"I2C","start",421.7581075,0.000000063,,,,,
"I2C","address",421.75811775,0.000086438,,,true,0x0B,true
"I2C","data",421.758260625,0.0000865,,0xE4,true,,
"I2C","data",421.758404063,0.0000865,,0x04,true,,
"I2C","data",421.758546,0.0000865,,0xA1,false,,
"I2C","stop",421.7586965,0.000000063,,,,,
"I2C","start",421.758762563,0.000000062,,,,,
"I2C","address",421.758772813,0.000086437,,,true,0x0B,false
"I2C","data",421.7588645,0.000174562,,0x0F,true,,
"I2C","start",421.75904925,0.000000063,,,,,
"I2C","address",421.759059438,0.0000865,,,true,0x0B,true
"I2C","data",421.759202375,0.0000865,,0xA3,true,,
"I2C","data",421.759345875,0.0000865,,0x04,true,,
"I2C","data",421.759487875,0.0000865,,0x24,false,,
"I2C","stop",421.7596385,0.000000063,,,,,
"I2C","start",421.759648313,0.000000062,,,,,
"I2C","address",421.7596585,0.0000865,,,true,0x0B,false
"I2C","data",421.759750188,0.0002295,,0x08,true,,
"I2C","start",421.759989875,0.000000063,,,,,
"I2C","address",421.760000125,0.000086438,,,true,0x0B,true
"I2C","data",421.7601435,0.0000865,,0xB7,true,,
"I2C","data",421.760287,0.0000865,,0x0B,true,,
"I2C","data",421.760429,0.0000865,,0x68,false,,
"I2C","stop",421.760579625,0.000000063,,,,,
"I2C","start",421.761922687,0.000000063,,,,,
"I2C","address",421.761932875,0.0000865,,,true,0x0B,false
"I2C","data",421.762024563,0.000167562,,0x0D,true,,
"I2C","start",421.762202312,0.000000063,,,,,
"I2C","address",421.7622125,0.0000865,,,true,0x0B,true
"I2C","data",421.762355938,0.0000865,,0x5F,true,,
"I2C","data",421.762499375,0.0000865,,0x00,true,,
"I2C","data",421.762641375,0.000086437,,0xFC,false,,
"I2C","stop",421.762791875,0.000000063,,,,,
"I2C","start",421.762804562,0.000000063,,,,,
"I2C","address",421.76281475,0.0000865,,,true,0x0B,false
"I2C","data",421.762906438,0.000287562,,0x51,true,,
"I2C","start",421.76320425,0.000000063,,,,,
"I2C","address",421.763214437,0.0000865,,,true,0x0B,true
"I2C","data",421.763359312,0.000086438,,0x04,true,,
"I2C","data",421.763503688,0.0000865,,0x00,true,,
"I2C","data",421.763649063,0.000086438,,0x00,true,,
"I2C","data",421.763794437,0.000086437,,0x00,true,,
"I2C","data",421.763939687,0.0000865,,0x00,true,,
"I2C","data",421.764081187,0.000086438,,0xDA,false,,
"I2C","stop",421.764231625,0.000000063,,,,,
"I2C","start",421.764257375,0.000000063,,,,,
"I2C","address",421.764267562,0.0000865,,,true,0x0B,false
"I2C","data",421.764359313,0.000229188,,0xD2,true,,
"I2C","start",421.764598687,0.000000063,,,,,
"I2C","address",421.764608875,0.0000865,,,true,0x0B,true
"I2C","data",421.764801562,0.0000865,,0x00,true,,
"I2C","data",421.765002438,0.0000865,,0x00,true,,
"I2C","data",421.7651445,0.0000865,,0x2C,false,,
"I2C","stop",421.765295063,0.000000063,,,,,
"I2C","start",421.765309875,0.000000062,,,,,
"I2C","address",421.765320062,0.0000865,,,true,0x0B,false
"I2C","data",421.765411813,0.000217062,,0x3F,true,,
"I2C","start",421.765639062,0.000000063,,,,,
"I2C","address",421.765649312,0.0000865,,,true,0x0B,true
"I2C","data",421.765792187,0.000086438,,0x58,true,,
"I2C","data",421.765935562,0.0000865,,0x10,true,,
"I2C","data",421.766077625,0.0000865,,0x62,false,,
"I2C","stop",421.766228188,0.000000062,,,,,
"I2C","start",421.766861937,0.000000063,,,,,
"I2C","address",421.766872187,0.000086437,,,true,0x0B,false
"I2C","data",421.766963875,0.000159875,,0x3E,true,,
"I2C","start",421.767133937,0.000000063,,,,,
"I2C","address",421.767144125,0.0000865,,,true,0x0B,true
"I2C","data",421.7672875,0.0000865,,0x5E,true,,
"I2C","data",421.767431,0.0000865,,0x10,true,,
"I2C","data",421.767573,0.0000865,,0x0A,false,,
"I2C","stop",421.767723625,0.000000063,,,,,
"I2C","start",421.767733562,0.000000063,,,,,
"I2C","address",421.76774375,0.0000865,,,true,0x0B,false
"I2C","data",421.7678355,0.000218375,,0x3D,true,,
"I2C","start",421.768064063,0.000000063,,,,,
"I2C","address",421.768074313,0.000086437,,,true,0x0B,true
"I2C","data",421.76821725,0.0000865,,0x5E,true,,
"I2C","data",421.76836075,0.000086437,,0x10,true,,
"I2C","data",421.76850275,0.0000865,,0x30,false,,
"I2C","stop",421.768653375,0.000000063,,,,,
"I2C","start",421.76876825,0.000000063,,,,,
"I2C","address",421.7687785,0.0000865,,,true,0x0B,false
"I2C","data",421.768870187,0.000159937,,0x3F,true,,
"I2C","start",421.769040313,0.000000062,,,,,
"I2C","address",421.7690505,0.0000865,,,true,0x0B,true
"I2C","data",421.769194,0.0000865,,0x58,true,,
"I2C","data",421.7693375,0.0000865,,0x10,true,,
"I2C","data",421.769479563,0.0000865,,0x62,false,,
"I2C","stop",421.769630188,0.000000062,,,,,
"I2C","start",421.76964125,0.000000063,,,,,
"I2C","address",421.7696515,0.0000865,,,true,0x0B,false
"I2C","data",421.769743188,0.000217313,,0x3E,true,,
"I2C","start",421.769970688,0.000000063,,,,,
"I2C","address",421.769980875,0.0000865,,,true,0x0B,true
"I2C","data",421.770123875,0.0000865,,0x5E,true,,
"I2C","data",421.770267312,0.0000865,,0x10,true,,
"I2C","data",421.770409375,0.0000865,,0x0A,false,,
"I2C","stop",421.77056,0.000000063,,,,,
"I2C","start",421.777013188,0.000000062,,,,,
"I2C","address",421.777023375,0.0000865,,,true,0x0B,false
"I2C","data",421.777115063,0.000159625,,0x3D,true,,
"I2C","start",421.777284875,0.000000062,,,,,
"I2C","address",421.777295125,0.0000865,,,true,0x0B,true
"I2C","data",421.777438562,0.0000865,,0x5E,true,,
"I2C","data",421.777582063,0.0000865,,0x10,true,,
"I2C","data",421.777724125,0.000086438,,0x30,false,,
"I2C","stop",421.777874688,0.000000063,,,,,
"I2C","start",422.755367062,0.000000063,,,,,
"I2C","address",422.75537725,0.0000865,,,true,0x0B,false
"I2C","data",422.755468937,0.000179125,,0xD5,true,,
"I2C","start",422.75565825,0.000000062,,,,,
"I2C","address",422.7556685,0.000086437,,,true,0x0B,true
"I2C","data",422.75585375,0.0000865,,0x00,true,,
"I2C","data",422.755996625,0.000086437,,0x00,true,,
"I2C","data",422.756138562,0.0000865,,0x4E,false,,
"I2C","stop",422.756354188,0.000000063,,,,,
"I2C","start",422.757102625,0.000000062,,,,,
"I2C","address",422.757112812,0.0000865,,,true,0x0B,false
"I2C","data",422.757204563,0.000177375,,0xD3,true,,
"I2C","data",422.757387188,0.0001315,,0x00,true,,
"I2C","data",422.757523875,0.000133937,,0x00,true,,
"I2C","data",422.757663063,0.000132937,,0x81,true,,
"I2C","stop",422.757806437,0.000000063,,,,,
"I2C","start",422.757819563,0.000000063,,,,,
"I2C","address",422.757829813,0.000086438,,,true,0x0B,false
"I2C","data",422.7579215,0.000208312,,0x00,true,,
"I2C","data",422.758135063,0.000131437,,0x51,true,,
"I2C","data",422.758271687,0.000133812,,0x00,true,,
"I2C","data",422.75841075,0.000132875,,0x0A,true,,
"I2C","stop",422.758554063,0.000000062,,,,,
"I2C","start",422.758905813,0.000000062,,,,,
"I2C","address",422.758916,0.0000865,,,true,0x0B,false
"I2C","data",422.75900775,0.000849125,,0x23,true,,
"I2C","start",422.759867063,0.000000063,,,,,
"I2C","address",422.759877313,0.000086437,,,true,0x0B,true
"I2C","data",422.760054187,0.0000865,,0x04,true,,
"I2C","data",422.760202375,0.0000865,,0x00,true,,
"I2C","data",422.760351062,0.0000865,,0x00,true,,
"I2C","data",422.760499312,0.0000865,,0x00,true,,
"I2C","data",422.760647563,0.0000865,,0x00,true,,
"I2C","data",422.760791938,0.0000865,,0x54,false,,
"I2C","stop",422.760945375,0.000000063,,,,,
"I2C","start",422.762150375,0.000000063,,,,,
"I2C","address",422.762160563,0.0000865,,,true,0x0B,false
"I2C","data",422.762252312,0.000157188,,0x00,true,,
"I2C","data",422.762414687,0.000131438,,0x53,true,,
"I2C","data",422.762551313,0.000133875,,0x00,true,,
"I2C","data",422.762690375,0.000132875,,0x20,true,,
"I2C","stop",422.762833688,0.000000063,,,,,
"I2C","start",422.762843062,0.000000063,,,,,
"I2C","address",422.762853312,0.000086437,,,true,0x0B,false
"I2C","data",422.762945,0.00119375,,0x23,true,,
"I2C","start",422.764148938,0.000000062,,,,,
"I2C","address",422.764159125,0.0000865,,,true,0x0B,true
"I2C","data",422.764351187,0.0000865,,0x04,true,,
"I2C","data",422.764553438,0.0000865,,0x00,true,,
"I2C","data",422.764699312,0.000086437,,0x00,true,,
"I2C","data",422.764844625,0.000086437,,0x00,true,,
"I2C","data",422.764989937,0.0000865,,0x00,true,,
"I2C","data",422.765131375,0.0000865,,0x54,false,,
"I2C","stop",422.765281875,0.000000062,,,,,
"I2C","start",422.765299125,0.000000062,,,,,
"I2C","address",422.765309312,0.0000865,,,true,0x0B,false
"I2C","data",422.765401,0.000216,,0x00,true,,
"I2C","data",422.765622188,0.000131,,0x54,true,,
"I2C","data",422.765758437,0.000133875,,0x00,true,,
"I2C","data",422.765897563,0.000132937,,0x4B,true,,
"I2C","stop",422.766040938,0.000000062,,,,,
"I2C","start",422.767131875,0.000000062,,,,,
"I2C","address",422.767142062,0.0000865,,,true,0x0B,false
"I2C","data",422.767233813,0.000468625,,0x23,true,,
"I2C","start",422.767712625,0.000000063,,,,,
"I2C","address",422.767722812,0.0000865,,,true,0x0B,true
"I2C","data",422.767867187,0.0000865,,0x04,true,,
"I2C","data",422.768011625,0.0000865,,0x86,true,,
"I2C","data",422.768156938,0.0000865,,0x03,true,,
"I2C","data",422.768302375,0.000086437,,0x04,true,,
"I2C","data",422.76844775,0.000086438,,0x00,true,,
"I2C","data",422.76858925,0.0000865,,0xF8,false,,
"I2C","stop",422.768739875,0.000000063,,,,,
"I2C","start",422.769010125,0.000000062,,,,,
"I2C","address",422.769020313,0.0000865,,,true,0x0B,false
"I2C","data",422.769112063,0.000156875,,0x00,true,,
"I2C","data",422.769274188,0.0001315,,0x55,true,,
"I2C","data",422.769410938,0.000133875,,0x00,true,,
"I2C","data",422.769550063,0.000132937,,0x5E,true,,
"I2C","stop",422.769693437,0.000000063,,,,,
"I2C","start",422.7697005,0.000000063,,,,,
"I2C","address",422.76971075,0.0000865,,,true,0x0B,false
"I2C","data",422.769802438,0.001204187,,0x23,true,,
"I2C","start",422.771016813,0.000000062,,,,,
"I2C","address",422.771027,0.0000865,,,true,0x0B,true
"I2C","data",422.77117175,0.0000865,,0x02,true,,
"I2C","data",422.771316125,0.0000865,,0x10,true,,
"I2C","data",422.7714615,0.000086438,,0x08,true,,
"I2C","data",422.771603,0.0000865,,0x16,true,,
"I2C","data",422.771748812,0.0000865,,0x16,true,,
"I2C","data",422.771955812,0.0000865,,0x16,false,,
"I2C","stop",422.772154063,0.000000062,,,,,
"I2C","start",422.777256062,0.000000063,,,,,
"I2C","address",422.777266312,0.000086437,,,true,0x0B,false
"I2C","data",422.777358,0.000170312,,0x09,true,,
"I2C","start",422.7775385,0.000000063,,,,,
"I2C","address",422.777548687,0.0000865,,,true,0x0B,true
"I2C","data",422.777691625,0.000086438,,0x12,true,,
"I2C","data",422.777835,0.0000865,,0x31,true,,
"I2C","data",422.777977,0.0000865,,0x81,false,,
"I2C","stop",422.778127563,0.000000063,,,,,
"I2C","start",422.778870563,0.000000063,,,,,
"I2C","address",422.778880813,0.000086437,,,true,0x0B,false
"I2C","data",422.7789725,0.0001705,,0x0A,true,,
"I2C","start",422.779153188,0.000000062,,,,,
"I2C","address",422.779163375,0.0000865,,,true,0x0B,true
"I2C","data",422.779306188,0.0000865,,0xA1,true,,
"I2C","data",422.779449563,0.0000865,,0xFC,true,,
"I2C","data",422.779591563,0.0000865,,0xA6,false,,
"I2C","stop",422.779807188,0.000000062,,,,,
"I2C","start",422.7798185,0.000000063,,,,,
"I2C","address",422.77982875,0.000086438,,,true,0x0B,false
"I2C","data",422.779920437,0.000238375,,0x10,true,,
"I2C","start",422.780169,0.000000063,,,,,
"I2C","address",422.78017925,0.0000865,,,true,0x0B,true
"I2C","data",422.780369375,0.0000865,,0xE4,true,,
"I2C","data",422.780512687,0.0000865,,0x04,true,,
"I2C","data",422.780654625,0.000086437,,0xA1,false,,
"I2C","stop",422.780805063,0.000000062,,,,,
"I2C","start",422.782199063,0.000000062,,,,,
"I2C","address",422.78220925,0.0000865,,,true,0x0B,false
"I2C","data",422.782300938,0.000171312,,0x0F,true,,
"I2C","start",422.782482437,0.000000063,,,,,
"I2C","address",422.782492687,0.000086437,,,true,0x0B,true
"I2C","data",422.782635562,0.0000865,,0xA3,true,,
"I2C","data",422.782779,0.0000865,,0x04,true,,
"I2C","data",422.782921,0.0000865,,0x24,false,,
"I2C","stop",422.783071437,0.000000063,,,,,
"I2C","start",422.783090313,0.000000062,,,,,
"I2C","address",422.7831005,0.0000865,,,true,0x0B,false
"I2C","data",422.783192187,0.00022025,,0x08,true,,
"I2C","start",422.783422625,0.000000062,,,,,
"I2C","address",422.783432875,0.0000865,,,true,0x0B,true
"I2C","data",422.783576187,0.0000865,,0xB7,true,,
"I2C","data",422.783719625,0.0000865,,0x0B,true,,
"I2C","data",422.783861625,0.0000865,,0x68,false,,
"I2C","stop",422.78401225,0.000000063,,,,,
"I2C","start",422.784025,0.000000063,,,,,
"I2C","address",422.78403525,0.0000865,,,true,0x0B,false
"I2C","data",422.784126937,0.000223188,,0x0D,true,,
"I2C","start",422.784360312,0.000000063,,,,,
"I2C","address",422.7843705,0.0000865,,,true,0x0B,true
"I2C","data",422.784513437,0.0000865,,0x5F,true,,
"I2C","data",422.784656938,0.000086438,,0x00,true,,
"I2C","data",422.784798937,0.0000865,,0xFC,false,,
"I2C","stop",422.7849495,0.000000063,,,,,
"I2C","start",422.784968938,0.000000062,,,,,
"I2C","address",422.784979125,0.0000865,,,true,0x0B,false
"I2C","data",422.785070875,0.000281063,,0x51,true,,
"I2C","start",422.785362125,0.000000063,,,,,
"I2C","address",422.785372312,0.0000865,,,true,0x0B,true
"I2C","data",422.785517125,0.0000865,,0x04,true,,
"I2C","data",422.7856615,0.0000865,,0x00,true,,
"I2C","data",422.785806813,0.0000865,,0x00,true,,
"I2C","data",422.785952125,0.0000865,,0x00,true,,
"I2C","data",422.786097438,0.0000865,,0x00,true,,
"I2C","data",422.786238938,0.0000865,,0xDA,false,,
"I2C","stop",422.786389438,0.000000062,,,,,
"I2C","start",422.78706075,0.000000063,,,,,
"I2C","address",422.787070938,0.0000865,,,true,0x0B,false
"I2C","data",422.787162687,0.000176313,,0xD2,true,,
"I2C","start",422.787349188,0.000000062,,,,,
"I2C","address",422.787359375,0.0000865,,,true,0x0B,true
"I2C","data",422.787580063,0.0000865,,0x00,true,,
"I2C","data",422.787780875,0.000086438,,0x00,true,,
"I2C","data",422.787922375,0.0000865,,0x2C,false,,
"I2C","stop",422.788072937,0.000000063,,,,,
"I2C","start",422.788084562,0.000000063,,,,,
"I2C","address",422.788094812,0.0000865,,,true,0x0B,false
"I2C","data",422.7881865,0.000220375,,0x3F,true,,
"I2C","start",422.788417063,0.000000063,,,,,
"I2C","address",422.788427313,0.0000865,,,true,0x0B,true
"I2C","data",422.788570125,0.0000865,,0x59,true,,
"I2C","data",422.788713438,0.0000865,,0x10,true,,
"I2C","data",422.788855375,0.0000865,,0x77,false,,
"I2C","stop",422.789005875,0.000000063,,,,,
"I2C","start",422.789020438,0.000000062,,,,,
"I2C","address",422.789030687,0.000086438,,,true,0x0B,false
"I2C","data",422.789122375,0.000213563,,0x3E,true,,
"I2C","start",422.789346125,0.000000063,,,,,
"I2C","address",422.789356375,0.0000865,,,true,0x0B,true
"I2C","data",422.78949925,0.000086438,,0x5D,true,,
"I2C","data",422.789642625,0.0000865,,0x10,true,,
"I2C","data",422.789784563,0.0000865,,0x35,false,,
"I2C","stop",422.789935,0.000000062,,,,,
"I2C","start",422.789945375,0.000000063,,,,,
"I2C","address",422.789955625,0.0000865,,,true,0x0B,false
"I2C","data",422.790047313,0.000217687,,0x3D,true,,
"I2C","start",422.790275188,0.000000063,,,,,
"I2C","address",422.790285375,0.0000865,,,true,0x0B,true
"I2C","data",422.79042825,0.0000865,,0x5D,true,,
"I2C","data",422.790571688,0.0000865,,0x10,true,,
"I2C","data",422.790713625,0.0000865,,0x0F,false,,
"I2C","stop",422.790864125,0.000000063,,,,,
"I2C","start",422.7955285,0.000000063,,,,,
"I2C","address",422.795538688,0.0000865,,,true,0x0B,false
"I2C","data",422.795630375,0.000159563,,0x3F,true,,
"I2C","start",422.795800125,0.000000063,,,,,
"I2C","address",422.795810313,0.0000865,,,true,0x0B,true
"I2C","data",422.795953688,0.000086438,,0x59,true,,
"I2C","data",422.796097125,0.0000865,,0x10,true,,
"I2C","data",422.796239125,0.0000865,,0x77,false,,
"I2C","stop",422.796389687,0.000000063,,,,,
"I2C","start",422.797100188,0.000000063,,,,,
"I2C","address",422.797110438,0.000086438,,,true,0x0B,false
"I2C","data",422.797202125,0.000159312,,0x3E,true,,
"I2C","start",422.797371625,0.000000063,,,,,
"I2C","address",422.797381813,0.0000865,,,true,0x0B,true
"I2C","data",422.79752525,0.000086438,,0x5D,true,,
"I2C","data",422.797668625,0.0000865,,0x10,true,,
"I2C","data",422.797810625,0.0000865,,0x35,false,,
"I2C","stop",422.79796125,0.000000063,,,,,
"I2C","start",422.797973125,0.000000063,,,,,
"I2C","address",422.797983312,0.0000865,,,true,0x0B,false
"I2C","data",422.798075,0.00021625,,0x3D,true,,
"I2C","start",422.798301438,0.000000063,,,,,
"I2C","address",422.798311625,0.0000865,,,true,0x0B,true
"I2C","data",422.798454438,0.0000865,,0x5D,true,,
"I2C","data",422.79859775,0.0000865,,0x10,true,,
"I2C","data",422.79873975,0.0000865,,0x0F,false,,
"I2C","stop",422.798890313,0.000000062,,,,,
"I2C","start",422.799302813,0.000000063,,,,,
"I2C","address",422.799313,0.0000865,,,true,0x0B,false
"I2C","data",422.79940475,0.000182188,,0xD8,true,,
"I2C","start",422.799597125,0.000000063,,,,,
"I2C","address",422.799607375,0.000086437,,,true,0x0B,true
"I2C","data",422.799752062,0.0000865,,0x0E,true,,
"I2C","data",422.799896375,0.0000865,,0x30,true,,
"I2C","data",422.800041625,0.0000865,,0x43,true,,
"I2C","data",422.800187,0.0000865,,0x30,true,,
"I2C","data",422.800332313,0.0000865,,0x41,true,,
"I2C","data",422.800477625,0.0000865,,0x45,true,,
"I2C","data",422.800623,0.0000865,,0x39,true,,
"I2C","data",422.800768312,0.0000865,,0x56,true,,
"I2C","data",422.800913687,0.0000865,,0x42,true,,
"I2C","data",422.801059,0.0000865,,0x33,true,,
"I2C","data",422.801204375,0.0000865,,0x33,true,,
"I2C","data",422.801349688,0.0000865,,0x30,true,,
"I2C","data",422.801495063,0.0000865,,0x31,true,,
"I2C","data",422.801640437,0.0000865,,0x53,true,,
"I2C","data",422.801785812,0.000086437,,0x51,true,,
"I2C","data",422.801927313,0.0000865,,0x60,false,,
"I2C","stop",422.802077875,0.000000062,,,,,
"I2C","start",422.8021675,0.000000063,,,,,
"I2C","address",422.80217775,0.000086438,,,true,0x0B,false
"I2C","data",422.802269438,0.000163938,,0xC2,true,,
"I2C","start",422.802443563,0.000000063,,,,,
"I2C","address",422.80245375,0.0000865,,,true,0x0B,true
"I2C","data",422.802598563,0.0000865,,0x08,true,,
"I2C","data",422.802742937,0.0000865,,0x01,true,,
"I2C","data",422.802888312,0.0000865,,0x00,true,,
"I2C","data",422.803033687,0.000086438,,0x00,true,,
"I2C","data",422.803243562,0.0000865,,0x00,true,,
"I2C","data",422.803446812,0.0000865,,0x55,true,,
"I2C","data",422.803592063,0.0000865,,0x00,true,,
"I2C","data",422.803737375,0.000086437,,0x00,true,,
"I2C","data",422.803882625,0.0000865,,0x01,true,,
"I2C","data",422.804024062,0.0000865,,0xAE,false,,
"I2C","stop",422.804174563,0.000000062,,,,,
"I2C","start",422.804592625,0.000000063,,,,,
"I2C","address",422.804602812,0.0000865,,,true,0x0B,false
"I2C","data",422.804694563,0.000171062,,0x66,true,,
"I2C","start",422.804875812,0.000000063,,,,,
"I2C","address",422.804886062,0.0000865,,,true,0x0B,true
"I2C","data",422.8051235,0.0000865,,0x20,true,,
"I2C","data",422.805267813,0.000086437,,0x94,true,,
"I2C","data",422.805413063,0.000086437,,0x48,true,,
"I2C","data",422.805558313,0.0000865,,0xFA,true,,
"I2C","data",422.805703687,0.0000865,,0x63,true,,
"I2C","data",422.805849,0.0000865,,0x01,true,,
"I2C","data",422.805994375,0.0000865,,0x60,true,,
"I2C","data",422.80613975,0.000086438,,0xE4,true,,
"I2C","data",422.806285,0.0000865,,0x04,true,,
"I2C","data",422.80643025,0.0000865,,0xA8,true,,
"I2C","data",422.806575562,0.000086438,,0x10,true,,
"I2C","data",422.806720812,0.0000865,,0xB1,true,,
"I2C","data",422.806866125,0.000086437,,0x10,true,,
"I2C","data",422.807011438,0.0000865,,0xB1,true,,
"I2C","data",422.807156813,0.0000865,,0x10,true,,
"I2C","data",422.807302187,0.0000865,,0x00,true,,
"I2C","data",422.807447562,0.000086438,,0x00,true,,
"I2C","data",422.807592875,0.0000865,,0x00,true,,
"I2C","data",422.807738125,0.0000865,,0x00,true,,
"I2C","data",422.807883375,0.0000865,,0xEC,true,,
"I2C","data",422.808028687,0.0000865,,0x04,true,,
"I2C","data",422.808173937,0.0000865,,0x00,true,,
"I2C","data",422.80831925,0.0000865,,0x00,true,,
"I2C","data",422.808464625,0.0000865,,0x0A,true,,
"I2C","data",422.80861,0.000086437,,0x32,true,,
"I2C","data",422.808755313,0.0000865,,0x1A,true,,
"I2C","data",422.808900625,0.0000865,,0x17,true,,
"I2C","data",422.809045938,0.0000865,,0x00,true,,
"I2C","data",422.80919125,0.0000865,,0x00,true,,
"I2C","data",422.809336562,0.0000865,,0x00,true,,
"I2C","data",422.809481937,0.0000865,,0x00,true,,
"I2C","data",422.80962725,0.000086437,,0x00,true,,
"I2C","data",422.809772562,0.0000865,,0x00,true,,
"I2C","data",422.809914063,0.0000865,,0xC8,false,,
"I2C","stop",422.810064688,0.000000062,,,,,
"I2C","start",423.777442125,0.000000063,,,,,
"I2C","address",423.777452375,0.0000865,,,true,0x0B,false
"I2C","data",423.777544062,0.000179,,0xD5,true,,
"I2C","start",423.77773325,0.000000063,,,,,
"I2C","address",423.7777435,0.000086437,,,true,0x0B,true
"I2C","data",423.77792875,0.000086437,,0x00,true,,
"I2C","data",423.778071625,0.0000865,,0x00,true,,
"I2C","data",423.778213563,0.0000865,,0x4E,false,,
"I2C","stop",423.778364125,0.000000063,,,,,
"I2C","start",423.779098875,0.000000063,,,,,
"I2C","address",423.779109125,0.000086437,,,true,0x0B,false
"I2C","data",423.779200812,0.000177437,,0xD3,true,,
"I2C","data",423.7793835,0.0001315,,0x00,true,,
"I2C","data",423.77952025,0.000133938,,0x00,true,,
"I2C","data",423.779659375,0.000132937,,0x81,true,,
"I2C","stop",423.77980275,0.000000063,,,,,
"I2C","start",423.77981625,0.000000062,,,,,
"I2C","address",423.7798265,0.0000865,,,true,0x0B,false
"I2C","data",423.779918188,0.000207875,,0x00,true,,
"I2C","data",423.78013125,0.000131437,,0x51,true,,
"I2C","data",423.780267938,0.000133812,,0x00,true,,
"I2C","data",423.780407,0.000132875,,0x0A,true,,
"I2C","stop",423.78055025,0.000000063,,,,,
"I2C","start",423.780593937,0.000000063,,,,,
"I2C","address",423.780604187,0.000086438,,,true,0x0B,false
"I2C","data",423.780695875,0.001156875,,0x23,true,,
"I2C","start",423.781862938,0.000000063,,,,,
"I2C","address",423.781873125,0.0000865,,,true,0x0B,true
"I2C","data",423.782017812,0.0000865,,0x04,true,,
"I2C","data",423.782162125,0.0000865,,0x00,true,,
"I2C","data",423.782307437,0.0000865,,0x00,true,,
"I2C","data",423.78245275,0.0000865,,0x00,true,,
"I2C","data",423.782598063,0.0000865,,0x00,true,,
"I2C","data",423.782739563,0.0000865,,0x54,false,,
"I2C","stop",423.782890125,0.000000063,,,,,
"I2C","start",423.782909313,0.000000062,,,,,
"I2C","address",423.782919563,0.0000865,,,true,0x0B,false
"I2C","data",423.78301125,0.000214187,,0x00,true,,
"I2C","data",423.783230688,0.000131,,0x53,true,,
"I2C","data",423.783366875,0.000133875,,0x00,true,,
"I2C","data",423.783506,0.000132937,,0x20,true,,
"I2C","stop",423.783649375,0.000000063,,,,,
"I2C","start",423.784115812,0.000000063,,,,,
"I2C","address",423.784126,0.0000865,,,true,0x0B,false
"I2C","data",423.784217688,0.000736875,,0x23,true,,
"I2C","start",423.78496475,0.000000063,,,,,
"I2C","address",423.784974938,0.0000865,,,true,0x0B,true
"I2C","data",423.78511925,0.0000865,,0x04,true,,
"I2C","data",423.785263625,0.000086437,,0x00,true,,
"I2C","data",423.785408937,0.0000865,,0x00,true,,
"I2C","data",423.785554312,0.000086438,,0x00,true,,
"I2C","data",423.785699562,0.000086437,,0x00,true,,
"I2C","data",423.785840937,0.0000865,,0x54,false,,
"I2C","stop",423.785991438,0.000000063,,,,,
"I2C","start",423.787295,0.000000063,,,,,
"I2C","address",423.78730525,0.000086438,,,true,0x0B,false
"I2C","data",423.787396937,0.0001575,,0x00,true,,
"I2C","data",423.787559625,0.000131438,,0x54,true,,
"I2C","data",423.787696312,0.000133875,,0x00,true,,
"I2C","data",423.787835438,0.000132937,,0x4B,true,,
"I2C","stop",423.787978813,0.000000063,,,,,
"I2C","start",423.78798625,0.000000062,,,,,
"I2C","address",423.7879965,0.000086438,,,true,0x0B,false
"I2C","data",423.788088188,0.001455562,,0x23,true,,
"I2C","start",423.789553937,0.000000063,,,,,
"I2C","address",423.789564125,0.0000865,,,true,0x0B,true
"I2C","data",423.789708437,0.0000865,,0x04,true,,
"I2C","data",423.78985275,0.0000865,,0x86,true,,
"I2C","data",423.789997938,0.0000865,,0x03,true,,
"I2C","data",423.790143188,0.0000865,,0x04,true,,
"I2C","data",423.790288438,0.0000865,,0x00,true,,
"I2C","data",423.790429875,0.0000865,,0xF8,false,,
"I2C","stop",423.790580438,0.000000062,,,,,
"I2C","start",423.790595312,0.000000063,,,,,
"I2C","address",423.790605562,0.0000865,,,true,0x0B,false
"I2C","data",423.79069725,0.000218563,,0x00,true,,
"I2C","data",423.790921062,0.000131,,0x55,true,,
"I2C","data",423.791057313,0.000133875,,0x00,true,,
"I2C","data",423.791196437,0.000132937,,0x5E,true,,
"I2C","stop",423.791339812,0.000000063,,,,,
"I2C","start",423.795725937,0.000000063,,,,,
"I2C","address",423.795736187,0.000086438,,,true,0x0B,false
"I2C","data",423.795827875,0.00021675,,0x23,true,,
"I2C","start",423.796054813,0.000000062,,,,,
"I2C","address",423.796065,0.0000865,,,true,0x0B,true
"I2C","data",423.79620975,0.0000865,,0x02,true,,
"I2C","data",423.796354062,0.0000865,,0x10,true,,
"I2C","data",423.796499375,0.000086437,,0x08,true,,
"I2C","data",423.79664075,0.0000865,,0x16,true,,
"I2C","data",423.796786437,0.0000865,,0x16,true,,
"I2C","data",423.796927812,0.0000865,,0x16,false,,
"I2C","stop",423.797070125,0.000000063,,,,,
"I2C","start",423.797329687,0.000000063,,,,,
"I2C","address",423.797339875,0.0000865,,,true,0x0B,false
"I2C","data",423.797431625,0.000170062,,0x09,true,,
"I2C","start",423.797611875,0.000000063,,,,,
"I2C","address",423.797622125,0.0000865,,,true,0x0B,true
"I2C","data",423.797765,0.0000865,,0x13,true,,
"I2C","data",423.797908375,0.0000865,,0x31,true,,
"I2C","data",423.79805025,0.0000865,,0x94,false,,
"I2C","stop",423.798200688,0.000000062,,,,,
"I2C","start",423.798217125,0.000000062,,,,,
"I2C","address",423.798227312,0.0000865,,,true,0x0B,false
"I2C","data",423.798319063,0.0002225,,0x0A,true,,
"I2C","start",423.79855175,0.000000063,,,,,
"I2C","address",423.798562,0.000086438,,,true,0x0B,true
"I2C","data",423.79870525,0.000086438,,0xA7,true,,
"I2C","data",423.798848562,0.0000865,,0xFC,true,,
"I2C","data",423.7989905,0.0000865,,0xD8,false,,
"I2C","stop",423.799141,0.000000062,,,,,
"I2C","start",423.799156375,0.000000063,,,,,
"I2C","address",423.799166562,0.0000865,,,true,0x0B,false
"I2C","data",423.799258313,0.000225188,,0x10,true,,
"I2C","start",423.799493687,0.000000063,,,,,
"I2C","address",423.799503875,0.0000865,,,true,0x0B,true
"I2C","data",423.79964675,0.0000865,,0xE4,true,,
"I2C","data",423.799790125,0.0000865,,0x04,true,,
"I2C","data",423.799932062,0.0000865,,0xA1,false,,
"I2C","stop",423.800082562,0.000000063,,,,,
"I2C","start",423.80009275,0.000000063,,,,,
"I2C","address",423.800102938,0.0000865,,,true,0x0B,false
"I2C","data",423.800194625,0.0002305,,0x0F,true,,
"I2C","start",423.800435312,0.000000063,,,,,
"I2C","address",423.8004455,0.0000865,,,true,0x0B,true
"I2C","data",423.800588375,0.0000865,,0xA3,true,,
"I2C","data",423.80073175,0.0000865,,0x04,true,,
"I2C","data",423.80087375,0.0000865,,0x24,false,,
"I2C","stop",423.80102425,0.000000062,,,,,
"I2C","start",423.802372875,0.000000063,,,,,
"I2C","address",423.802383062,0.0000865,,,true,0x0B,false
"I2C","data",423.80247475,0.000245,,0x08,true,,
"I2C","start",423.802729937,0.000000063,,,,,
"I2C","address",423.802740125,0.0000865,,,true,0x0B,true
"I2C","data",423.802930312,0.0000865,,0xB7,true,,
"I2C","data",423.803073312,0.000086438,,0x0B,true,,
"I2C","data",423.80321525,0.0000865,,0x68,false,,
"I2C","stop",423.80336575,0.000000062,,,,,
"I2C","start",423.804116062,0.000000063,,,,,
"I2C","address",423.80412625,0.0000865,,,true,0x0B,false
"I2C","data",423.804217938,0.000167187,,0x0D,true,,
"I2C","start",423.804395312,0.000000063,,,,,
"I2C","address",423.804405562,0.0000865,,,true,0x0B,true
"I2C","data",423.804548937,0.000086437,,0x5F,true,,
"I2C","data",423.804692312,0.0000865,,0x00,true,,
"I2C","data",423.80483425,0.0000865,,0xFC,false,,
"I2C","stop",423.804984687,0.000000063,,,,,
"I2C","start",423.804996,0.000000062,,,,,
"I2C","address",423.80500625,0.0000865,,,true,0x0B,false
"I2C","data",423.805097938,0.000288812,,0x51,true,,
"I2C","start",423.805396938,0.000000063,,,,,
"I2C","address",423.805407125,0.0000865,,,true,0x0B,true
"I2C","data",423.805551875,0.0000865,,0x04,true,,
"I2C","data",423.80569625,0.000086438,,0x00,true,,
"I2C","data",423.8058415,0.0000865,,0x00,true,,
"I2C","data",423.805986813,0.0000865,,0x00,true,,
"I2C","data",423.806132187,0.0000865,,0x00,true,,
"I2C","data",423.806273625,0.0000865,,0xDA,false,,
"I2C","stop",423.806424063,0.000000062,,,,,
"I2C","start",423.807406313,0.000000063,,,,,
"I2C","address",423.807416563,0.0000865,,,true,0x0B,false
"I2C","data",423.80750825,0.00017675,,0xD2,true,,
"I2C","start",423.80769525,0.000000063,,,,,
"I2C","address",423.807705437,0.0000865,,,true,0x0B,true
"I2C","data",423.807848313,0.0000865,,0x00,true,,
"I2C","data",423.807991688,0.000086437,,0x00,true,,
"I2C","data",423.808133625,0.0000865,,0x2C,false,,
"I2C","stop",423.808284188,0.000000062,,,,,
"I2C","start",423.808296875,0.000000063,,,,,
"I2C","address",423.808307062,0.0000865,,,true,0x0B,false
"I2C","data",423.808398813,0.000219313,,0x3F,true,,
"I2C","start",423.808628312,0.000000063,,,,,
"I2C","address",423.808638562,0.000086437,,,true,0x0B,true
"I2C","data",423.808781437,0.000086438,,0x58,true,,
"I2C","data",423.808924812,0.0000865,,0x10,true,,
"I2C","data",423.80906675,0.0000865,,0x62,false,,
"I2C","stop",423.809217312,0.000000063,,,,,
"I2C","start",423.809272625,0.000000063,,,,,
"I2C","address",423.809282812,0.0000865,,,true,0x0B,false
"I2C","data",423.8093745,0.000172937,,0x3E,true,,
"I2C","start",423.809557625,0.000000062,,,,,
"I2C","address",423.809567875,0.000086438,,,true,0x0B,true
"I2C","data",423.809710688,0.0000865,,0x5D,true,,
"I2C","data",423.809854,0.0000865,,0x10,true,,
"I2C","data",423.809996,0.000086438,,0x35,false,,
"I2C","stop",423.8101465,0.000000063,,,,,
"I2C","start",423.810156125,0.000000063,,,,,
"I2C","address",423.810166375,0.000086438,,,true,0x0B,false
"I2C","data",423.810258062,0.0002185,,0x3D,true,,
"I2C","start",423.81048675,0.000000063,,,,,
"I2C","address",423.810496937,0.0000865,,,true,0x0B,true
"I2C","data",423.810694688,0.0000865,,0x5D,true,,
"I2C","data",423.810894813,0.0000865,,0x10,true,,
"I2C","data",423.811036688,0.000086437,,0x0F,false,,
"I2C","stop",423.811187125,0.000000063,,,,,
"I2C","start",423.817281562,0.000000063,,,,,
"I2C","address",423.817291813,0.0000865,,,true,0x0B,false
"I2C","data",423.8173835,0.000159813,,0x3F,true,,
"I2C","start",423.8175535,0.000000063,,,,,
"I2C","address",423.817563688,0.0000865,,,true,0x0B,true
"I2C","data",423.817707063,0.0000865,,0x58,true,,
"I2C","data",423.8178505,0.0000865,,0x10,true,,
"I2C","data",423.817992437,0.0000865,,0x62,false,,
"I2C","stop",423.818143,0.000000062,,,,,
"I2C","start",423.818155187,0.000000063,,,,,
"I2C","address",423.818165375,0.0000865,,,true,0x0B,false
"I2C","data",423.818257125,0.000215875,,0x3E,true,,
"I2C","start",423.818483188,0.000000062,,,,,
"I2C","address",423.818493438,0.0000865,,,true,0x0B,true
"I2C","data",423.818691188,0.0000865,,0x5D,true,,
"I2C","data",423.818891312,0.0000865,,0x10,true,,
"I2C","data",423.819033187,0.0000865,,0x35,false,,
"I2C","stop",423.819183562,0.000000063,,,,,
"I2C","start",423.819205375,0.000000062,,,,,
"I2C","address",423.819215625,0.000086438,,,true,0x0B,false
"I2C","data",423.819307312,0.000206313,,0x3D,true,,
"I2C","start",423.819523812,0.000000063,,,,,
"I2C","address",423.819534062,0.000086437,,,true,0x0B,true
"I2C","data",423.819676937,0.0000865,,0x5D,true,,
"I2C","data",423.819820312,0.0000865,,0x10,true,,
"I2C","data",423.81996225,0.0000865,,0x0F,false,,
"I2C","stop",423.820112687,0.000000063,,,,,
"I2C","start",423.820509375,0.000000063,,,,,
"I2C","address",423.820519625,0.0000865,,,true,0x0B,false
"I2C","data",423.820611312,0.000171,,0x66,true,,
"I2C","start",423.8207925,0.000000063,,,,,
"I2C","address",423.820802688,0.0000865,,,true,0x0B,true
"I2C","data",423.821040187,0.0000865,,0x20,true,,
"I2C","data",423.8211845,0.0000865,,0x94,true,,
"I2C","data",423.821329812,0.0000865,,0x48,true,,
"I2C","data",423.821475062,0.0000865,,0xFA,true,,
"I2C","data",423.82162025,0.0000865,,0x63,true,,
"I2C","data",423.8217655,0.000086437,,0x01,true,,
"I2C","data",423.821910688,0.000086437,,0x60,true,,
"I2C","data",423.822055938,0.0000865,,0xE4,true,,
"I2C","data",423.82220125,0.0000865,,0x04,true,,
"I2C","data",423.822346563,0.0000865,,0xA8,true,,
"I2C","data",423.822491875,0.000086438,,0x10,true,,
"I2C","data",423.822637125,0.0000865,,0xB1,true,,
"I2C","data",423.822782313,0.0000865,,0x10,true,,
"I2C","data",423.8229275,0.0000865,,0xB1,true,,
"I2C","data",423.82307275,0.0000865,,0x10,true,,
"I2C","data",423.823217937,0.0000865,,0x00,true,,
"I2C","data",423.823363187,0.000086438,,0x00,true,,
"I2C","data",423.823508437,0.0000865,,0x00,true,,
"I2C","data",423.823653813,0.000086438,,0x00,true,,
"I2C","data",423.823799062,0.0000865,,0xEC,true,,
"I2C","data",423.823944375,0.0000865,,0x04,true,,
"I2C","data",423.824089688,0.0000865,,0x00,true,,
"I2C","data",423.824235,0.0000865,,0x00,true,,
"I2C","data",423.824380313,0.0000865,,0x0A,true,,
"I2C","data",423.824525625,0.0000865,,0x32,true,,
"I2C","data",423.824670938,0.000086437,,0x1A,true,,
"I2C","data",423.824816188,0.000086437,,0x17,true,,
"I2C","data",423.824961438,0.0000865,,0x00,true,,
"I2C","data",423.825148313,0.000086438,,0x00,true,,
"I2C","data",423.825296938,0.0000865,,0x00,true,,
"I2C","data",423.825444625,0.0000865,,0x00,true,,
"I2C","data",423.82559325,0.0000865,,0x00,true,,
"I2C","data",423.825740937,0.0000865,,0x00,true,,
"I2C","data",423.82588575,0.0000865,,0xC8,false,,
"I2C","stop",423.826039125,0.000000062,,,,,
"I2C","start",424.796014313,0.000000063,,,,,
"I2C","address",424.7960245,0.0000865,,,true,0x0B,false
"I2C","data",424.796116187,0.000178875,,0xD5,true,,
"I2C","start",424.79630525,0.000000063,,,,,
"I2C","address",424.796315438,0.0000865,,,true,0x0B,true
"I2C","data",424.796500813,0.0000865,,0x00,true,,
"I2C","data",424.796643688,0.0000865,,0x00,true,,
"I2C","data",424.796785625,0.0000865,,0x4E,false,,
"I2C","stop",424.796936125,0.000000063,,,,,
"I2C","start",424.7975275,0.000000063,,,,,
"I2C","address",424.797537687,0.0000865,,,true,0x0B,false
"I2C","data",424.797629375,0.000177375,,0xD3,true,,
"I2C","data",424.797812,0.0001315,,0x00,true,,
"I2C","data",424.797948688,0.000133937,,0x00,true,,
"I2C","data",424.798087813,0.000132937,,0x81,true,,
"I2C","stop",424.798231187,0.000000063,,,,,
"I2C","start",424.7982435,0.000000062,,,,,
"I2C","address",424.798253688,0.0000865,,,true,0x0B,false
"I2C","data",424.798345438,0.000209062,,0x00,true,,
"I2C","data",424.79855975,0.0001315,,0x51,true,,
"I2C","data",424.798696437,0.000133875,,0x00,true,,
"I2C","data",424.798835563,0.000132875,,0x0A,true,,
"I2C","stop",424.798978875,0.000000063,,,,,
"I2C","start",424.799349125,0.000000063,,,,,
"I2C","address",424.799359375,0.000086437,,,true,0x0B,false
"I2C","data",424.799451062,0.000830437,,0x23,true,,
"I2C","start",424.800291688,0.000000062,,,,,
"I2C","address",424.800301875,0.0000865,,,true,0x0B,true
"I2C","data",424.800446625,0.0000865,,0x04,true,,
"I2C","data",424.800591,0.0000865,,0x00,true,,
"I2C","data",424.800736313,0.0000865,,0x00,true,,
"I2C","data",424.800881688,0.000086438,,0x00,true,,
"I2C","data",424.801026875,0.0000865,,0x00,true,,
"I2C","data",424.801168313,0.0000865,,0x54,false,,
"I2C","stop",424.80131875,0.000000063,,,,,
"I2C","start",424.802588188,0.000000062,,,,,
"I2C","address",424.802598375,0.0000865,,,true,0x0B,false
"I2C","data",424.802690063,0.000156937,,0x00,true,,
"I2C","data",424.80285225,0.000131438,,0x53,true,,
"I2C","data",424.802988938,0.000133875,,0x00,true,,
"I2C","data",424.803128,0.000132937,,0x20,true,,
"I2C","stop",424.803271375,0.000000062,,,,,
"I2C","start",424.8032795,0.000000063,,,,,
"I2C","address",424.803289688,0.0000865,,,true,0x0B,false
"I2C","data",424.803381375,0.001194625,,0x23,true,,
"I2C","start",424.804586187,0.000000063,,,,,
"I2C","address",424.804596375,0.0000865,,,true,0x0B,true
"I2C","data",424.804740687,0.0000865,,0x04,true,,
"I2C","data",424.804885062,0.000086438,,0x00,true,,
"I2C","data",424.805030312,0.0000865,,0x00,true,,
"I2C","data",424.805175562,0.0000865,,0x00,true,,
"I2C","data",424.80532075,0.0000865,,0x00,true,,
"I2C","data",424.805462125,0.0000865,,0x54,false,,
"I2C","stop",424.8056125,0.000000063,,,,,
"I2C","start",424.805630688,0.000000062,,,,,
"I2C","address",424.805640875,0.0000865,,,true,0x0B,false
"I2C","data",424.805732562,0.00021525,,0x00,true,,
"I2C","data",424.805953063,0.000130937,,0x54,true,,
"I2C","data",424.80608925,0.000133812,,0x00,true,,
"I2C","data",424.806228313,0.000132937,,0x4B,true,,
"I2C","stop",424.806371625,0.000000063,,,,,
"I2C","start",424.807572687,0.000000063,,,,,
"I2C","address",424.807582875,0.0000865,,,true,0x0B,false
"I2C","data",424.807674625,0.000468688,,0x23,true,,
"I2C","start",424.8081535,0.000000063,,,,,
"I2C","address",424.80816375,0.0000865,,,true,0x0B,true
"I2C","data",424.808308062,0.0000865,,0x04,true,,
"I2C","data",424.808452438,0.000086438,,0x86,true,,
"I2C","data",424.808597688,0.0000865,,0x03,true,,
"I2C","data",424.808743,0.0000865,,0x04,true,,
"I2C","data",424.808888313,0.0000865,,0x00,true,,
"I2C","data",424.809029813,0.000086437,,0xF8,false,,
"I2C","stop",424.80918025,0.000000063,,,,,
"I2C","start",424.809491375,0.000000063,,,,,
"I2C","address",424.809501562,0.0000865,,,true,0x0B,false
"I2C","data",424.809593312,0.000157438,,0x00,true,,
"I2C","data",424.809756,0.000131438,,0x55,true,,
"I2C","data",424.809892687,0.000203188,,0x00,true,,
"I2C","data",424.810101062,0.000194063,,0x5E,true,,
"I2C","stop",424.810305562,0.000000063,,,,,
"I2C","start",424.810312937,0.000000063,,,,,
"I2C","address",424.810323187,0.0000865,,,true,0x0B,false
"I2C","data",424.810414875,0.001203437,,0x23,true,,
"I2C","start",424.8116285,0.000000063,,,,,
"I2C","address",424.811638688,0.0000865,,,true,0x0B,true
"I2C","data",424.811783063,0.0000865,,0x02,true,,
"I2C","data",424.811927375,0.0000865,,0x10,true,,
"I2C","data",424.812072625,0.0000865,,0x08,true,,
"I2C","data",424.812214063,0.000086438,,0x16,true,,
"I2C","data",424.81235975,0.0000865,,0x16,true,,
"I2C","data",424.812501188,0.000086437,,0x16,false,,
"I2C","stop",424.812643562,0.000000063,,,,,
"I2C","start",424.81605475,0.000000063,,,,,
"I2C","address",424.816065,0.000086438,,,true,0x0B,false
"I2C","data",424.816156687,0.00017075,,0x09,true,,
"I2C","start",424.816337625,0.000000062,,,,,
"I2C","address",424.816347812,0.0000865,,,true,0x0B,true
"I2C","data",424.816490687,0.0000865,,0x0F,true,,
"I2C","data",424.816634125,0.000086438,,0x31,true,,
"I2C","data",424.816776063,0.0000865,,0x3F,false,,
"I2C","stop",424.816926562,0.000000063,,,,,
"I2C","start",424.817496375,0.000000062,,,,,
"I2C","address",424.817506625,0.0000865,,,true,0x0B,false
"I2C","data",424.817598313,0.0001705,,0x0A,true,,
"I2C","start",424.817779,0.000000063,,,,,
"I2C","address",424.817789188,0.0000865,,,true,0x0B,true
"I2C","data",424.817986375,0.0000865,,0xA5,true,,
"I2C","data",424.818187125,0.0000865,,0xFC,true,,
"I2C","data",424.818329125,0.0000865,,0xF2,false,,
"I2C","stop",424.818479625,0.000000062,,,,,
"I2C","start",424.81849025,0.000000062,,,,,
"I2C","address",424.818500438,0.0000865,,,true,0x0B,false
"I2C","data",424.818592187,0.000229875,,0x10,true,,
"I2C","start",424.81883225,0.000000062,,,,,
"I2C","address",424.8188425,0.0000865,,,true,0x0B,true
"I2C","data",424.818986188,0.0000865,,0xE4,true,,
"I2C","data",424.819129562,0.000086437,,0x04,true,,
"I2C","data",424.819271375,0.0000865,,0xA1,false,,
"I2C","stop",424.819421813,0.000000062,,,,,
"I2C","start",424.819447,0.000000062,,,,,
"I2C","address",424.819457188,0.0000865,,,true,0x0B,false
"I2C","data",424.819548937,0.000215437,,0x0F,true,,
"I2C","start",424.819774563,0.000000062,,,,,
"I2C","address",424.81978475,0.0000865,,,true,0x0B,true
"I2C","data",424.819927625,0.0000865,,0xA3,true,,
"I2C","data",424.820071063,0.0000865,,0x04,true,,
"I2C","data",424.820212938,0.0000865,,0x24,false,,
"I2C","stop",424.820363312,0.000000063,,,,,
"I2C","start",424.82037275,0.000000063,,,,,
"I2C","address",424.820382938,0.0000865,,,true,0x0B,false
"I2C","data",424.820474687,0.000229563,,0x08,true,,
"I2C","start",424.820714437,0.000000063,,,,,
"I2C","address",424.820724625,0.0000865,,,true,0x0B,true
"I2C","data",424.820867937,0.0000865,,0xB8,true,,
"I2C","data",424.821011375,0.000086438,,0x0B,true,,
"I2C","data",424.821153312,0.0000865,,0xAB,false,,
"I2C","stop",424.821303812,0.000000063,,,,,
"I2C","start",424.822592312,0.000000063,,,,,
"I2C","address",424.8226025,0.0000865,,,true,0x0B,false
"I2C","data",424.822694188,0.000167062,,0x0D,true,,
"I2C","start",424.822871437,0.000000063,,,,,
"I2C","address",424.822881688,0.000086438,,,true,0x0B,true
"I2C","data",424.823025062,0.000086438,,0x5F,true,,
"I2C","data",424.8231685,0.000086437,,0x00,true,,
"I2C","data",424.8233105,0.000086438,,0xFC,false,,
"I2C","stop",424.823461,0.000000062,,,,,
"I2C","start",424.823477,0.000000062,,,,,
"I2C","address",424.82348725,0.0000865,,,true,0x0B,false
"I2C","data",424.823578937,0.000284375,,0x51,true,,
"I2C","start",424.8238735,0.000000063,,,,,
"I2C","address",424.823883687,0.0000865,,,true,0x0B,true
"I2C","data",424.824052875,0.0000865,,0x04,true,,
"I2C","data",424.824201062,0.0000865,,0x00,true,,
"I2C","data",424.82434975,0.0000865,,0x00,true,,
"I2C","data",424.824497937,0.0000865,,0x00,true,,
"I2C","data",424.824646187,0.0000865,,0x00,true,,
"I2C","data",424.824790563,0.0000865,,0xDA,false,,
"I2C","stop",424.824943937,0.000000063,,,,,
"I2C","start",424.824966625,0.000000063,,,,,
"I2C","address",424.824976812,0.0000865,,,true,0x0B,false
"I2C","data",424.825068563,0.000189812,,0xD2,true,,
"I2C","start",424.825268563,0.000000062,,,,,
"I2C","address",424.82527875,0.0000865,,,true,0x0B,true
"I2C","data",424.825425063,0.0000865,,0x02,true,,
"I2C","data",424.825571375,0.0000865,,0x00,true,,
"I2C","data",424.8257305,0.0000865,,0x06,false,,
"I2C","stop",424.825883813,0.000000062,,,,,
"I2C","start",424.82593925,0.000000063,,,,,
"I2C","address",424.825949438,0.0000865,,,true,0x0B,false
"I2C","data",424.826041187,0.000162,,0x3F,true,,
"I2C","start",424.826213375,0.000000062,,,,,
"I2C","address",424.826223625,0.0000865,,,true,0x0B,true
"I2C","data",424.826369812,0.000086438,,0x57,true,,
"I2C","data",424.826515625,0.000086438,,0x10,true,,
"I2C","data",424.8266605,0.0000865,,0xA1,false,,
"I2C","stop",424.826813937,0.000000063,,,,,
"I2C","start",424.827487937,0.000000063,,,,,
"I2C","address",424.827498187,0.000086437,,,true,0x0B,false
"I2C","data",424.827589875,0.000159375,,0x3E,true,,
"I2C","start",424.827759437,0.000000063,,,,,
"I2C","address",424.827769687,0.000086438,,,true,0x0B,true
"I2C","data",424.827913,0.0000865,,0x5C,true,,
"I2C","data",424.828056375,0.0000865,,0x10,true,,
"I2C","data",424.828198375,0.0000865,,0x20,false,,
"I2C","stop",424.828348875,0.000000062,,,,,
"I2C","start",424.828359187,0.000000063,,,,,
"I2C","address",424.828369375,0.0000865,,,true,0x0B,false
"I2C","data",424.828461125,0.000217625,,0x3D,true,,
"I2C","start",424.828688937,0.000000063,,,,,
"I2C","address",424.828699125,0.0000865,,,true,0x0B,true
"I2C","data",424.828841875,0.0000865,,0x5C,true,,
"I2C","data",424.828985187,0.0000865,,0x10,true,,
"I2C","data",424.829127187,0.000086438,,0x1A,false,,
"I2C","stop",424.82927775,0.000000062,,,,,
"I2C","start",424.829411125,0.000000063,,,,,
"I2C","address",424.829421313,0.0000865,,,true,0x0B,false
"I2C","data",424.829513062,0.000159375,,0x3F,true,,
"I2C","start",424.829682625,0.000000063,,,,,
"I2C","address",424.829692875,0.000086438,,,true,0x0B,true
"I2C","data",424.829836125,0.0000865,,0x57,true,,
"I2C","data",424.8299795,0.0000865,,0x10,true,,
"I2C","data",424.830121375,0.0000865,,0xA1,false,,
"I2C","stop",424.830271875,0.000000063,,,,,
"I2C","start",424.830284563,0.000000062,,,,,
"I2C","address",424.830294812,0.0000865,,,true,0x0B,false
"I2C","data",424.8303865,0.000215438,,0x3E,true,,
"I2C","start",424.830612125,0.000000062,,,,,
"I2C","address",424.830622312,0.0000865,,,true,0x0B,true
"I2C","data",424.83076525,0.000086438,,0x5C,true,,
"I2C","data",424.830908688,0.000086437,,0x10,true,,
"I2C","data",424.831050625,0.0000865,,0x20,false,,
"I2C","stop",424.831201188,0.000000062,,,,,
"I2C","start",424.835878562,0.000000063,,,,,
"I2C","address",424.83588875,0.0000865,,,true,0x0B,false
"I2C","data",424.835980437,0.000159437,,0x3D,true,,
"I2C","start",424.836150062,0.000000063,,,,,
"I2C","address",424.83616025,0.0000865,,,true,0x0B,true
"I2C","data",424.836303625,0.000086438,,0x5C,true,,
"I2C","data",424.836447,0.0000865,,0x10,true,,
"I2C","data",424.836589,0.000086438,,0x1A,false,,
"I2C","stop",424.836739438,0.000000063,,,,,
"I2C","start",424.837957437,0.000000063,,,,,
"I2C","address",424.837967687,0.000086437,,,true,0x0B,false
"I2C","data",424.838059375,0.00017075,,0x66,true,,
"I2C","start",424.838240312,0.000000063,,,,,
"I2C","address",424.8382505,0.0000865,,,true,0x0B,true
"I2C","data",424.838487938,0.000086438,,0x20,true,,
"I2C","data",424.838632188,0.000086438,,0x94,true,,
"I2C","data",424.838777438,0.0000865,,0x48,true,,
"I2C","data",424.838922813,0.0000865,,0xFA,true,,
"I2C","data",424.839068125,0.0000865,,0x63,true,,
"I2C","data",424.839213438,0.0000865,,0x01,true,,
"I2C","data",424.83935875,0.0000865,,0x60,true,,
"I2C","data",424.839504062,0.0000865,,0xE4,true,,
"I2C","data",424.839649375,0.0000865,,0x04,true,,
"I2C","data",424.83979475,0.000086438,,0xA8,true,,
"I2C","data",424.839940062,0.000086438,,0x10,true,,
"I2C","data",424.840085375,0.000086437,,0xB1,true,,
"I2C","data",424.840230688,0.0000865,,0x10,true,,
"I2C","data",424.840376,0.000086437,,0xB1,true,,
"I2C","data",424.84052125,0.0000865,,0x10,true,,
"I2C","data",424.840666563,0.0000865,,0x00,true,,
"I2C","data",424.840811875,0.000086437,,0x00,true,,
"I2C","data",424.840957188,0.000086437,,0x00,true,,
"I2C","data",424.8411025,0.000086438,,0x00,true,,
"I2C","data",424.84132425,0.000086438,,0xEC,true,,
"I2C","data",424.841527312,0.0000865,,0x04,true,,
"I2C","data",424.841673125,0.000086438,,0x00,true,,
"I2C","data",424.841818375,0.0000865,,0x00,true,,
"I2C","data",424.841963688,0.0000865,,0x0A,true,,
"I2C","data",424.842109,0.000086437,,0x32,true,,
"I2C","data",424.842254187,0.0000865,,0x1A,true,,
"I2C","data",424.842399437,0.0000865,,0x17,true,,
"I2C","data",424.842544687,0.0000865,,0x00,true,,
"I2C","data",424.842689875,0.0000865,,0x00,true,,
"I2C","data",424.842835125,0.0000865,,0x00,true,,
"I2C","data",424.842980437,0.0000865,,0x00,true,,
"I2C","data",424.84312575,0.0000865,,0x00,true,,
"I2C","data",424.843271062,0.0000865,,0x00,true,,
"I2C","data",424.843412563,0.0000865,,0xC8,false,,
"I2C","stop",424.843563,0.000000062,,,,,
"I2C","start",425.816235375,0.000000062,,,,,
"I2C","address",425.816245625,0.0000865,,,true,0x0B,false
"I2C","data",425.816337313,0.0001795,,0xD5,true,,
"I2C","start",425.816527,0.000000062,,,,,
"I2C","address",425.816537187,0.0000865,,,true,0x0B,true
"I2C","data",425.816722625,0.0000865,,0x00,true,,
"I2C","data",425.816865563,0.0000865,,0x00,true,,
"I2C","data",425.817007563,0.0000865,,0x4E,false,,
"I2C","stop",425.817158,0.000000063,,,,,
"I2C","start",425.817724375,0.000000063,,,,,
"I2C","address",425.817734562,0.0000865,,,true,0x0B,false
"I2C","data",425.817826313,0.000177687,,0xD3,true,,
"I2C","data",425.818009188,0.0001315,,0x00,true,,
"I2C","data",425.818145937,0.000133937,,0x00,true,,
"I2C","data",425.818285063,0.000132937,,0x81,true,,
"I2C","stop",425.818428438,0.000000062,,,,,
"I2C","start",425.818440937,0.000000063,,,,,
"I2C","address",425.818451125,0.0000865,,,true,0x0B,false
"I2C","data",425.818542813,0.00020875,,0x00,true,,
"I2C","data",425.81875675,0.000131438,,0x51,true,,
"I2C","data",425.818893375,0.000133875,,0x00,true,,
"I2C","data",425.819032438,0.000132937,,0x0A,true,,
"I2C","stop",425.819175813,0.000000062,,,,,
"I2C","start",425.819568563,0.000000063,,,,,
"I2C","address",425.81957875,0.0000865,,,true,0x0B,false
"I2C","data",425.8196705,0.000807688,,0x23,true,,
"I2C","start",425.820488375,0.000000062,,,,,
"I2C","address",425.820498563,0.0000865,,,true,0x0B,true
"I2C","data",425.820643375,0.0000865,,0x04,true,,
"I2C","data",425.82078775,0.0000865,,0x00,true,,
"I2C","data",425.820933062,0.0000865,,0x00,true,,
"I2C","data",425.821078375,0.0000865,,0x00,true,,
"I2C","data",425.82122375,0.000086437,,0x00,true,,
"I2C","data",425.82136525,0.000086438,,0x54,false,,
"I2C","stop",425.82151575,0.000000063,,,,,
"I2C","start",425.822841563,0.000000063,,,,,
"I2C","address",425.82285175,0.0000865,,,true,0x0B,false
"I2C","data",425.8229435,0.000157688,,0x00,true,,
"I2C","data",425.823106375,0.0001315,,0x53,true,,
"I2C","data",425.823243063,0.000133937,,0x00,true,,
"I2C","data",425.823382187,0.000178375,,0x20,true,,
"I2C","stop",425.823571,0.000000063,,,,,
"I2C","start",425.823578688,0.000000063,,,,,
"I2C","address",425.823588875,0.0000865,,,true,0x0B,false
"I2C","data",425.823680562,0.00115275,,0x23,true,,
"I2C","start",425.824843563,0.000000063,,,,,
"I2C","address",425.82485375,0.0000865,,,true,0x0B,true
"I2C","data",425.825000438,0.0000865,,0x04,true,,
"I2C","data",425.8251725,0.0000865,,0x00,true,,
"I2C","data",425.825335,0.0000865,,0x00,true,,
"I2C","data",425.825483125,0.000086437,,0x00,true,,
"I2C","data",425.825631687,0.000086437,,0x00,true,,
"I2C","data",425.825775937,0.0000865,,0x54,false,,
"I2C","stop",425.82592925,0.000000063,,,,,
"I2C","start",425.825948063,0.000000063,,,,,
"I2C","address",425.82595825,0.0000865,,,true,0x0B,false
"I2C","data",425.82605,0.000171563,,0x00,true,,
"I2C","data",425.826226813,0.000133813,,0x54,true,,
"I2C","data",425.826365875,0.00013675,,0x00,true,,
"I2C","data",425.826507875,0.00013625,,0x4B,true,,
"I2C","stop",425.826654562,0.000000063,,,,,
"I2C","start",425.82769775,0.000000062,,,,,
"I2C","address",425.827707938,0.0000865,,,true,0x0B,false
"I2C","data",425.827799687,0.000471688,,0x23,true,,
"I2C","start",425.828281563,0.000000062,,,,,
"I2C","address",425.82829175,0.0000865,,,true,0x0B,true
"I2C","data",425.828438375,0.0000865,,0x04,true,,
"I2C","data",425.828586,0.0000865,,0x86,true,,
"I2C","data",425.828733625,0.000086437,,0x03,true,,
"I2C","data",425.82888225,0.0000865,,0x04,true,,
"I2C","data",425.829030438,0.0000865,,0x00,true,,
"I2C","data",425.829174813,0.0000865,,0xF8,false,,
"I2C","stop",425.829328187,0.000000063,,,,,
"I2C","start",425.829634937,0.000000063,,,,,
"I2C","address",425.829645125,0.0000865,,,true,0x0B,false
"I2C","data",425.829736813,0.000160375,,0x00,true,,
"I2C","data",425.829902375,0.000160625,,0x55,true,,
"I2C","data",425.83006825,0.000196,,0x00,true,,
"I2C","data",425.8302695,0.000133375,,0x5E,true,,
"I2C","stop",425.830413313,0.000000063,,,,,
"I2C","start",425.830420937,0.000000063,,,,,
"I2C","address",425.830431125,0.0000865,,,true,0x0B,false
"I2C","data",425.830522813,0.001203563,,0x23,true,,
"I2C","start",425.831736562,0.000000063,,,,,
"I2C","address",425.83174675,0.0000865,,,true,0x0B,true
"I2C","data",425.8318915,0.0000865,,0x02,true,,
"I2C","data",425.832035875,0.0000865,,0x10,true,,
"I2C","data",425.832181187,0.000086437,,0x08,true,,
"I2C","data",425.832322562,0.0000865,,0x16,true,,
"I2C","data",425.83246825,0.0000865,,0x16,true,,
"I2C","data",425.832609687,0.000086437,,0x16,false,,
"I2C","stop",425.832752,0.000000062,,,,,
"I2C","start",425.836076812,0.000000063,,,,,
"I2C","address",425.836087062,0.0000865,,,true,0x0B,false
"I2C","data",425.83617875,0.000170625,,0x09,true,,
"I2C","start",425.836359562,0.000000063,,,,,
"I2C","address",425.83636975,0.0000865,,,true,0x0B,true
"I2C","data",425.8365125,0.0000865,,0x0B,true,,
"I2C","data",425.836655875,0.000086438,,0x31,true,,
"I2C","data",425.83679775,0.0000865,,0x6B,false,,
"I2C","stop",425.836948188,0.000000062,,,,,
"I2C","start",425.837733313,0.000000063,,,,,
"I2C","address",425.8377435,0.0000865,,,true,0x0B,false
"I2C","data",425.837835187,0.0001705,,0x0A,true,,
"I2C","start",425.838015875,0.000000063,,,,,
"I2C","address",425.838026125,0.0000865,,,true,0x0B,true
"I2C","data",425.838169,0.0000865,,0x80,true,,
"I2C","data",425.838312438,0.000086438,,0xFC,true,,
"I2C","data",425.838454375,0.0000865,,0x1D,false,,
"I2C","stop",425.838604938,0.000000062,,,,,
"I2C","start",425.83862275,0.000000062,,,,,
"I2C","address",425.838633,0.000086437,,,true,0x0B,false
"I2C","data",425.838724688,0.000222812,,0x10,true,,
"I2C","start",425.838957687,0.000000063,,,,,
"I2C","address",425.838967938,0.0000865,,,true,0x0B,true
"I2C","data",425.839110812,0.0000865,,0xE4,true,,
"I2C","data",425.83925425,0.0000865,,0x04,true,,
"I2C","data",425.839396187,0.0000865,,0xA1,false,,
"I2C","stop",425.83954675,0.000000062,,,,,
"I2C","start",425.839571375,0.000000063,,,,,
"I2C","address",425.839581625,0.0000865,,,true,0x0B,false
"I2C","data",425.839673312,0.000216,,0x0F,true,,
"I2C","start",425.8398995,0.000000063,,,,,
"I2C","address",425.83990975,0.000086438,,,true,0x0B,true
"I2C","data",425.840052625,0.000086437,,0xA2,true,,
"I2C","data",425.840196063,0.000086437,,0x04,true,,
"I2C","data",425.840338062,0.000086437,,0x31,false,,
"I2C","stop",425.8404885,0.000000063,,,,,
"I2C","start",425.840498813,0.000000062,,,,,
"I2C","address",425.840509,0.0000865,,,true,0x0B,false
"I2C","data",425.840600688,0.000228625,,0x08,true,,
"I2C","start",425.8408395,0.000000062,,,,,
"I2C","address",425.84084975,0.000086438,,,true,0x0B,true
"I2C","data",425.841047375,0.0000865,,0xB8,true,,
"I2C","data",425.841247625,0.0000865,,0x0B,true,,
"I2C","data",425.841389063,0.0000865,,0xAB,false,,
"I2C","stop",425.841539625,0.000000063,,,,,
