name,type,start_time,duration,"data","ack","address","read"
"I2C","start",11.347574958,0.000000042,,,,
"I2C","address",11.482508167,0.0000865,,true,0x09,false
"I2C","data",11.482599875,0.0000865,0x32,true,,
"I2C","data",11.482691583,0.0000865,0x02,true,,
"I2C","data",11.482783292,0.0000865,0x80,true,,
"I2C","stop",11.482880208,0.000000042,,,,
"I2C","start",11.482885333,0.000000042,,,,
"I2C","address",11.482895542,0.0000865,,true,0x09,false
"I2C","data",11.48298725,0.0000865,0x3F,true,,
"I2C","data",11.483078958,0.0000865,0x00,true,,
"I2C","data",11.483170667,0.0000865,0x00,true,,
"I2C","stop",11.483267583,0.000000042,,,,
"I2C","start",11.48327375,0.000000042,,,,
"I2C","address",11.483283958,0.0000865,,true,0x09,false
"I2C","data",11.483375667,0.0000865,0x14,true,,
"I2C","data",11.483467375,0.0000865,0x00,true,,
"I2C","data",11.483559083,0.0000865,0x00,true,,
"I2C","stop",11.483656,0.000000042,,,,
"I2C","start",11.48366075,0.000000042,,,,
"I2C","address",11.483670958,0.0000865,,true,0x09,false
"I2C","data",11.483762667,0.0000865,0x3B,true,,
"I2C","data",11.483854375,0.0000865,0x40,true,,
"I2C","data",11.483946083,0.0000865,0x02,true,,
"I2C","stop",11.484043,0.000000042,,,,
"I2C","start",11.484047792,0.000000042,,,,
"I2C","address",11.484058,0.000086458,,true,0x09,false
"I2C","data",11.484149708,0.000086458,0x3C,true,,
"I2C","data",11.484241375,0.0000865,0x00,true,,
"I2C","data",11.484333083,0.0000865,0x1E,true,,
"I2C","stop",11.48443,0.000000042,,,,
"I2C","start",11.484447542,0.000000042,,,,
"I2C","address",11.48445775,0.000086458,,false,0x6A,false
"I2C","stop",11.484554667,0.000000042,,,,
"I2C","start",11.484559417,0.000000042,,,,
"I2C","address",11.484569625,0.0000865,,false,0x6A,false
"I2C","stop",11.484666542,0.000000042,,,,
"I2C","start",11.484671333,0.000000042,,,,
"I2C","address",11.484681542,0.0000865,,false,0x6A,false
"I2C","stop",11.484778458,0.000000042,,,,
"I2C","start",11.48478325,0.000000042,,,,
"I2C","address",11.484793458,0.000086458,,false,0x6A,false
"I2C","stop",11.484890375,0.000000042,,,,
"I2C","start",11.484904792,0.000000042,,,,
"I2C","address",11.484915,0.0000865,,false,0x6A,false
"I2C","stop",11.485011917,0.000000042,,,,
"I2C","start",11.485016667,0.000000042,,,,
"I2C","address",11.485026917,0.000086458,,false,0x6A,false
"I2C","stop",11.485123833,0.000000042,,,,
"I2C","start",11.485129042,0.000000042,,,,
"I2C","address",11.48513925,0.0000865,,false,0x6A,false
"I2C","stop",11.485236167,0.000000042,,,,
"I2C","start",11.485240958,0.000000042,,,,
"I2C","address",11.485251167,0.000086458,,false,0x6A,false
"I2C","stop",11.485348083,0.000000042,,,,
"I2C","start",11.485352833,0.000000042,,,,
"I2C","address",11.485363042,0.0000865,,false,0x6A,false
"I2C","stop",11.485459958,0.000000042,,,,
"I2C","start",11.485464708,0.000000042,,,,
"I2C","address",11.485474958,0.000086458,,false,0x6A,false
"I2C","stop",11.485571875,0.000000042,,,,
"I2C","start",11.485577,0.000000042,,,,
"I2C","address",11.485587208,0.0000865,,true,0x09,false
"I2C","data",11.485678917,0.0000865,0x32,true,,
"I2C","data",11.485770625,0.000086458,0x02,true,,
"I2C","data",11.485862333,0.000086458,0x80,true,,
"I2C","stop",11.48595925,0.000000042,,,,
"I2C","start",11.485964,0.000000042,,,,
"I2C","address",11.485974208,0.0000865,,true,0x09,false
"I2C","data",11.486065917,0.0000865,0x3F,true,,
"I2C","data",11.486157625,0.0000865,0x00,true,,
"I2C","data",11.486249333,0.0000865,0x00,true,,
"I2C","stop",11.48634625,0.000000042,,,,
"I2C","start",11.486351,0.000000042,,,,
"I2C","address",11.48636125,0.000086458,,true,0x09,false
"I2C","data",11.486452917,0.0000865,0x14,true,,
"I2C","data",11.486544625,0.0000865,0x00,true,,
"I2C","data",11.486636333,0.0000865,0x00,true,,
"I2C","stop",11.48673325,0.000000042,,,,
"I2C","start",11.486739042,0.000000042,,,,
"I2C","address",11.486749292,0.000086458,,true,0x09,false
"I2C","data",11.486840958,0.0000865,0x3B,true,,
"I2C","data",11.486932667,0.0000865,0x40,true,,
"I2C","data",11.487024375,0.0000865,0x02,true,,
"I2C","stop",11.487121292,0.000000042,,,,
"I2C","start",11.487126042,0.000000042,,,,
"I2C","address",11.487136292,0.000086458,,true,0x09,false
"I2C","data",11.487228,0.000086458,0x3C,true,,
"I2C","data",11.487319708,0.000086458,0x00,true,,
"I2C","data",11.487411417,0.000086458,0x1E,true,,
"I2C","stop",11.487508333,0.000000042,,,,
"I2C","start",11.487514083,0.000000042,,,,
"I2C","address",11.487524292,0.0000865,,true,0x0B,false
"I2C","data",11.487616,0.000178792,0xD5,true,,
"I2C","start",11.487805,0.000000042,,,,
"I2C","address",11.487815208,0.0000865,,true,0x0B,true
"I2C","data",11.488000333,0.0000865,0x00,true,,
"I2C","data",11.488143125,0.0000865,0x00,true,,
"I2C","data",11.488285,0.0000865,0x4E,false,,
"I2C","stop",11.488435417,0.000000042,,,,
"I2C","start",16.241193417,0.000000042,,,,
"I2C","address",16.241203625,0.0000865,,true,0x0B,false
"I2C","data",16.241295333,0.000179583,0xD5,true,,
"I2C","start",16.241485083,0.000000042,,,,
"I2C","address",16.241495333,0.000086458,,true,0x0B,true
"I2C","data",16.24168075,0.0000865,0x00,true,,
"I2C","data",16.241888708,0.000086458,0x00,true,,
"I2C","data",16.242087958,0.0000865,0x4E,false,,
"I2C","stop",16.242238417,0.000000042,,,,
"I2C","start",16.242259833,0.000000042,,,,
"I2C","address",16.242270042,0.0000865,,true,0x0B,false
"I2C","data",16.24236175,0.000201792,0xD3,true,,
"I2C","data",16.24256875,0.000131417,0x00,true,,
"I2C","data",16.242705375,0.000133875,0x00,true,,
"I2C","data",16.2428445,0.000132917,0x81,true,,
"I2C","stop",16.242987875,0.000000042,,,,
"I2C","start",16.24299975,0.000000042,,,,
"I2C","address",16.243009958,0.0000865,,true,0x0B,false
"I2C","data",16.243101667,0.0002205,0x18,true,,
"I2C","start",16.243332375,0.000000042,,,,
"I2C","address",16.243342583,0.0000865,,true,0x0B,true
"I2C","data",16.243485833,0.0000865,0xC8,true,,
"I2C","data",16.243629167,0.000086458,0x05,true,,
"I2C","data",16.243771042,0.0000865,0x44,false,,
"I2C","stop",16.243921458,0.000000042,,,,
"I2C","start",16.244391625,0.000000042,,,,
"I2C","address",16.244401833,0.0000865,,true,0x0B,false
"I2C","data",16.244493542,0.000165583,0x17,true,,
"I2C","start",16.244669333,0.000000042,,,,
"I2C","address",16.244679542,0.0000865,,true,0x0B,true
"I2C","data",16.244822917,0.000086458,0x63,true,,
"I2C","data",16.244966333,0.000086458,0x00,true,,
"I2C","data",16.245108333,0.000086458,0x02,false,,
"I2C","stop",16.245258833,0.000000042,,,,
"I2C","start",16.245267917,0.000000042,,,,
"I2C","address",16.245278125,0.0000865,,true,0x0B,false
"I2C","data",16.245369833,0.000222917,0x19,true,,
"I2C","start",16.245602958,0.000000042,,,,
"I2C","address",16.245613167,0.0000865,,true,0x0B,true
"I2C","data",16.245756083,0.0000865,0x88,true,,
"I2C","data",16.245899542,0.0000865,0x2C,true,,
"I2C","data",16.246041542,0.0000865,0xD6,false,,
"I2C","stop",16.246192125,0.000000042,,,,
"I2C","start",16.246204042,0.000000042,,,,
"I2C","address",16.24621425,0.0000865,,true,0x0B,false
"I2C","data",16.246305958,0.0002245,0x1B,true,,
"I2C","start",16.246540625,0.000000042,,,,
"I2C","address",16.246550833,0.0000865,,true,0x0B,true
"I2C","data",16.246694208,0.000086458,0x3E,true,,
"I2C","data",16.246837667,0.0000865,0x4B,true,,
"I2C","data",16.246979708,0.000086458,0xF9,false,,
"I2C","stop",16.24713025,0.000000042,,,,
"I2C","start",16.247145917,0.000000042,,,,
"I2C","address",16.247156167,0.000086458,,true,0x0B,false
"I2C","data",16.247247833,0.000220667,0x1C,true,,
"I2C","start",16.247478708,0.000000042,,,,
"I2C","address",16.247488917,0.0000865,,true,0x0B,true
"I2C","data",16.247632208,0.000086458,0x98,true,,
"I2C","data",16.247775458,0.0000865,0x03,true,,
"I2C","data",16.247917333,0.0000865,0x02,false,,
"I2C","stop",16.24806775,0.000000042,,,,
"I2C","start",16.248088667,0.000000042,,,,
"I2C","address",16.248098917,0.000086458,,true,0x0B,false
"I2C","data",16.248190625,0.00020625,0x20,true,,
"I2C","start",16.248407083,0.000000042,,,,
"I2C","address",16.248417292,0.0000865,,true,0x0B,true
"I2C","data",16.248561625,0.000086458,0x07,true,,
"I2C","data",16.248705958,0.0000865,0x41,true,,
"I2C","data",16.248851292,0.0000865,0x54,true,,
"I2C","data",16.248996583,0.000086458,0x4C,true,,
"I2C","data",16.249141833,0.0000865,0x20,true,,
"I2C","data",16.249287083,0.0000865,0x4E,true,,
"I2C","data",16.249432333,0.0000865,0x56,true,,
"I2C","data",16.249642167,0.000086458,0x54,true,,
"I2C","data",16.249787,0.0000865,0x37,true,,
"I2C","data",16.250027458,0.000086458,0x37,true,,
"I2C","data",16.250171792,0.0000865,0x37,true,,
"I2C","data",16.250311792,0.0000865,0x37,true,,
"I2C","data",16.250451292,0.0000865,0x37,true,,
"I2C","data",16.250590792,0.0000865,0x37,true,,
"I2C","data",16.250730292,0.0000865,0x37,true,,
"I2C","data",16.250869792,0.000086458,0x37,true,,
"I2C","data",16.251009833,0.0000865,0x37,true,,
"I2C","data",16.251249292,0.000086458,0x37,true,,
"I2C","data",16.2513965,0.0000865,0x37,true,,
"I2C","data",16.251621167,0.000086458,0x37,true,,
"I2C","data",16.2518285,0.000086458,0x37,true,,
"I2C","data",16.251965125,0.000086458,0x37,false,,
"I2C","stop",16.252106958,0.000000042,,,,
"I2C","start",16.252124875,0.000000042,,,,
"I2C","address",16.252135125,0.000086458,,true,0x0B,false
"I2C","data",16.252226833,0.000213542,0x21,true,,
"I2C","start",16.252450542,0.000000042,,,,
"I2C","address",16.25246075,0.0000865,,true,0x0B,true
"I2C","data",16.252605583,0.0000865,0x06,true,,
"I2C","data",16.252749958,0.0000865,0x44,true,,
"I2C","data",16.252895292,0.000086458,0x4A,true,,
"I2C","data",16.253040583,0.0000865,0x49,true,,
"I2C","data",16.253185917,0.0000865,0x30,true,,
"I2C","data",16.25333125,0.0000865,0x31,true,,
"I2C","data",16.253476583,0.0000865,0x36,true,,
"I2C","data",16.253618083,0.0000865,0x66,true,,
"I2C","data",16.253763917,0.000086458,0x66,true,,
"I2C","data",16.253905417,0.0000865,0x66,true,,
"I2C","data",16.254042625,0.0000865,0x66,true,,
"I2C","data",16.254179375,0.000086458,0x66,true,,
"I2C","data",16.254316083,0.0000865,0x66,true,,
"I2C","data",16.254452792,0.0000865,0x66,true,,
"I2C","data",16.254589542,0.0000865,0x66,true,,
"I2C","data",16.254726292,0.000086458,0x66,true,,
"I2C","data",16.254863,0.0000865,0x66,true,,
"I2C","data",16.25499975,0.0000865,0x66,true,,
"I2C","data",16.255136458,0.0000865,0x66,true,,
"I2C","data",16.255273167,0.0000865,0x66,true,,
"I2C","data",16.255409875,0.0000865,0x66,true,,
"I2C","data",16.255546583,0.0000865,0x66,false,,
"I2C","stop",16.255688542,0.000000042,,,,
"I2C","start",16.255725667,0.000000042,,,,
"I2C","address",16.255735917,0.000086458,,true,0x0B,false
"I2C","data",16.255827625,0.000191792,0x00,true,,
"I2C","data",16.256024625,0.000131417,0x51,true,,
"I2C","data",16.25616125,0.000133792,0x00,true,,
"I2C","data",16.256300292,0.000132833,0x0A,true,,
"I2C","stop",16.256443542,0.000000042,,,,
"I2C","start",16.258028833,0.000000042,,,,
"I2C","address",16.258039042,0.0000865,,true,0x0B,false
"I2C","data",16.25813075,0.000206208,0x23,true,,
"I2C","start",16.258347167,0.000000042,,,,
"I2C","address",16.258357375,0.0000865,,true,0x0B,true
"I2C","data",16.258502167,0.000086458,0x04,true,,
"I2C","data",16.258646417,0.0000865,0x00,true,,
"I2C","data",16.258791667,0.0000865,0x00,true,,
"I2C","data",16.258936917,0.0000865,0x00,true,,
"I2C","data",16.259082125,0.000086458,0x00,true,,
"I2C","data",16.259223583,0.0000865,0x54,false,,
"I2C","stop",16.259374125,0.000000042,,,,
"I2C","start",16.259450708,0.000000042,,,,
"I2C","address",16.259460917,0.0000865,,true,0x0B,false
"I2C","data",16.259552625,0.000157375,0x00,true,,
"I2C","data",16.25971525,0.0001315,0x53,true,,
"I2C","data",16.259852,0.000133792,0x00,true,,
"I2C","data",16.259991042,0.000132833,0x20,true,,
"I2C","stop",16.260134333,0.000000042,,,,
"I2C","start",16.260142417,0.000000042,,,,
"I2C","address",16.260152625,0.000086458,,true,0x0B,false
"I2C","data",16.260244333,0.001194917,0x23,true,,
"I2C","start",16.261449458,0.000000042,,,,
"I2C","address",16.261459667,0.000086458,,true,0x0B,true
"I2C","data",16.261603958,0.000086458,0x04,true,,
"I2C","data",16.261748333,0.000086458,0x00,true,,
"I2C","data",16.261893625,0.0000865,0x00,true,,
"I2C","data",16.262039,0.0000865,0x00,true,,
"I2C","data",16.262184375,0.0000865,0x00,true,,
"I2C","data",16.262325917,0.0000865,0x54,false,,
"I2C","stop",16.2624765,0.000000042,,,,
"I2C","start",16.262494833,0.000000042,,,,
"I2C","address",16.262505042,0.0000865,,true,0x0B,false
"I2C","data",16.26259675,0.000215167,0x00,true,,
"I2C","data",16.262817125,0.000131042,0x54,true,,
"I2C","data",16.262953375,0.000133917,0x00,true,,
"I2C","data",16.2630925,0.000132958,0x4B,true,,
"I2C","stop",16.263235875,0.000000042,,,,
"I2C","start",16.263244958,0.000000042,,,,
"I2C","address",16.263255167,0.0000865,,true,0x0B,false
"I2C","data",16.263346875,0.001453958,0x23,true,,
"I2C","start",16.264811042,0.000000042,,,,
"I2C","address",16.26482125,0.000086458,,true,0x0B,true
"I2C","data",16.264965625,0.000086458,0x04,true,,
"I2C","data",16.26511,0.000086458,0x86,true,,
"I2C","data",16.265320375,0.0000865,0x03,true,,
"I2C","data",16.26550725,0.0000865,0x06,true,,
"I2C","data",16.265655875,0.0000865,0x00,true,,
"I2C","data",16.265800583,0.0000865,0xD2,false,,
"I2C","stop",16.265954375,0.000000042,,,,
"I2C","start",16.265972708,0.000000042,,,,
"I2C","address",16.265982958,0.000086458,,true,0x0B,false
"I2C","data",16.266074667,0.000172542,0x00,true,,
"I2C","data",16.266252417,0.000134417,0x55,true,,
"I2C","data",16.266392042,0.000137292,0x00,true,,
"I2C","data",16.266534542,0.000136792,0x5E,true,,
"I2C","stop",16.26668175,0.000000042,,,,
"I2C","start",16.267197292,0.000000042,,,,
"I2C","address",16.2672075,0.0000865,,true,0x0B,false
"I2C","data",16.267299208,0.000653167,0x23,true,,
"I2C","start",16.267962542,0.000000042,,,,
"I2C","address",16.267972792,0.000086458,,true,0x0B,true
"I2C","data",16.268120458,0.000086458,0x02,true,,
"I2C","data",16.268267625,0.000086458,0x10,true,,
"I2C","data",16.268415708,0.000086458,0x08,true,,
"I2C","data",16.268559958,0.0000865,0x16,true,,
"I2C","data",16.268709,0.0000865,0x16,true,,
"I2C","data",16.268852875,0.0000865,0x16,false,,
"I2C","stop",16.268998167,0.000000042,,,,
"I2C","start",16.269388208,0.000000042,,,,
"I2C","address",16.269398417,0.0000865,,true,0x0B,false
"I2C","data",16.269490125,0.00017375,0x09,true,,
"I2C","start",16.269674042,0.000000042,,,,
"I2C","address",16.26968425,0.0000865,,true,0x0B,true
"I2C","data",16.26983,0.0000865,0xB8,true,,
"I2C","data",16.269975833,0.0000865,0x30,true,,
"I2C","data",16.270120208,0.0000865,0x1C,false,,
"I2C","stop",16.270273625,0.000000042,,,,
"I2C","start",16.270284583,0.000000042,,,,
"I2C","address",16.270294833,0.000086458,,true,0x0B,false
"I2C","data",16.270386542,0.000185708,0x0A,true,,
"I2C","start",16.270582417,0.000000042,,,,
"I2C","address",16.270592625,0.0000865,,true,0x0B,true
"I2C","data",16.270759458,0.0000865,0xCE,true,,
"I2C","data",16.270956917,0.0000865,0xFD,true,,
"I2C","data",16.271101333,0.0000865,0x97,false,,
"I2C","stop",16.271254792,0.000000042,,,,
"I2C","start",16.272106917,0.000000042,,,,
"I2C","address",16.272117125,0.0000865,,true,0x0B,false
"I2C","data",16.272208833,0.00017425,0x10,true,,
"I2C","start",16.27239325,0.000000042,,,,
"I2C","address",16.2724035,0.000086458,,true,0x0B,true
"I2C","data",16.272549625,0.0000865,0xDA,true,,
"I2C","data",16.272701125,0.000086458,0x04,true,,
"I2C","data",16.272858792,0.0000865,0x8E,false,,
"I2C","stop",16.273013167,0.000000042,,,,
"I2C","start",16.273024542,0.000000042,,,,
"I2C","address",16.27303475,0.0000865,,true,0x0B,false
"I2C","data",16.273126458,0.000186292,0x0F,true,,
"I2C","start",16.273322917,0.000000042,,,,
"I2C","address",16.273333125,0.0000865,,true,0x0B,true
"I2C","data",16.273479375,0.000086458,0x50,true,,
"I2C","data",16.273625625,0.0000865,0x04,true,,
"I2C","data",16.273770417,0.000086458,0x0F,false,,
"I2C","stop",16.273924167,0.000000042,,,,
"I2C","start",16.27437125,0.000000042,,,,
"I2C","address",16.2743815,0.000086458,,true,0x0B,false
"I2C","data",16.274473208,0.000173333,0x08,true,,
"I2C","start",16.274656708,0.000000042,,,,
"I2C","address",16.274666958,0.000086458,,true,0x0B,true
"I2C","data",16.274812667,0.0000865,0xB0,true,,
"I2C","data",16.274958958,0.0000865,0x0B,true,,
"I2C","data",16.27510375,0.0000865,0x03,false,,
"I2C","stop",16.275278125,0.000000042,,,,
"I2C","start",16.275288917,0.000000042,,,,
"I2C","address",16.275299125,0.000086458,,true,0x0B,false
"I2C","data",16.275390833,0.000182292,0x0D,true,,
"I2C","start",16.275583333,0.000000042,,,,
"I2C","address",16.275593542,0.0000865,,true,0x0B,true
"I2C","data",16.275755542,0.0000865,0x59,true,,
"I2C","data",16.275901792,0.0000865,0x00,true,,
"I2C","data",16.276046625,0.0000865,0x82,false,,
"I2C","stop",16.276201,0.000000042,,,,
"I2C","start",16.277960125,0.000000042,,,,
"I2C","address",16.277970375,0.000086458,,true,0x0B,false
"I2C","data",16.278062083,0.000235292,0x51,true,,
"I2C","start",16.278307583,0.000000042,,,,
"I2C","address",16.278317792,0.0000865,,true,0x0B,true
"I2C","data",16.278465458,0.000086458,0x04,true,,
"I2C","data",16.278613125,0.0000865,0x00,true,,
"I2C","data",16.278763208,0.0000865,0x00,true,,
"I2C","data",16.278917125,0.0000865,0x00,true,,
"I2C","data",16.279071542,0.000086458,0x00,true,,
"I2C","data",16.279221625,0.0000865,0xDA,false,,
"I2C","stop",16.279376,0.000000042,,,,
"I2C","start",16.279435292,0.000000042,,,,
"I2C","address",16.2794455,0.0000865,,true,0x0B,false
"I2C","data",16.279537208,0.000186125,0xD2,true,,
"I2C","start",16.279733542,0.000000042,,,,
"I2C","address",16.27974375,0.0000865,,true,0x0B,true
"I2C","data",16.27989,0.000086458,0x00,true,,
"I2C","data",16.28003625,0.0000865,0x00,true,,
"I2C","data",16.280181125,0.0000865,0x2C,false,,
"I2C","stop",16.2803355,0.000000042,,,,
"I2C","start",16.280347,0.000000042,,,,
"I2C","address",16.280357208,0.0000865,,true,0x0B,false
"I2C","data",16.280448917,0.000211333,0x3F,true,,
"I2C","start",16.280670417,0.000000042,,,,
"I2C","address",16.280680625,0.0000865,,true,0x0B,true
"I2C","data",16.28082675,0.0000865,0x3C,true,,
"I2C","data",16.280972458,0.0000865,0x10,true,,
"I2C","data",16.28111725,0.0000865,0xC3,false,,
"I2C","stop",16.281271167,0.000000042,,,,
"I2C","start",16.281984708,0.000000042,,,,
"I2C","address",16.281994917,0.0000865,,true,0x0B,false
"I2C","data",16.282086625,0.000163208,0x3E,true,,
"I2C","start",16.28226,0.000000042,,,,
"I2C","address",16.28227025,0.000086458,,true,0x0B,true
"I2C","data",16.282416375,0.0000865,0x3F,true,,
"I2C","data",16.282562167,0.0000865,0x10,true,,
"I2C","data",16.282707,0.0000865,0xEA,false,,
"I2C","stop",16.282860458,0.000000042,,,,
"I2C","start",16.282872333,0.000000042,,,,
"I2C","address",16.282882542,0.000086458,,true,0x0B,false
"I2C","data",16.28297425,0.00020725,0x3D,true,,
"I2C","start",16.283191708,0.000000042,,,,
"I2C","address",16.283201917,0.0000865,,true,0x0B,true
"I2C","data",16.283348542,0.0000865,0x3C,true,,
"I2C","data",16.28349425,0.000086458,0x10,true,,
"I2C","data",16.283643333,0.000086458,0xEF,false,,
"I2C","stop",16.283797583,0.000000042,,,,
"I2C","start",16.28439725,0.000000042,,,,
"I2C","address",16.284407458,0.0000865,,true,0x0B,false
"I2C","data",16.284499167,0.000162,0x3F,true,,
"I2C","start",16.284671375,0.000000042,,,,
"I2C","address",16.284681583,0.0000865,,true,0x0B,true
"I2C","data",16.284828208,0.0000865,0x3C,true,,
"I2C","data",16.284973958,0.000086458,0x10,true,,
"I2C","data",16.285119208,0.0000865,0xC3,false,,
"I2C","stop",16.285273083,0.000000042,,,,
"I2C","start",16.28528275,0.000000042,,,,
"I2C","address",16.285292958,0.0000865,,true,0x0B,false
"I2C","data",16.285384667,0.0002095,0x3E,true,,
"I2C","start",16.285604333,0.000000042,,,,
"I2C","address",16.285614583,0.000086458,,true,0x0B,true
"I2C","data",16.285761333,0.000086458,0x3F,true,,
"I2C","data",16.285907625,0.0000865,0x10,true,,
"I2C","data",16.2860525,0.000086458,0xEA,false,,
"I2C","stop",16.286206917,0.000000042,,,,
"I2C","start",16.286218083,0.000000042,,,,
"I2C","address",16.286228333,0.000086458,,true,0x0B,false
